"S_width [mm]","W_line [mm]","Freq [GHz]","dB(S(1,1)) []","dB(S(2,1)) []","im(Gamma(1:1)) []","re(Gamma(1:1)) []","re(Zo(1:1)) []"
0.2,0.5,37,-17.7701829579942,-0.385440312835749,1278.6342549954,3.7001079043814,48.2630495904014
0.2,0.5,37.05,-17.6581949564101,-0.386640829887141,1280.48498388244,3.70532047441453,48.2754411039939
0.2,0.5,37.1,-17.5489509463801,-0.38799309568247,1282.33616515967,3.71053529598955,48.2878928020543
0.2,0.5,37.15,-17.4426165249967,-0.389485884330105,1284.18779902337,3.71575236301281,48.3004048314414
0.2,0.5,37.2,-17.3393436735833,-0.391108069709912,1286.03988566686,3.72097166945443,48.3129773387926
0.2,0.5,37.25,-17.2392687865005,-0.39284863687013,1287.89242528051,3.72619320934457,48.3256104705198
0.2,0.5,37.3,-17.1425109063018,-0.394696692972579,1289.74541805167,3.73141697676969,48.3383043728056
0.2,0.5,37.35,-17.0491702213279,-0.396641477754133,1291.59886416474,3.73664296586863,48.3510591915986
0.2,0.5,37.4,-16.9593268760553,-0.398672373467793,1293.45276380107,3.74187117082874,48.3638750726099
0.2,0.5,37.45,-16.8730401361983,-0.400778914260424,1295.30711713903,3.74710158588185,48.3767521613086
0.2,0.5,37.5,-16.7903479400278,-0.402950794935857,1297.16192435391,3.75233420530031,48.3896906029181
0.2,0.5,37.55,-16.7112668551098,-0.405177879040993,1299.01718561798,3.75756902339286,48.4026905424112
0.2,0.5,37.6,-16.6357924463147,-0.40745020619777,1300.87290110043,3.76280603450055,48.4157521245068
0.2,0.5,37.65,-16.5639000472286,-0.409757998584609,1302.72907096739,3.76804523299259,48.4288754936648
0.2,0.5,37.7,-16.4955459137632,-0.412091666445202,1304.58569538189,3.77328661326221,48.4420607940826
0.2,0.5,37.75,-16.4306687265349,-0.41444181246847,1306.44277450385,3.77853016972242,48.4553081696906
0.2,0.5,37.8,-16.3691913980978,-0.41679923483825,1308.30030849009,3.78377589680188,48.4686177641475
0.2,0.5,37.85,-16.3110231328635,-0.419154928690296,1310.15829749429,3.78902378894067,48.4819897208368
0.2,0.5,37.9,-16.2560616818466,-0.421500085632346,1312.01674166699,3.79427384058609,48.4954241828618
0.2,0.5,37.95,-16.204195731375,-0.423826090871374,1313.87564115558,3.79952604618853,48.5089212930414
0.2,0.5,38,-16.1553073645472,-0.426124517339454,1315.73499610429,3.80478040019725,48.5224811939063
0.2,0.5,38.05,-16.1092745363013,-0.428387115998416,1317.59480665416,3.8100368970563,48.5361040276937
0.2,0.5,38.1,-16.0659735071337,-0.430605801208599,1319.45507294304,3.81529553120041,48.5497899363435
0.2,0.5,38.15,-16.0252811863464,-0.432772629630965,1321.31579510559,3.82055629705095,48.5635390614939
0.2,0.5,38.2,-15.9870773427259,-0.434879770538363,1323.17697327325,3.82581918901194,48.5773515444764
0.2,0.5,38.25,-15.9512466482832,-0.436919464555056,1325.03860757423,3.83108420146614,48.591227526312
0.2,0.5,38.3,-15.9176805286561,-0.438883966591447,1326.90069813351,3.83635132877118,48.6051671477064
0.2,0.5,38.35,-15.88627880159,-0.440765466885727,1328.76324507282,3.84162056525583,48.6191705490453
0.2,0.5,38.4,-15.8569510922523,-0.442555981277516,1330.62624851062,3.84689190521627,48.6332378703902
0.2,0.5,38.45,-15.8296180207363,-0.444247197589354,1332.48970856211,3.85216534291256,48.6473692514736
0.2,0.5,38.5,-15.8042121628324,-0.445830258412971,1334.35362533921,3.85744087256516,48.6615648316945
0.2,0.5,38.55,-15.78067878988,-0.447295450247169,1336.21799895055,3.86271848835158,48.6758247501139
0.2,0.5,38.6,-15.7589763972595,-0.448631752386779,1338.08282950144,3.86799818440316,48.6901491454499
0.2,0.5,38.65,-15.7390770338681,-0.449826172085282,1339.9481170939,3.87327995480202,48.7045381560734
0.2,0.5,38.7,-15.7209664468217,-0.450862748220427,1341.8138618266,3.87856379357808,48.718991920003
0.2,0.5,38.75,-15.7046440567528,-0.45172103186289,1343.68006379489,3.8838496947063,48.733510574901
0.2,0.5,38.8,-15.6901227795331,-0.452373728527011,1345.54672309078,3.88913765210409,48.7480942580678
0.2,0.5,38.85,-15.6774287101941,-0.452782981999758,1347.41383980292,3.89442765962881,48.7627431064377
0.2,0.5,38.9,-15.6666006843439,-0.452894454998,1349.28141401659,3.89971971107557,48.7774572565743
0.2,0.5,38.95,-15.65768973163,-0.4526279170501,1351.14944581369,3.90501380017509,48.7922368446651
0.2,0.5,39,-15.6507584348623,-0.451862747388017,1353.01793527276,3.91030992059189,48.8070820065175
0.2,0.5,39.05,-15.6458802073902,-0.45041806438889,1354.88688246892,3.91560806592255,48.8219928775532
0.2,0.5,39.1,-15.6431385002919,-0.448036256013431,1356.7562874739,3.92090822969428,48.8369695928037
0.2,0.5,39.15,-15.6426259499494,-0.444416729822869,1358.62615035601,3.92621040536367,48.8520122869057
0.2,0.5,39.2,-15.6444434756851,-0.439460398495198,1360.49647118013,3.93151458631567,48.8671210940958
0.2,0.5,39.25,-15.6486993363635,-0.434009207383136,1362.36725000773,3.93682076586279,48.8822961482056
0.2,0.5,39.3,-15.6555081542229,-0.43060915815618,1364.23848689681,3.94212893724454,48.8975375826572
0.2,0.5,39.35,-15.6649899137067,-0.431683038840607,1366.11018190194,3.94743909362716,48.9128455304576
0.2,0.5,39.4,-15.6772689427022,-0.436128878036974,1367.98233507421,3.9527512281035,48.9282201241943
0.2,0.5,39.45,-15.6924728833539,-0.441011793208476,1369.85494646125,3.95806533369322,48.9436614960302
0.2,0.5,39.5,-15.7107316594736,-0.444774187106671,1371.7280161072,3.96338140334328,48.9591697776981
0.2,0.5,39.55,-15.7321764474964,-0.447225626051066,1373.60154405273,3.96869942992857,48.9747451004962
0.2,0.5,39.6,-15.7569386578912,-0.448625392261288,1375.47553033499,3.97401940625294,48.9903875952831
0.2,0.5,39.65,-15.7851489339044,-0.449257096512933,1377.34997498763,3.97934132505038,49.006097392472
0.2,0.5,39.7,-15.8169361744468,-0.449332989343698,1379.22487804077,3.98466517898656,49.0218746220265
0.2,0.5,39.75,-15.8524265878077,-0.448997633885933,1381.10023952102,3.98999096066057,49.0377194134547
0.2,0.5,39.8,-15.8917427826546,-0.44834783272279,1382.97605945144,3.99531866260696,49.0536318958047
0.2,0.5,39.85,-15.935002902434,-0.447449266657818,1384.85233785155,4.00064827729807,49.069612197659
0.2,0.5,39.9,-15.9823198088055,-0.446347734120758,1386.72907473729,4.00597979714658,49.0856604471294
0.2,0.5,39.95,-16.0338003191066,-0.445076306753555,1388.60627012106,4.01131321450837,49.1017767718518
0.2,0.5,40,-16.0895445020535,-0.443659828966058,1390.48392401167,4.01664852168567,49.1179612989811
0.2,0.5,40.05,-16.1496450349371,-0.442117764232874,1392.36203641434,4.02198571093039,49.1342141551859
0.2,0.5,40.1,-16.2141866244943,-0.440466020262059,1394.24060733068,4.02732477444782,49.150535466643
0.2,0.5,40.15,-16.2832454924287,-0.438718138942732,1396.11963675872,4.03266570440052,49.1669253590324
0.2,0.5,40.2,-16.3568889252646,-0.436886085683447,1397.99912469285,4.03800849291249,49.1833839575318
0.2,0.5,40.25,-16.4351748868779,-0.434980781902314,1399.87907112382,4.04335313207365,49.1999113868113
0.2,0.5,40.3,-16.5181516906807,-0.433012469943073,1401.75947603876,4.04869961394444,49.2165077710282
0.2,0.5,40.35,-16.6058577271172,-0.43099096673288,1403.64033942113,4.05404793056083,49.2331732338213
0.2,0.5,40.4,-16.6983212408664,-0.428925842297724,1405.52166125073,4.05939807393944,49.2499078983059
0.2,0.5,40.45,-16.7955601510174,-0.426826546681958,1407.40344150368,4.06475003608295,49.2667118870679
0.2,0.5,40.5,-16.897581906507,-0.424702500871339,1409.28568015243,4.07010380898578,49.2835853221589
0.2,0.5,40.55,-17.004383368331,-0.422563162214376,1411.1683771657,4.0754593846399,49.3005283250902
0.2,0.5,40.6,-17.1159507095013,-0.420418071505847,1413.05153250852,4.08081675504092,49.3175410168279
0.2,0.5,40.65,-17.2322593234282,-0.418276886690926,1414.93514614217,4.08617591219441,49.3346235177868
0.2,0.5,40.7,-17.3532737314023,-0.416149406666346,1416.81921802422,4.09153684812234,49.3517759478252
0.2,0.5,40.75,-17.4789474801293,-0.414045587646159,1418.70374810848,4.09689955486978,49.3689984262395
0.2,0.5,40.8,-17.6092230208512,-0.411975553863614,1420.58873634497,4.10226402451178,49.3862910717582
0.2,0.5,40.85,-17.7440315624622,-0.409949603894969,1422.47418267996,4.10763024916037,49.4036540025368
0.2,0.5,40.9,-17.8832928921985,-0.407978213548067,1424.36008705591,4.11299822097183,49.4210873361518
0.2,0.5,40.95,-18.0269151589324,-0.406072036013743,1426.24644941149,4.11836793215399,49.4385911895953
0.2,0.5,41,-18.1747946158258,-0.404241899801927,1428.13326968153,4.12373937497379,49.4561656792693
0.3,0.5,37,-13.72520228999,-0.518542720657831,1304.54321241245,3.71904957485853,51.823320112047
0.3,0.5,37.05,-13.6434608178789,-0.52006037913533,1306.43770850472,3.72435406426357,51.8441702174481
0.3,0.5,37.1,-13.5659307838413,-0.521647225354257,1308.33261917956,3.72965985025258,51.8651028632268
0.3,0.5,37.15,-13.4924797939597,-0.523292452186148,1310.22794420347,3.73496692292827,51.8861181739384
0.3,0.5,37.2,-13.422982237999,-0.524985304808052,1312.12368333941,3.74027527237437,51.9072162733615
0.3,0.5,37.25,-13.3573192301988,-0.526715092382164,1314.01983634675,3.74558488865499,51.9283972844926
0.3,0.5,37.3,-13.2953785296643,-0.528471200380214,1315.91640298129,3.750895761814,51.9496613295405
0.3,0.5,37.35,-13.2370544438232,-0.530243103685376,1317.81338299526,3.75620788187447,51.9710085299211
0.3,0.5,37.4,-13.1822477180631,-0.532020380614764,1319.71077613733,3.76152123883802,51.9924390062515
0.3,0.5,37.45,-13.1308654143452,-0.533792728013615,1321.60858215259,3.76683582268429,52.0139528783453
0.3,0.5,37.5,-13.0828207812902,-0.535549977577038,1323.50680078253,3.77215162337036,52.0355502652061
0.3,0.5,37.55,-13.0380331179634,-0.537282113555233,1325.40543176512,3.7774686308302,52.0572312850231
0.3,0.5,37.6,-12.9964276333378,-0.538979291992107,1327.30447483472,3.7827868349741,52.0789960551648
0.3,0.5,37.65,-12.9579353031876,-0.540631861633648,1329.20392972211,3.7881062256882,52.1008446921741
0.3,0.5,37.7,-12.9224927259581,-0.542230386619344,1331.10379615453,3.79342679283394,52.1227773117626
0.3,0.5,37.75,-12.8900419789729,-0.543765671035752,1333.00407385562,3.79874852624758,52.1447940288052
0.3,0.5,37.8,-12.8605304761687,-0.5452287853643,1334.90476254545,3.80407141573971,52.1668949573347
0.3,0.5,37.85,-12.8339108283991,-0.546611094794104,1336.80586194054,3.80939545109481,52.1890802105362
0.3,0.5,37.9,-12.8101407072145,-0.547904289293945,1338.7073717538,3.81472062207075,52.211349900742
0.3,0.5,37.95,-12.7891827129029,-0.549100415245573,1340.60929169461,3.82004691839843,52.2337041394259
0.3,0.5,38,-12.7710042474773,-0.550191908333429,1342.51162146875,3.82537432978133,52.2561430371976
0.3,0.5,38.05,-12.7555773931997,-0.551171627266197,1344.41436077844,3.83070284589512,52.2786667037978
0.3,0.5,38.1,-12.7428787971571,-0.552032887776403,1346.31750932233,3.83603245638728,52.3012752480924
0.3,0.5,38.15,-12.7328895623382,-0.552769496211315,1348.2210667955,3.84136315087677,52.3239687780671
0.3,0.5,38.2,-12.7255951456055,-0.553375781898387,1350.12503288947,3.84669491895369,52.3467474008221
0.3,0.5,38.25,-12.7209852629143,-0.55384662735091,1352.02940729219,3.85202775017895,52.3696112225666
0.3,0.5,38.3,-12.7190538020967,-0.5541774952847,1353.93418968804,3.85736163408401,52.3925603486136
0.3,0.5,38.35,-12.7197987435052,-0.554364451356116,1355.83937975786,3.86269656017057,52.4155948833742
0.3,0.5,38.4,-12.7232220887946,-0.554404181517496,1357.74497717889,3.8680325179104,52.4387149303524
0.3,0.5,38.45,-12.7293297981179,-0.554294002928582,1359.65098162485,3.87336949674504,52.4619205921399
0.3,0.5,38.5,-12.738131736011,-0.554031867470619,1361.55739276588,3.87870748608565,52.4852119704103
0.3,0.5,38.55,-12.7496416262534,-0.553616357088044,1363.46421026857,3.88404647531285,52.5085891659139
0.3,0.5,38.6,-12.7638770160107,-0.55304667043107,1365.37143379595,3.88938645377654,52.5320522784726
0.3,0.5,38.65,-12.7808592495893,-0.552322600584473,1367.27906300751,3.89472741079584,52.5556014069742
0.3,0.5,38.7,-12.8006134521711,-0.551444504031092,1369.1870975592,3.90006933565895,52.5792366493672
0.3,0.5,38.75,-12.8231685239349,-0.550413261393014,1371.09553710339,3.90541221762311,52.6029581026557
0.3,0.5,38.8,-12.8485571450244,-0.549230230895392,1373.00438128893,3.91075604591459,52.6267658628934
0.3,0.5,38.85,-12.8768157918826,-0.547897195878199,1374.91362976113,3.91610080972869,52.650660025179
0.3,0.5,38.9,-12.9079847655374,-0.546416308011647,1376.82328216175,3.92144649822974,52.6746406836506
0.3,0.5,38.95,-12.9421082325088,-0.544790028123876,1378.73333812903,3.9267931005512,52.6987079314803
0.3,0.5,39,-12.9792342790896,-0.543021066702598,1380.64379729766,3.93214060579577,52.7228618608689
0.3,0.5,39.05,-13.0194149798613,-0.541112326171671,1382.55465929881,3.93748900303547,52.7471025630411
0.3,0.5,39.1,-13.0627064814141,-0.539066846963465,1384.46592376014,3.94283828131187,52.7714301282395
0.3,0.5,39.15,-13.1091691023759,-0.536887759213837,1386.37759030575,3.94818842963627,52.7958446457198
0.3,0.5,39.2,-13.158867450996,-0.534578241613491,1388.28965855625,3.95353943698992,52.8203462037454
0.3,0.5,39.25,-13.2118705616977,-0.532141488580275,1390.20212812874,3.95889129232434,52.8449348895823
0.3,0.5,39.3,-13.2682520521979,-0.529580686500219,1392.11499863679,3.96424398456162,52.8696107894936
0.3,0.5,39.35,-13.3280903030025,-0.526898999351638,1394.02826969047,3.96959750259478,52.8943739887347
0.3,0.5,39.4,-13.3914686613262,-0.524099563606479,1395.94194089635,3.97495183528815,52.9192245715476
0.3,0.5,39.45,-13.4584756717537,-0.521185491922986,1397.8560118575,3.98030697147786,52.944162621156
0.3,0.5,39.5,-13.5292053362692,-0.51815988482395,1399.7704821735,3.9856628999723,52.9691882197601
0.3,0.5,39.55,-13.603757406632,-0.515025849309522,1401.68535144045,3.99101960955262,52.9943014485316
0.3,0.5,39.6,-13.6822377124767,-0.51178652318849,1403.60061925094,3.99637708897335,53.0195023876079
0.3,0.5,39.65,-13.7647585289806,-0.508445103826808,1405.5162851941,4.00173532696303,53.0447911160877
0.3,0.5,39.7,-13.8514389884691,-0.505004880000556,1407.43234885559,4.00709431222482,53.0701677120257
0.3,0.5,39.75,-13.9424055409428,-0.501469265591554,1409.34880981758,4.01245403343728,53.0956322524269
0.3,0.5,39.8,-14.0377924692211,-0.497841833964776,1411.26566765881,4.0178144792551,53.1211848132423
0.3,0.5,39.85,-14.1377424652188,-0.494126352002764,1413.18292195452,4.02317563830995,53.1468254693635
0.3,0.5,39.9,-14.2424072748332,-0.490326812930142,1415.10057227655,4.02853749921133,53.1725542946174
0.3,0.5,39.95,-14.351948420041,-0.486447467228068,1417.01861819324,4.03390005054751,53.1983713617614
0.3,0.5,40,-14.4665380081232,-0.482492851103837,1418.93705926953,4.03926328088652,53.2242767424783
0.3,0.5,40.05,-14.5863596394847,-0.478467812136806,1420.85589506691,4.04462717877715,53.2502705073713
0.3,0.5,40.1,-14.7116094273709,-0.474377531862081,1422.77512514345,4.04999173275011,53.2763527259589
0.3,0.5,40.15,-14.8424971449573,-0.470227545175215,1424.69474905379,4.05535693131913,53.3025234666701
0.3,0.5,40.2,-14.979247517879,-0.466023756542161,1426.61476634917,4.06072276298219,53.328782796839
0.3,0.5,40.25,-15.1221016833645,-0.461772453079211,1428.53517657741,4.06608921622284,53.3551307827005
0.3,0.5,40.3,-15.2713188408612,-0.457480314628684,1430.45597928293,4.07145627951149,53.3815674893847
0.3,0.5,40.35,-15.4271781235228,-0.453154420999244,1432.37717400678,4.07682394130684,53.4080929809123
0.3,0.5,40.4,-15.5899807253735,-0.448802256567602,1434.2987602866,4.08219219005735,53.4347073201898
0.3,0.5,40.45,-15.7600523255777,-0.444431712453207,1436.22073765666,4.08756101420279,53.4614105690044
0.3,0.5,40.5,-15.93774585935,-0.440051086481892,1438.14310564786,4.09293040217585,53.488202788019
0.3,0.5,40.55,-16.123444695,-0.435669081150852,1440.06586378775,4.09830034240382,53.5150840367678
0.3,0.5,40.6,-16.3175662889318,-0.431294799797487,1441.98901160052,4.10367082331034,53.5420543736511
0.3,0.5,40.65,-16.520566405742,-0.426937741160989,1443.912548607,4.10904183331724,53.5691138559305
0.3,0.5,40.7,-16.7329440097416,-0.422607792508909,1445.83647432471,4.11441336084643,53.5962625397242
0.3,0.5,40.75,-16.9552469583884,-0.418315221483271,1447.76078826783,4.11978539432193,53.6235004800025
0.3,0.5,40.8,-17.1880786587439,-0.414070666802465,1449.68548994722,4.12515792217186,53.6508277305824
0.3,0.5,40.85,-17.4321058872018,-0.409885127937341,1451.61057887043,4.13053093283064,53.6782443441235
0.3,0.5,40.9,-17.6880680230861,-0.405769953862968,1453.53605454171,4.13590441474121,53.7057503721227
0.3,0.5,40.95,-17.9567880120536,-0.401736830971764,1455.46191646203,4.14127835635733,53.7333458649102
0.3,0.5,41,-18.2391854607453,-0.397797770219499,1457.38816412907,4.14665274614597,53.7610308716442
0.4,0.5,37,-11.422052267941,-0.63128187358463,1319.1155727269,3.77892855403786,54.3678019434089
0.4,0.5,37.05,-11.3677037356008,-0.634827459280194,1321.02775993833,3.78415383282105,54.3968137752905
0.4,0.5,37.1,-11.3160584606648,-0.638280561862156,1322.94030762888,3.78937953449775,54.4259290745574
0.4,0.5,37.15,-11.2673076690827,-0.641634353608454,1324.85321535275,3.79460564908218,54.4551479631061
0.4,0.5,37.2,-11.2216282265349,-0.644882252525571,1326.76648266108,3.79983216658725,54.484470561678
0.4,0.5,37.25,-11.1791790960349,-0.648017927865833,1328.68010910191,3.8050590770243,54.5138969898545
0.4,0.5,37.3,-11.1400980846642,-0.651035305427547,1330.59409422019,3.8102863704029,54.5434273660504
0.4,0.5,37.35,-11.1044990319233,-0.65392857263707,1332.50843755782,3.81551403673063,54.5730618075085
0.4,0.5,37.4,-11.072469580721,-0.656692183411379,1334.42313865361,3.82074206601292,54.6028004302938
0.4,0.5,37.45,-11.0440696498975,-0.65932086279866,1336.33819704335,3.82597044825282,54.6326433492875
0.4,0.5,37.5,-11.0193306954527,-0.661809611393437,1338.25361225975,3.83119917345089,54.6625906781817
0.4,0.5,37.55,-10.9982558084839,-0.664153709521332,1340.16938383251,3.83642823160498,54.6926425294735
0.4,0.5,37.6,-10.9808206542938,-0.666348721186876,1342.08551128828,3.84165761271014,54.7227990144592
0.4,0.5,37.65,-10.9669752128407,-0.66839049777571,1344.00199415072,3.84688730675844,54.7530602432292
0.4,0.5,37.7,-10.9566462394055,-0.670275181500004,1345.91883194045,3.85211730373888,54.7834263246619
0.4,0.5,37.75,-10.9497403294659,-0.671999208572699,1347.8360241751,3.85734759363728,54.8138973664183
0.4,0.5,37.8,-10.9461474459339,-0.673559312092454,1349.75357036931,3.86257816643618,54.8444734749366
0.4,0.5,37.85,-10.945744751762,-0.674952524616327,1351.67147003474,3.86780901211475,54.8751547554267
0.4,0.5,37.9,-10.9484005869068,-0.676176180391344,1353.58972268006,3.87304012064874,54.9059413118647
0.4,0.5,37.95,-10.9539784350937,-0.677227917208835,1355.50832781101,3.87827148201041,54.9368332469875
0.4,0.5,38,-10.9623407411808,-0.678105677836297,1357.42728493033,3.88350308616853,54.9678306622873
0.4,0.5,38.05,-10.973352461954,-0.678807710970116,1359.34659353786,3.8887349230883,54.9989336580067
0.4,0.5,38.1,-10.9868842593869,-0.679332571638205,1361.26625313047,3.89396698273137,55.0301423331328
0.4,0.5,38.15,-11.0028152732703,-0.679679120963586,1363.18626320213,3.89919925505586,55.0614567853924
0.4,0.5,38.2,-11.0210354374304,-0.679846525177057,1365.10662324388,3.90443173001636,55.0928771112466
0.4,0.5,38.25,-11.0414473287325,-0.679834253738134,1367.02733274387,3.90966439756397,55.1244034058854
0.4,0.5,38.3,-11.0639675594687,-0.679642076386322,1368.94839118733,3.91489724764636,55.156035763223
0.4,0.5,38.35,-11.08852774084,-0.679270058897264,1370.86979805663,3.92013027020783,55.1877742758924
0.4,0.5,38.4,-11.1150750578545,-0.678718557257088,1372.79155283126,3.92536345518942,55.2196190352402
0.4,0.5,38.45,-11.1435725042383,-0.677988209889015,1374.71365498785,3.93059679252897,55.2515701313219
0.4,0.5,38.5,-11.1739988303445,-0.677079927463185,1376.63610400016,3.93583027216128,55.2836276528966
0.4,0.5,38.55,-11.2063482581761,-0.67599487968622,1378.55889933912,3.94106388401821,55.3157916874222
0.4,0.5,38.6,-11.2406300161972,-0.674734478290089,1380.48204047284,3.94629761802889,55.3480623210505
