"W_line [mm]","Freq [GHz]","dB(S(1,1)) []","dB(S(2,1)) []","im(Gamma(1)) []","re(Gamma(1)) []","re(Zo(1)) []"
0.5,37,-15.1281813535,-1.80414257876016,1468.24711500573,3.53548485442267,84.9638397041871
0.5,37.05,-15.495602675692,-1.69101566256813,1470.24222821884,3.5399263725528,84.9701553001926
0.5,37.1,-15.8921215803138,-1.57703123172131,1472.23735195321,3.54436754740809,84.9764627507083
0.5,37.15,-16.3100070487803,-1.46599182381939,1474.23248615775,3.54880837945179,84.982762060019
0.5,37.2,-16.7425566342494,-1.36082766604399,1476.22763078157,3.55324886914729,84.9890532324815
0.5,37.25,-17.1841702716984,-1.26348123154409,1478.222785774,3.55768901695815,84.9953362725239
0.5,37.3,-17.6303066477743,-1.17497880822627,1480.21795108454,3.56212882334802,85.0016111846447
0.5,37.35,-18.0773734144586,-1.09560828155986,1482.21312666295,3.56656828878064,85.0078779734125
0.5,37.4,-18.5225893077631,-1.02512957698102,1484.20831245915,3.57100741371978,85.0141366434653
0.5,37.45,-18.9638427385346,-0.962969150678963,1486.2035084233,3.57544619862926,85.0203871995096
0.5,37.5,-19.399560640788,-0.90837551336472,1488.19871450574,3.57988464397289,85.0266296463201
0.5,37.55,-19.8285939150352,-0.860530998269606,1490.19393065703,3.58432275021447,85.032863988739
0.5,37.6,-20.25012121194,-0.818624833873067,1492.18915682792,3.58876051781773,85.039090231675
0.5,37.65,-20.6635702774415,-0.781896220520962,1494.18439296938,3.59319794724637,85.0453083801036
0.5,37.7,-21.0685548974587,-0.74965619077066,1496.17963903256,3.59763503896398,85.0515184390652
0.5,37.75,-21.4648250912869,-0.721295557357245,1498.17489496884,3.60207179343405,85.0577204136657
0.5,37.8,-21.8522282408348,-0.696284397696275,1500.17016072977,3.60650821111993,85.0639143090752
0.5,37.85,-22.2306790813374,-0.674166845763795,1502.16543626712,3.61094429248483,85.0701001305276
0.5,37.9,-22.600136788095,-0.654553647753631,1504.16072153286,3.61538003799181,85.0762778833199
0.5,37.95,-22.9605877043451,-0.637113992608264,1506.15601647915,3.61981544810372,85.0824475728117
0.5,38,-23.3120325352301,-0.621567488159809,1508.15132105834,3.62425052328325,85.0886092044248
0.5,38.05,-23.6544770700875,-0.607676740178941,1510.146635223,3.62868526399284,85.0947627836421
0.5,38.1,-23.9879256888113,-0.595240736353313,1512.14195892589,3.63311967069471,85.1009083160076
0.5,38.15,-24.3123770617497,-0.584089087120557,1514.13729211994,3.63755374385084,85.1070458071252
0.5,38.2,-24.6278215724547,-0.574077092517675,1516.13263475832,3.64198748392297,85.1131752626589
0.5,38.25,-24.9342400849127,-0.56508156305753,1518.12798679437,3.64642089137255,85.1192966883314
0.5,38.3,-25.2316037475932,-0.556997306255287,1520.12334818161,3.65085396666073,85.1254100899241
0.5,38.35,-25.5198745809632,-0.549734188093256,1522.11871887377,3.65528671024841,85.1315154732764
0.5,38.4,-25.7990066374171,-0.543214683813538,1524.11409882479,3.65971912259616,85.1376128442848
0.5,38.45,-26.0689475564113,-0.537371840993533,1526.10948798877,3.66415120416423,85.1437022089031
0.5,38.5,-26.3296403657581,-0.532147587594047,1528.10488632002,3.66858295541255,85.1497835731409
0.5,38.55,-26.5810254045611,-0.527491327310461,1530.10029377304,3.67301437680073,85.1558569430638
0.5,38.6,-26.823042265597,-0.523358773466922,1532.0957103025,3.67744546878802,85.1619223247923
0.5,38.65,-27.055631675881,-0.519710980598987,1534.0911358633,3.68187623183332,85.167979724502
0.5,38.7,-27.2787372540924,-0.516513539706053,1536.08657041048,3.6863066663952,85.174029148422
0.5,38.75,-27.4923071024479,-0.513735908964829,1538.08201389932,3.69073677293183,85.1800706028352
0.5,38.8,-27.6962952082412,-0.511350856575166,1540.07746628524,3.69516655190104,85.1861040940777
0.5,38.85,-27.890662646174,-0.509333996475594,1542.07292752387,3.69959600376026,85.1921296285377
0.5,38.9,-28.0753785863121,-0.507663401034522,1544.06839757103,3.70402512896656,85.1981472126555
0.5,38.95,-28.2504211235765,-0.50631927760365,1546.06387638271,3.70845392797662,85.2041568529228
0.5,39,-28.4157779528027,-0.505283698109814,1548.05936391511,3.71288240124673,85.2101585558821
0.5,39.05,-28.5714469184205,-0.504540372744219,1550.05486012458,3.71731054923279,85.2161523281264
0.5,39.1,-28.7174364697747,-0.504074460355366,1552.05036496769,3.7217383723903,85.2221381762985
0.5,39.15,-28.8537660522441,-0.503872409423523,1554.04587840115,3.72616587117438,85.2281161070905
0.5,39.2,-28.9804664610315,-0.503921824540102,1556.0414003819,3.73059304603974,85.2340861272432
0.5,39.25,-29.0975801793218,-0.504211354175588,1558.03693086702,3.7350198974407,85.2400482435458
0.5,39.3,-29.20516171604,-0.504730596228352,1560.03246981381,3.73944642583117,85.2460024628355
0.5,39.35,-29.3032779513363,-0.505470018431259,1562.02801717971,3.74387263166466,85.2519487919966
0.5,39.4,-29.3920084907884,-0.506420891175928,1564.02357292238,3.7482985153943,85.2578872379601
0.5,39.45,-29.471446022706,-0.50757523071402,1566.01913699961,3.7527240774728,85.2638178077035
0.5,39.5,-29.5416966673005,-0.508925751026282,1568.01470936943,3.75714931835248,85.2697405082501
0.5,39.55,-29.602880302195,-0.510465822924972,1570.01028998999,3.76157423848528,85.2756553466685
0.5,39.6,-29.6551308459942,-0.512189439184208,1572.00587881964,3.76599883832271,85.2815623300721
0.5,39.65,-29.6985964805106,-0.514091184683536,1574.00147581693,3.77042311831592,85.2874614656186
0.5,39.7,-29.7334397926982,-0.516166210709148,1575.99708094055,3.77484707891567,85.2933527605099
0.5,39.75,-29.7598378192427,-0.518410212690728,1577.99269414938,3.77927072057231,85.2992362219909
0.5,39.8,-29.7779819798647,-0.520819410763408,1579.98831540248,3.78369404373584,85.3051118573496
0.5,39.85,-29.788077889421,-0.523390532638362,1581.98394465906,3.78811704885586,85.3109796739166
0.5,39.9,-29.7903450435117,-0.526120798344598,1583.97958187854,3.79253973638162,85.3168396790643
0.5,39.95,-29.7850163771895,-0.529007906471151,1585.97522702049,3.79696210676197,85.3226918802066
0.5,40,-29.7723377011889,-0.532050021595187,1587.97088004465,3.80138416044542,85.3285362847986
0.5,40.05,-29.7525670245781,-0.535245762629374,1589.96654091094,3.80580589788013,85.334372900336
0.5,40.1,-29.7259737766263,-0.538594191862314,1591.96220957944,3.81022731951388,85.3402017343547
0.5,40.15,-29.6928379438133,-0.542094804500285,1593.95788601042,3.81464842579414,85.34602279443
0.5,40.2,-29.6534491401542,-0.545747518547968,1595.9535701643,3.81906921716801,85.3518360881769
0.5,40.25,-29.6081056303294,-0.549552664890911,1597.94926200168,3.82348969408229,85.3576416232488
0.5,40.3,-29.5571133254949,-0.553510977463967,1599.94496148332,3.82790985698343,85.3634394073377
0.5,40.35,-29.500784771165,-0.557623583408492,1601.94066857016,3.83232970631757,85.3692294481734
0.5,40.4,-29.4394381452993,-0.561891993136842,1603.93638322329,3.83674924253055,85.3750117535233
0.5,40.45,-29.3733962828166,-0.566318090236637,1605.93210540397,3.84116846606791,85.3807863311918
0.5,40.5,-29.3029857403441,-0.570904121159005,1607.92783507365,3.84558737737489,85.3865531890198
0.5,40.55,-29.2285359122375,-0.575652684645389,1609.92357219391,3.85000597689646,85.3923123348846
0.5,40.6,-29.1503782059257,-0.580566720856647,1611.91931672651,3.85442426507729,85.3980637766991
0.5,40.65,-29.0688452815749,-0.585649500175913,1613.91506863339,3.85884224236182,85.4038075224115
0.5,40.7,-28.984270358059,-0.590904611663777,1615.91082787662,3.86325990919422,85.409543580005
0.5,40.75,-28.8969865843577,-0.596335951150386,1617.90659441846,3.86767726601841,85.4152719574973
0.5,40.8,-28.8073264728794,-0.601947708954637,1619.90236822132,3.87209431327809,85.4209926629403
0.5,40.85,-28.7156213888679,-0.607744357225401,1621.89814924778,3.87651105141672,85.4267057044193
0.5,40.9,-28.6222010880641,-0.613730636904139,1623.89393746057,3.88092748087755,85.432411090053
0.5,40.95,-28.5273932931755,-0.619911544312187,1625.88973282258,3.88534360210365,85.438108827993
0.5,41,-28.43152329848,-0.626292317369578,1627.88553529687,3.88975941553787,85.4437989264232
0.55,37,-18.4170148708813,-1.08526074565042,1467.90460280518,3.50576336990821,84.2988363723192
0.55,37.05,-18.9700368759394,-1.00627749107463,1469.90076349642,3.51018358497818,84.3052275101987
0.55,37.1,-19.5241122908885,-0.929381639088979,1471.89693356576,3.51460345335049,84.3116093534572
0.55,37.15,-20.0741561185189,-0.85879196118519,1473.89311295981,3.51902297555999,84.3179819115426
0.55,37.2,-20.6165821758779,-0.797246217107619,1475.88930162544,3.52344215214124,84.3243451939631
0.55,37.25,-21.1489532754167,-0.745675661900736,1477.88549950976,3.5278609836286,84.3306992102857
0.55,37.3,-21.6696890980705,-0.703572253842456,1479.88170656015,3.53227947055611,84.3370439701364
0.55,37.35,-22.1778344210775,-0.669627178215647,1481.87792272421,3.53669761345755,84.343379483199
0.55,37.4,-22.6728811918141,-0.642285771423217,1483.8741479498,3.54111541286636,84.3497057592145
0.55,37.45,-23.1546349278185,-0.620087043929666,1485.87038218502,3.54553286931568,84.3560228079803
0.55,37.5,-23.6231159400271,-0.601811402400512,1487.86662537823,3.54994998333827,84.36233063935
0.55,37.55,-24.0784871309776,-0.586508880677343,1489.86287747802,3.55436675546654,84.3686292632323
0.55,37.6,-24.5210016991929,-0.57347042995685,1491.85913843322,3.55878318623253,84.3749186895902
0.55,37.65,-24.9509655747861,-0.562180669635286,1493.85540819291,3.56319927616785,84.3811989284409
0.55,37.7,-25.3687106708835,-0.552270922035485,1495.8516867064,3.56761502580374,84.3874699898547
0.55,37.75,-25.7745760358341,-0.54347968716281,1497.84797392325,3.57203043567098,84.3937318839546
0.55,37.8,-26.1688947585423,-0.535621967869626,1499.84426979327,3.57644550629992,84.3999846209152
0.55,37.85,-26.551985055473,-0.528566517202987,1501.84057426647,3.58086023822047,84.4062282109627
0.55,37.9,-26.9241443948236,-0.522219410686594,1503.83688729314,3.58527463196204,84.412462664374
0.55,37.95,-27.285645827066,-0.516512381184427,1505.83320882377,3.58968868805359,84.4186879914757
0.55,38,-27.636735920344,-0.511394623698132,1507.8295388091,3.59410240702358,84.4249042026442
0.55,38.05,-27.9776338662186,-0.506827080186989,1509.82587720011,3.59851578939996,84.4311113083043
0.55,38.1,-28.3085314425784,-0.502778477128638,1511.82222394801,3.60292883571017,84.4373093189292
0.55,38.15,-28.6295936084312,-0.499222593930678,1513.81857900423,3.60734154648114,84.4434982450394
0.55,38.2,-28.940959568729,-0.496136392700925,1515.81494232044,3.61175392223923,84.4496780972027
0.55,38.25,-29.2427441928835,-0.493498749706264,1517.81131384854,3.61616596351028,84.4558488860328
0.55,38.3,-29.5350397029261,-0.491289606685288,1519.80769354065,3.62057767081959,84.4620106221894
0.55,38.35,-29.8179175698189,-0.48948941483709,1521.80408134913,3.62498904469186,84.4681633163772
0.55,38.4,-30.0914305717189,-0.488078782511917,1523.80047722657,3.62940008565126,84.4743069793454
0.55,38.45,-30.3556149779078,-0.487038264286847,1525.79688112576,3.63381079422135,84.4804416218873
0.55,38.5,-30.6104928279869,-0.486348247714471,1527.79329299975,3.63822117092512,84.4865672548393
0.55,38.55,-30.8560742788533,-0.485988907036157,1529.78971280178,3.64263121628496,84.4926838890808
0.55,38.6,-31.0923599927479,-0.485940202260126,1531.78614048534,3.64704093082268,84.4987915355332
0.55,38.65,-31.3193435389473,-0.486181908401726,1533.78257600413,3.65145031505945,84.5048902051596
0.55,38.7,-31.5370137800198,-0.486693664188867,1535.77901931207,3.65585936951586,84.5109799089643
0.55,38.75,-31.7453572114537,-0.487455032717625,1537.7754703633,3.66026809471187,84.5170606579919
0.55,38.8,-31.9443602212976,-0.488445568796448,1539.77192911219,3.66467649116683,84.5231324633268
0.55,38.85,-32.1340112345896,-0.489644889316687,1541.76839551331,3.66908455939943,84.5291953360931
0.55,38.9,-32.3143027060884,-0.491032744124489,1543.76486952147,3.67349229992777,84.5352492874535
0.55,38.95,-32.4852329243998,-0.492589085678715,1545.76135109167,3.6778997132693,84.5412943286091
0.55,39,-32.6468075911756,-0.494294136356234,1547.75784017915,3.68230679994082,84.5473304707986
0.55,39.05,-32.7990411407496,-0.49612845267636,1549.75433673935,3.6867135604585,84.5533577252979
0.55,39.1,-32.9419577683641,-0.498072986007671,1551.75084072792,3.69111999533787,84.5593761034196
0.55,39.15,-33.0755921389561,-0.500109139526722,1553.74735210075,3.6955261050938,84.5653856165123
0.55,39.2,-33.1999897531405,-0.502218821342956,1555.7438708139,3.69993189024051,84.5713862759604
0.55,39.25,-33.3152069523075,-0.504384493804906,1557.74039682367,3.70433735129159,84.5773780931833
0.55,39.3,-33.4213105503302,-0.506589219071607,1559.73693008658,3.70874248875995,84.5833610796347
0.55,39.35,-33.5183770848989,-0.508816701079117,1561.73347055931,3.71314730315785,84.5893352468026
0.55,39.4,-33.6064916865728,-0.511051324061292,1563.73001819881,3.7175517949969,84.5953006062084
0.55,39.45,-33.6857465678778,-0.513278187801351,1565.72657296219,3.72195596478806,84.6012571694066
0.55,39.5,-33.7562391378075,-0.515483139799587,1567.72313480679,3.72635981304163,84.607204947984
0.55,39.55,-33.8180697485461,-0.517652804544998,1569.71970369014,3.73076334026722,84.6131439535596
0.55,39.6,-33.8713390808301,-0.519774610076929,1571.71627957,3.73516654697382,84.6190741977837
0.55,39.65,-33.9161451718352,-0.521836812017773,1573.7128624043,3.73956943366976,84.6249956923378
0.55,39.7,-33.952580084585,-0.523828515250565,1575.70945215121,3.74397200086269,84.6309084489338
0.55,39.75,-33.9807262104476,-0.525739693406746,1577.70604876906,3.74837424905961,84.6368124793137
0.55,39.8,-34.0006521861169,-0.527561206319545,1579.70265221641,3.75277617876687,84.6427077952489
0.55,39.85,-34.0124083933743,-0.529284815588165,1581.69926245202,3.75717779049016,84.64859440854
0.55,39.9,-34.0160219936397,-0.530903198387162,1583.69587943484,3.76157908473453,84.6544723310162
0.55,39.95,-34.0114914295361,-0.532409959644464,1585.69250312402,3.76598006200435,84.6603415745347
0.55,40,-33.9987803019653,-0.533799642700482,1587.6891334789,3.77038072280337,84.6662021509804
0.55,40.05,-33.9778105029645,-0.535067738549682,1589.68577045903,3.77478106763467,84.6720540722655
0.55,40.1,-33.9484544511479,-0.53621069375524,1591.68241402415,3.77918109700068,84.6778973503287
0.55,40.15,-33.9105262369207,-0.537225917116529,1593.6790641342,3.78358081140321,84.6837319971351
0.55,40.2,-33.8637714378335,-0.538111785158726,1595.6757207493,3.78798021134342,84.6895580246756
0.55,40.25,-33.8078553092368,-0.538867646503486,1597.67238382978,3.7923792973218,84.6953754449665
0.55,40.3,-33.7423489906709,-0.53949382516953,1599.66905333615,3.79677806983826,84.7011842700489
0.55,40.35,-33.6667132933732,-0.53999162284216,1601.66572922912,3.80117652939202,84.7069845119885
0.55,40.4,-33.5802795489222,-0.540363320141169,1603.66241146958,3.80557467648172,84.7127761828748
0.55,40.45,-33.482226905256,-0.540612176907333,1605.65910001862,3.80997251160534,84.7185592948213
0.55,40.5,-33.3715553595719,-0.540742431518597,1607.65579483752,3.81437003526026,84.7243338599641
0.55,40.55,-33.2470537302112,-0.540759299238526,1609.65249588773,3.81876724794322,84.7300998904625
0.55,40.6,-33.1072617162262,-0.54066896959102,1611.64920313092,3.82316415015036,84.735857398498
0.55,40.65,-32.9504252210174,-0.54047860274744,1613.6459165289,3.82756074237721,84.7416063962737
0.55,40.7,-32.7744443125866,-0.540196324904445,1615.64263604372,3.83195702511869,84.7473468960146
0.55,40.75,-32.5768137172969,-0.5398312226236,1617.63936163757,3.8363529988691,84.7530789099662
0.55,40.8,-32.3545568866772,-0.539393336096863,1619.63609327284,3.84074866412219,84.7588024503953
0.55,40.85,-32.1041569643702,-0.538893651295548,1621.63283091212,3.84514402137106,84.7645175295882
0.55,40.9,-31.8214923714543,-0.538344090954301,1623.62957451815,3.84953907110827,84.7702241598515
0.55,40.95,-31.5017929762712,-0.537757504336116,1625.62632405387,3.85393381382577,84.7759223535111
0.55,41,-31.1396481371534,-0.537147655719313,1627.6230794824,3.85832825001493,84.7816121229118
0.6,37,-21.7413904424337,-0.734972783059044,1467.81136184127,3.48950737481237,82.0540978413262
0.6,37.05,-22.2265407659346,-0.706743099605557,1469.80839360017,3.49391247314694,82.0602340644207
0.6,37.1,-22.7217547846095,-0.680875363761695,1471.80543313469,3.49831722149211,82.0663605169615
0.6,37.15,-23.2209478486016,-0.657234112736951,1473.80248039292,3.50272162049672,82.0724772134815
0.6,37.2,-23.7192297869816,-0.635687387070915,1475.79953532323,3.50712567080648,82.0785841685527
0.6,37.25,-24.2127626198138,-0.616107018113315,1477.79659787424,3.51152937306407,82.0846813967847
0.6,37.3,-24.6985947352315,-0.598368863237204,1479.79366799485,3.51593272790917,82.0907689128246
0.6,37.35,-25.1744978893971,-0.582352992476235,1481.79074563426,3.52033573597853,82.0968467313563
0.6,37.4,-25.6388206791277,-0.56794383045216,1483.7878307419,3.52473839790601,82.1029148671
0.6,37.45,-26.090363834399,-0.555030257540318,1485.78492326748,3.52914071432267,82.1089733348113
0.6,37.5,-26.5282778606531,-0.543505674221492,1487.78202316099,3.5335426858568,82.1150221492808
0.6,37.55,-26.9519811186297,-0.533268032502434,1489.77913037267,3.53794431313398,82.1210613253336
0.6,37.6,-27.3610954426572,-0.524219838166061,1491.77624485304,3.54234559677716,82.1270908778283
0.6,37.65,-27.7553962213878,-0.516268127448576,1493.77336655286,3.54674653740669,82.1331108216571
0.6,37.7,-28.1347740893252,-0.5093244215446,1495.77049542317,3.5511471356404,82.1391211717445
0.6,37.75,-28.4992057649834,-0.503304662122534,1497.76763141526,3.55554739209361,82.1451219430472
0.6,37.8,-28.8487319940099,-0.498129130799179,1499.7647744807,3.55994730737927,82.1511131505533
0.6,37.85,-29.1834409510117,-0.493722355281789,1501.76192457128,3.56434688210795,82.1570948092819
0.6,37.9,-29.5034557971211,-0.490013004643446,1503.75908163907,3.56874611688791,82.1630669342823
0.6,37.95,-29.8089253759093,-0.486933775958398,1505.7562456364,3.57314501232516,82.1690295406336
0.6,38,-30.1000172617027,-0.484421274291706,1507.75341651584,3.57754356902355,82.1749826434444
0.6,38.05,-30.3769125588894,-0.482415887815003,1509.75059423022,3.58194178758476,82.1809262578516
0.6,38.1,-30.6398019964232,-0.480861659609364,1511.74777873261,3.58633966860841,82.1868603990206
0.6,38.15,-30.8888829758717,-0.479706157518943,1513.74496997635,3.5907372126921,82.1927850821441
0.6,38.2,-31.124357320391,-0.47890034323571,1515.74216791501,3.59513442043146,82.198700322442
0.6,38.25,-31.346429541154,-0.47839844162684,1517.73937250242,3.59953129242022,82.2046061351608
0.6,38.3,-31.5553054911495,-0.478157811162222,1519.73658369264,3.60392782925023,82.210502535573
0.6,38.35,-31.7511913171701,-0.47813881615976,1521.73380143999,3.60832403151159,82.2163895389763
0.6,38.4,-31.9342926517156,-0.478304701440158,1523.73102569902,3.6127198997926,82.2222671606938
0.6,38.45,-32.1048140094354,-0.478621469870401,1525.72825642454,3.61711543467993,82.2281354160728
0.6,38.5,-32.2629583691378,-0.479057763174641,1527.72549357159,3.62151063675856,82.2339943204845
0.6,38.55,-32.4089269335287,-0.479584746303119,1529.72273709544,3.62590550661194,82.2398438893238
0.6,38.6,-32.5429190656847,-0.480175995571614,1531.71998695162,3.63030004482197,82.2456841380083
0.6,38.65,-32.6651324046232,-0.480807390716507,1533.71724309588,3.6346942519691,82.251515081978
0.6,38.7,-32.7757631628985,-0.481457010951613,1535.71450548422,3.63908812863234,82.2573367366952
0.6,38.75,-32.8750066075104,-0.482105035062569,1537.71177407286,3.64348167538936,82.2631491176432
0.6,38.8,-32.9630577220939,-0.482733645531482,1539.70904881826,3.64787489281651,82.2689522403267
0.6,38.85,-33.0401120438399,-0.483326936648115,1541.70632967711,3.65226778148891,82.2747461202705
0.6,38.9,-33.1063666633035,-0.483870826533466,1543.70361660634,3.65666034198046,82.2805307730197
0.6,38.95,-33.1620213696063,-0.484352972976367,1545.70090956311,3.66105257486391,82.286306214139
