"W_line [mm]","Freq [GHz]","dB(S(1,1)) []","dB(S(2,1)) []","im(Gamma(1)) []","re(Gamma(1)) []","re(Zo(1)) []"
0.5,57,-27.2716772690674,-0.547398038056018,2262.75347405053,5.30719464924936,87.3379328898712
0.5,57.05,-27.0972371880084,-0.550733361282768,2264.75060861966,5.31154720861513,87.3409636670135
0.5,57.1,-26.91723672583,-0.554491868277065,2266.74774439606,5.31589955435148,87.3439880276341
0.5,57.15,-26.7316537305085,-0.558719583534819,2268.74488136726,5.32025168675037,87.3470059804816
0.5,57.2,-26.5404832557409,-0.563468740079577,2270.74201952084,5.32460360610317,87.3500175342951
0.5,57.25,-26.3437444156167,-0.568798560257576,2272.73915884444,5.32895531270066,87.3530226978035
0.5,57.3,-26.1414891124063,-0.574776081529388,2274.73629932577,5.33330680683305,87.356021479726
0.5,57.35,-25.9338130926529,-0.581476994741254,2276.7334409526,5.33765808878996,87.359013888772
0.5,57.4,-25.7208698779599,-0.588986438452626,2278.73058371275,5.34200915886045,87.3619999336408
0.5,57.45,-25.5028882117874,-0.597399657202311,2280.7277275941,5.34636001733297,87.3649796230222
0.5,57.5,-25.2801937499786,-0.606822379508435,2282.7248725846,5.35071066449543,87.3679529655955
0.5,57.55,-25.0532357774165,-0.617370697275354,2284.72201867224,5.35506110063515,87.3709199700306
0.5,57.6,-24.8226197152301,-0.62917012596982,2286.71916584508,5.35941132603893,87.3738806449868
0.5,57.65,-24.5891460239951,-0.642353389304657,2288.71631409124,5.36376134099293,87.3768349991139
0.5,57.7,-24.3538556997989,-0.65705630261494,2290.71346339889,5.36811114578283,87.3797830410514
0.5,57.75,-24.1180817381139,-0.673410936359047,2292.71061375627,5.3724607406937,87.3827247794287
0.5,57.8,-23.883504473643,-0.691535059315488,2294.70776515166,5.37681012601006,87.3856602228653
0.5,57.85,-23.6522062943003,-0.711516766181073,2296.70491757341,5.38115930201587,87.3885893799704
0.5,57.9,-23.4267175453911,-0.733393328671456,2298.70207100991,5.3855082689945,87.3915122593432
0.5,57.95,-23.2100402363309,-0.757123902109433,2300.69922544964,5.38985702722873,87.3944288695727
0.5,58,-23.0056295007019,-0.78255707960937,2302.69638088109,5.39420557700066,87.3973392192375
0.5,58.05,-22.8173054169389,-0.809396716574088,2304.69353729285,5.39855391859174,87.4002433169065
0.5,58.1,-22.6490617887662,-0.837173016811285,2306.69069467354,5.40290205228278,87.4031411711378
0.5,58.15,-22.5047375077957,-0.865230000239436,2308.68785301185,5.40724997835413,87.4060327904797
0.5,58.2,-22.38752537743,-0.892743476754683,2310.6850122965,5.41159769708595,87.40891818347
0.5,58.25,-22.299317966291,-0.918782681854095,2312.68217251629,5.41594520875821,87.4117973586362
0.5,58.3,-22.2399321626694,-0.942420842022322,2314.67933366006,5.42029251365051,87.4146703244956
0.5,58.35,-22.2063084706137,-0.962884629141745,2316.67649571673,5.42463961204169,87.4175370895553
0.5,58.4,-22.191833714073,-0.979714422789454,2318.67365867523,5.42898650420982,87.4203976623117
0.5,58.45,-22.1859672854414,-0.992896231870173,2320.67082252459,5.43333319043226,87.4232520512511
0.5,58.5,-22.1743443682821,-1.00293131303519,2322.66798725387,5.43767967098578,87.4261002648493
0.5,58.55,-22.1394759863831,-1.01083191601579,2324.66515285218,5.44202594614658,87.4289423115718
0.5,58.6,-22.0620641461119,-1.0180610251285,2326.66231930869,5.44637201619036,87.4317781998736
0.5,58.65,-21.9228062542616,-1.02645583459302,2328.65948661263,5.4507178813923,87.4346079381993
0.5,58.7,-21.7044009845184,-1.03818051940207,2330.65665475328,5.45506354202702,87.437431534983
0.5,58.75,-21.3933519851891,-1.05574593612529,2332.65382371995,5.45940899836867,87.4402489986484
0.5,58.8,-20.9811906977651,-1.08212063523883,2334.65099350204,5.46375425069085,87.4430603376086
0.5,58.85,-20.4649635642524,-1.12094473008233,2336.64816408897,5.46809929926663,87.4458655602663
0.5,58.9,-19.8472022419977,-1.17684061804018,2338.64533547024,5.47244414436855,87.4486646750135
0.5,58.95,-19.1359782767001,-1.25576579271105,2340.64250763537,5.47678878626862,87.451457690232
0.5,59,-18.3459137208521,-1.36520093047014,2342.63968057396,5.48113322523834,87.4542446142927
0.5,59.05,-17.5011161319184,-1.513544648487,2344.63685427565,5.48547746154864,87.4570254555562
0.5,59.1,-16.6407380608238,-1.70711667160556,2346.63402873013,5.48982149546995,87.4598002223722
0.5,59.15,-15.8264273820779,-1.94172278332018,2348.63120392713,5.49416532727217,87.46256892308
0.5,59.2,-15.1467062107467,-2.18667119439928,2350.62837985646,5.49850895722465,87.4653315660084
0.5,59.25,-14.7065402773257,-2.3720780257479,2352.62555650795,5.50285238559623,87.4680881594752
0.5,59.3,-14.5916181116487,-2.41473722770348,2354.6227338715,5.50719561265522,87.470838711788
0.5,59.35,-14.8230311060021,-2.28950469077395,2356.61991193704,5.51153863866939,87.4735832312434
0.5,59.4,-15.3454451802226,-2.05578924073228,2358.61709069458,5.515881463906,87.4763217261274
0.5,59.45,-16.0624615314103,-1.7964549041827,2360.61427013416,5.52022408863177,87.4790542047155
0.5,59.5,-16.8814121179304,-1.56277830387082,2362.61145024586,5.5245665131129,87.4817806752722
0.5,59.55,-17.7353093464161,-1.37135697355302,2364.60863101982,5.52890873761506,87.4845011460516
0.5,59.6,-18.5835385921585,-1.2207120356845,2366.60581244624,5.53325076240341,87.4872156252967
0.5,59.65,-19.4045570067996,-1.10357566447406,2368.60299451535,5.53759258774257,87.4899241212403
0.5,59.7,-20.1885709847732,-1.01231191677005,2370.60017721745,5.54193421389665,87.4926266421038
0.5,59.75,-20.9323968584528,-0.940583781895458,2372.59736054286,5.54627564112924,87.4953231960983
0.5,59.8,-21.6363260776147,-0.883551392284879,2374.59454448196,5.5506168697034,87.4980137914241
0.5,59.85,-22.3023399020918,-0.837632552270367,2376.59172902519,5.55495789988168,87.5006984362704
0.5,59.9,-22.9331329234021,-0.800199346193927,2378.58891416303,5.5592987319261,87.503377138816
0.5,59.95,-23.531596483607,-0.769320080777001,2380.586099886,5.56363936609819,87.5060499072285
0.5,60,-24.1005567371677,-0.74356427232396,2382.58328618467,5.56797980265893,87.5087167496651
0.5,60.05,-24.6426513598879,-0.721861894235325,2384.58047304967,5.57232004186881,87.5113776742718
0.5,60.1,-25.1602805011416,-0.703403520309825,2386.57766047165,5.57666008398779,87.5140326891839
0.5,60.15,-25.6555965138184,-0.687569737320009,2388.57484844134,5.58099992927534,87.5166818025259
0.5,60.2,-26.1305130431939,-0.673881079958572,2390.5720369495,5.58533957799039,87.5193250224114
0.5,60.25,-26.5867229269143,-0.661962270491224,2392.56922598692,5.58967903039139,87.5219623569432
0.5,60.3,-27.0257192623434,-0.651516445751182,2394.56641554446,5.59401828673625,87.5245938142129
0.5,60.35,-27.4488167077564,-0.642306397317681,2396.56360561302,5.5983573472824,87.5272194023019
0.5,60.4,-27.8571715768872,-0.634140775789468,2398.56079618354,5.60269621228676,87.5298391292799
0.5,60.45,-28.251800101382,-0.626863840982532,2400.55798724701,5.60703488200571,87.5324530032064
0.5,60.5,-28.6335946722475,-0.620347769636243,2402.55517879447,5.61137335669518,87.5350610321297
0.5,60.55,-29.0033380966984,-0.614486825948398,2404.55237081698,5.61571163661056,87.5376632240877
0.5,60.6,-29.3617160148846,-0.609192902259553,2406.54956330568,5.62004972200674,87.540259587107
0.5,60.65,-29.7093276648423,-0.604392077185193,2408.54675625174,5.62438761313813,87.5428501292042
0.5,60.7,-30.0466951935648,-0.600021936319629,2410.54394964636,5.62872531025863,87.5454348583842
0.5,60.75,-30.3742717042156,-0.596029469611219,2412.5411434808,5.63306281362162,87.5480137826409
0.5,60.8,-30.6924482135765,-0.592369408583229,2414.53833774637,5.63740012348002,87.5505869099563
0.5,60.85,-31.0015596750154,-0.589002901804916,2416.5355324344,5.64173724008622,87.553154248301
0.5,60.9,-31.3018902032839,-0.585896452533161,2418.53272753629,5.64607416369213,87.5557158056347
0.5,60.95,-31.5936776196815,-0.58302106108523,2420.52992304347,5.65041089454918,87.5582715899068
0.5,61,-31.877117420134,-0.580351528234455,2422.52711894742,5.65474743290827,87.5608216090558
0.5,61.05,-32.152366254694,-0.577865886118241,2424.52431523964,5.65908377901982,87.5633658710098
0.5,61.1,-32.4195449948294,-0.575544930780154,2426.5215119117,5.66341993313377,87.5659043836857
0.5,61.15,-32.6787414544682,-0.573371836223276,2428.51870895521,5.66775589549956,87.5684371549895
0.5,61.2,-32.9300128218984,-0.571331834223475,2430.51590636181,5.67209166636612,87.5709641928163
0.5,61.25,-33.1733878520803,-0.569411947494751,2432.51310412319,5.67642724598192,87.5734855050501
0.5,61.3,-33.4088688625156,-0.567600766372941,2434.51030223108,5.68076263459492,87.5760010995636
0.5,61.35,-33.6364335703349,-0.565888261178682,2436.50750067725,5.68509783245259,87.5785109842186
0.5,61.4,-33.8560368035803,-0.564265623975523,2438.50469945352,5.68943283980189,87.5810151668662
0.5,61.45,-34.0676121156024,-0.56272513465866,2440.50189855174,5.69376765688932,87.5835136553459
0.5,61.5,-34.2710733279772,-0.561260047271231,2442.49909796381,5.69810228396088,87.5860064574866
0.5,61.55,-34.4663160242631,-0.559864493207963,2444.49629768167,5.70243672126206,87.5884935811059
0.5,61.6,-34.6532190141996,-0.55853339857357,2446.49349769729,5.70677096903789,87.5909750340105
0.5,61.65,-34.8316457855407,-0.557262413450214,2448.49069800271,5.71110502753287,87.593450823996
0.5,61.7,-35.0014459585802,-0.556047851220341,2450.48789858997,5.71543889699103,87.595920958847
0.5,61.75,-35.1624567565508,-0.554886636407943,2452.48509945118,5.71977257765591,87.5983854463369
0.5,61.8,-35.3145045034572,-0.553776259758756,2454.48230057848,5.72410606977054,87.6008442942284
0.5,61.85,-35.4574061595558,-0.55271473948979,2456.47950196405,5.72843937357747,87.6032975102727
0.5,61.9,-35.5909709036531,-0.551700587810549,2458.47670360013,5.73277248931874,87.6057451022103
0.5,61.95,-35.7150017706974,-0.550732781959573,2460.47390547895,5.73710541723591,87.6081870777705
0.5,62,-35.8292973528571,-0.549810739116716,2462.47110759284,5.74143815757003,87.6106234446715
0.5,62.05,-35.9336535724715,-0.548934294648033,2464.46830993412,5.74577071056164,87.6130542106206
0.5,62.1,-36.0278655360115,-0.548103683220628,2466.46551249519,5.75010307645082,87.6154793833138
0.5,62.15,-36.1117294795779,-0.547319522391604,2468.46271526844,5.7544352554771,87.6178989704363
0.5,62.2,-36.1850448185889,-0.546582798331455,2470.45991824636,5.75876724787954,87.6203129796619
0.5,62.25,-36.2476163172444,-0.545894853389074,2472.45712142143,5.76309905389668,87.6227214186538
0.5,62.3,-36.2992563971894,-0.545257375245203,2474.45432478618,5.76743067376657,87.6251242950638
0.5,62.35,-36.339787609604,-0.544672387434546,2476.4515283332,5.77176210772673,87.6275216165327
0.5,62.4,-36.3690453007779,-0.544142241044868,2478.44873205509,5.77609335601419,87.6299133906901
0.5,62.45,-36.3868805081103,-0.543669607425527,2480.4459359445,5.78042441886546,87.6322996251549
0.5,62.5,-36.3931631314193,-0.54325747175816,2482.44313999412,5.78475529651653,87.6346803275346
0.5,62.55,-36.3877854333768,-0.54290912735957,2484.44034419667,5.78908598920289,87.6370555054256
0.5,62.6,-36.3706659326893,-0.542628170601787,2486.43754854493,5.79341649715951,87.6394251664136
0.5,62.65,-36.3417537640796,-0.542418496346886,2488.43475303168,5.79774682062083,87.6417893180729
0.5,62.7,-36.3010335897972,-0.542284293805078,2490.43195764977,5.80207695982078,87.6441479679668
0.5,62.75,-36.2485311576839,-0.542230042733934,2492.42916239207,5.80640691499275,87.6465011236475
0.5,62.8,-36.1843196098148,-0.542260509904715,2494.4263672515,5.81073668636962,87.6488487926564
0.5,62.85,-36.1085266520556,-0.542380745768677,2496.423572221,5.81506627418374,87.6511909825234
0.5,62.9,-36.0213426965494,-0.542596081262357,2498.42077729355,5.81939567866692,87.6535277007676
0.5,62.95,-35.9230300833947,-0.542912124696002,2500.41798246218,5.82372490005045,87.6558589548971
0.5,63,-35.8139334707924,-0.543334758673956,2502.41518771995,5.82805393856507,87.6581847524087
0.55,57,-30.7869682504647,-0.602188083212916,2262.85189296067,5.18177604331404,85.0835008853337
0.55,57.05,-30.888960782806,-0.605698616535422,2264.84955013383,5.18606359890881,85.0860963889303
0.55,57.1,-31.008669046416,-0.60766451898063,2266.84720748023,5.19035097235431,85.0886855398307
0.55,57.15,-31.1334897978857,-0.608041398178627,2268.84486499004,5.19463816391785,85.0912683479309
0.55,57.2,-31.2493409920161,-0.60700214946113,2270.84252265347,5.19892517386611,85.0938448231109
0.55,57.25,-31.3425448093619,-0.604882168606254,2272.84018046078,5.20321200246521,85.0964149752349
0.55,57.3,-31.4016136354501,-0.602091639746948,2274.8378384023,5.20749864998069,85.0989788141515
0.55,57.35,-31.418487662028,-0.599032824543102,2276.8354964684,5.21178511667749,85.1015363496932
0.55,57.4,-31.3889824347919,-0.59604635826412,2278.83315464952,5.21607140282,85.1040875916769
0.55,57.45,-31.3124812591354,-0.593390421649362,2280.83081293613,5.22035750867199,85.1066325499034
0.55,57.5,-31.1911188820981,-0.591243909636581,2282.82847131876,5.2246434344967,85.1091712341579
0.55,57.55,-31.0287740742932,-0.589721836428843,2284.82612978802,5.22892918055677,85.1117036542096
0.55,57.6,-30.8301324425732,-0.588894023584808,2286.82378833454,5.23321474711424,85.1142298198119
0.55,57.65,-30.5999647460135,-0.588802176937296,2288.82144694902,5.23750013443062,85.1167497407025
0.55,57.7,-30.3426568564656,-0.589473561542442,2290.8191056222,5.24178534276681,85.1192634266031
0.55,57.75,-30.0619586751707,-0.590931227247005,2292.81676434488,5.24607037238317,85.1217708872195
0.55,57.8,-29.7608920943633,-0.593201471576932,2294.81442310792,5.25035522353946,85.1242721322419
0.55,57.85,-29.4417584328714,-0.596319400795456,2296.81208190221,5.25463989649488,85.1267671713444
0.55,57.9,-29.1061985621046,-0.600333383837122,2298.80974071871,5.25892439150807,85.1292560141854
0.55,57.95,-28.755274099585,-0.605309063728932,2300.80739954842,5.26320870883709,85.1317386704075
0.55,58,-28.3895508300235,-0.611333477341767,2302.8050583824,5.26749284873943,85.1342151496373
0.55,58.05,-28.0091746414975,-0.618519766305481,2304.80271721176,5.27177681147203,85.1366854614857
0.55,58.1,-27.6139361164345,-0.627012947130171,2306.80037602765,5.27606059729126,85.1391496155477
0.55,58.15,-27.2033233949406,-0.636997247667614,2308.79803482128,5.28034420645291,85.1416076214023
0.55,58.2,-26.7765649240457,-0.648705610561322,2310.79569358391,5.28462763921223,85.1440594886131
0.55,58.25,-26.3326649390597,-0.662432114434109,2312.79335230683,5.28891089582389,85.1465052267274
0.55,58.3,-25.8704355438427,-0.678548272078447,2314.79101098141,5.29319397654202,85.1489448452769
0.55,58.35,-25.3885305232301,-0.697524426313639,2316.78866959906,5.29747688162017,85.1513783537775
0.55,58.4,-24.8854879935727,-0.719957748328304,2318.78632815121,5.30175961131135,85.1538057617291
0.55,58.45,-24.3597922486656,-0.746608555816368,2320.78398662939,5.30604216586801,85.156227078616
0.55,58.5,-23.809970498363,-0.778446561174941,2322.78164502513,5.31032454554203,85.1586423139065
0.55,58.55,-23.2347488125877,-0.816707636274143,2324.77930333004,5.31460675058475,85.1610514770531
0.55,58.6,-22.6333051372884,-0.862958374780853,2326.77696153576,5.31888878124697,85.1634545774927
0.55,58.65,-22.0056777391051,-0.919157158542421,2328.77461963399,5.3231706377789,85.165851624646
0.55,58.7,-21.3534161949724,-0.98768038766169,2330.77227761647,5.32745232043023,85.1682426279182
0.55,58.75,-20.6805962535749,-1.0712392004542,2332.76993547498,5.33173382945008,85.1706275966987
0.55,58.8,-19.9953429332528,-1.17252670870635,2334.76759320138,5.33601516508697,85.1730065403609
0.55,58.85,-19.3119655828286,-1.2932931593877,2336.76525078753,5.34029632758863,85.1753794682626
0.55,58.9,-18.6535789190484,-1.43239094693461,2338.76290822537,5.34457731720093,85.1777463897457
0.55,58.95,-18.054450240737,-1.58244025322582,2340.76056550687,5.34885813417042,85.1801073141364
0.55,59,-17.5601356263056,-1.72590436928078,2342.75822262406,5.35313877875215,85.182462250745
0.55,59.05,-17.2223339623375,-1.83430373899003,2344.75587956901,5.35741925118599,85.1848112088663
0.55,59.1,-17.0864602525601,-1.87666725296736,2346.75353633383,5.36169955171608,85.187154197779
0.55,59.15,-17.1754586442926,-1.83708197124218,2348.75119291068,5.36597968058768,85.1894912267463
0.55,59.2,-17.4798624672168,-1.72658791056257,2350.74884929176,5.37025963804524,85.1918223050155
0.55,59.25,-17.9620003574474,-1.57553845995548,2352.74650546933,5.37453942433256,85.1941474418187
0.55,59.3,-18.5708737461302,-1.41519168872885,2354.74416143568,5.37881903969285,85.19646664637
0.55,59.35,-19.2571038851582,-1.26610781738177,2356.74181718315,5.38309848436876,85.1987799278694
0.55,59.4,-19.9812057767513,-1.13734123028118,2358.73947270412,5.3873777586024,85.2010872955047
0.55,59.45,-20.7153427151293,-1.03045940643082,2360.73712799102,5.39165686263535,85.2033887584424
0.55,59.5,-21.4416171762104,-0.943462414733423,2362.73478303633,5.39593579670864,85.2056843258355
0.55,59.55,-22.149418671683,-0.873185173739576,2364.73243783256,5.40021456106277,85.2079740068214
0.55,59.6,-22.833038533541,-0.816445903347589,2366.73009237227,5.40449315593773,85.2102578105216
0.55,59.65,-23.4898887140276,-0.770478554860259,2368.72774664807,5.40877158157295,85.2125357460421
0.55,59.7,-24.1192864848136,-0.733027966406305,2370.72540065259,5.41304983820737,85.214807822473
0.55,59.75,-24.7216654360248,-0.702310709374762,2372.72305437853,5.41732792607936,85.2170740488888
0.55,59.8,-25.2980784225921,-0.67693560452815,2374.72070781862,5.42160584542681,85.2193344343487
0.55,59.85,-25.8498909983234,-0.655822387253993,2376.71836096564,5.42588359648705,85.2215889878956
0.55,59.9,-26.3785959221489,-0.638131678934559,2378.7160138124,5.43016117949691,85.2238377185572
0.55,59.95,-26.8857034672373,-0.623208882154406,2380.71366635176,5.4344385946927,85.2260806353456
0.55,60,-27.3726787244164,-0.610540748027612,2382.71131857662,5.43871584231019,85.228317747257
0.55,60.05,-27.840907793271,-0.59972230148089,2384.70897047993,5.44299292258465,85.2305490632722
0.55,60.1,-28.2916815506544,-0.590431825902941,2386.70662205467,5.44726983575084,85.2327745923562
0.55,60.15,-28.7261899545522,-0.582411968344175,2388.70427329386,5.45154658204298,85.2349943434586
0.55,60.2,-29.1455225097245,-0.575455439663188,2390.70192419057,5.45582316169478,85.2372083255134
0.55,60.25,-29.5506721882774,-0.569394149279648,2392.69957473792,5.46009957493945,85.2394165474389
0.55,60.3,-29.9425411400395,-0.564090906905647,2394.69722492904,5.46437582200968,85.2416190181379
0.55,60.35,-30.3219471793006,-0.559433047560908,2396.69487475713,5.46865190313765,85.2438157464977
0.55,60.4,-30.689630442263,-0.555327503486594,2398.69252421542,5.47292781855503,85.2460067413899
0.55,60.45,-31.0462598643611,-0.551696970103752,2400.69017329717,5.47720356849298,85.2481920116709
0.55,60.5,-31.3924392851695,-0.548476903906225,2402.6878219957,5.48147915318214,85.2503715661811
0.55,60.55,-31.7287130864969,-0.545613156769037,2404.68547030436,5.48575457285266,85.2525454137458
0.55,60.6,-32.0555713288153,-0.543060100095913,2406.68311821653,5.49002982773418,85.2547135631746
0.55,60.65,-32.3734543865617,-0.540779128316044,2408.68076572564,5.49430491805584,85.2568760232617
0.55,60.7,-32.6827571030092,-0.538737457960955,2410.67841282517,5.49857984404625,85.2590328027858
0.55,60.75,-32.9838324960866,-0.536907158435086,2412.67605950861,5.50285460593356,85.26118391051
0.55,60.8,-33.2769950513321,-0.535264365468021,2414.67370576952,5.50712920394538,85.2633293551823
0.55,60.85,-33.5625236394345,-0.533788639425443,2416.67135160147,5.51140363830884,85.2654691455348
0.55,60.9,-33.8406640950214,-0.532462439120819,2418.6689969981,5.51567790925057,85.2676032902846
0.55,60.95,-34.111631491417,-0.531270688210694,2420.66664195305,5.51995201699669,85.2697317981331
0.55,61,-34.3756121436205,-0.530200416184749,2422.66428646004,5.52422596177284,85.2718546777663
