"W_line [mm]","Freq [GHz]","dB(S(1,1)) []","dB(S(2,1)) []","im(Gamma(1)) []","re(Gamma(1)) []","re(Zo(1)) []"
0.5,57,-26.692693071349,-0.613888620869784,2259.60042349323,5.16953195055904,97.103514289683
0.5,57.05,-26.4186149022243,-0.615819937008822,2261.5973785146,5.17383023680303,97.1084572803113
0.5,57.1,-26.1368399785434,-0.618395000195978,2263.59433507063,5.17812833649152,97.1133927501989
0.5,57.15,-25.847122775666,-0.621650877033845,2265.59129314548,5.18242624990067,97.1183207095895
0.5,57.2,-25.5491884727366,-0.625631480231731,2267.58825272341,5.18672397730615,97.1232411687197
0.5,57.25,-25.2427302068222,-0.630388943525365,2269.58521378876,5.19102151898315,97.1281541378184
0.5,57.3,-24.9274060386989,-0.635985309642529,2271.58217632592,5.19531887520638,97.133059627107
0.5,57.35,-24.6028355857545,-0.642494614795936,2273.57914031938,5.19961604625006,97.1379576467993
0.5,57.4,-24.268596273762,-0.650005478624243,2275.57610575367,5.20391303238795,97.1428482071013
0.5,57.45,-23.924219157056,-0.658624342632548,2277.57307261343,5.20820983389332,97.1477313182115
0.5,57.5,-23.5691842574513,-0.668479546276529,2279.57004088334,5.21250645103895,97.1526069903206
0.5,57.55,-23.2029153787305,-0.679726492489408,2281.56701054818,5.21680288409716,97.1574752336112
0.5,57.6,-22.8247743701507,-0.69255424016082,2283.56398159278,5.22109913333978,97.1623360582585
0.5,57.65,-22.4340548466245,-0.70719397902119,2285.56095400205,5.22539519903816,97.1671894744295
0.5,57.7,-22.0299754374216,-0.723930005542234,2287.55792776098,5.22969108146317,97.1720354922832
0.5,57.75,-21.6116727500227,-0.743114045094771,2289.55490285461,5.23398678088521,97.1768741219708
0.5,57.8,-21.1781944354329,-0.76518408112307,2291.55187926807,5.23828229757419,97.1817053736353
0.5,57.85,-20.7284930829279,-0.790689291068085,2293.54885698656,5.24257763179955,97.1865292574116
0.5,57.9,-20.2614222511931,-0.820323296131878,2295.54583599533,5.24687278383024,97.1913457834265
0.5,57.95,-19.7757369185857,-0.854968760718314,2297.54281627973,5.25116775393475,97.1961549617987
0.5,58,-19.2701022748041,-0.895757475601991,2299.53979782515,5.25546254238109,97.2009568026384
0.5,58.05,-18.7431175262746,-0.944151428068471,2301.53678061707,5.25975714943678,97.2057513160477
0.5,58.1,-18.193365991217,-1.00205184267962,2303.53376464102,5.26405157536886,97.2105385121204
0.5,58.15,-17.619510437459,-1.07194415279775,2305.53074988262,5.26834582044392,97.2153184009418
0.5,58.2,-17.0204653116466,-1.15708554023955,2307.52773632754,5.27263988492805,97.2200909925889
0.5,58.25,-16.3956981395549,-1.26173335456465,2309.52472396154,5.27693376908688,97.2248562971302
0.5,58.3,-15.7457447386813,-1.39138582643791,2311.52171277043,5.28122747318554,97.2296143246256
0.5,58.35,-15.0730700525776,-1.55293417573519,2313.51870274007,5.28552099748871,97.2343650851266
0.5,58.4,-14.3834642934175,-1.75445023073844,2315.51569385644,5.28981434226059,97.239108588676
0.5,58.45,-13.688201889195,-2.00395357928694,2317.51268610553,5.29410750776491,97.2438448453081
0.5,58.5,-13.0071039036417,-2.30581579276151,2319.50967947344,5.29840049426491,97.2485738650483
0.5,58.55,-12.3721763532462,-2.65272792673902,2321.50667394631,5.30269330202337,97.2532956579136
0.5,58.6,-11.8302332927268,-3.01226717873821,2323.50366951035,5.3069859313026,97.2580102339119
0.5,58.65,-11.4407974863605,-3.31515309144589,2325.50066615184,5.31127838236443,97.2627176030427
0.5,58.7,-11.2645263517128,-3.46847866491501,2327.49766385714,5.31557065547022,97.2674177752963
0.5,58.75,-11.3421653404454,-3.41146463706228,2329.49466261264,5.31986275088085,97.2721107606543
0.5,58.8,-11.6753240883495,-3.16774602803244,2331.49166240483,5.32415466885676,97.2767965690894
0.5,58.85,-12.2248283519676,-2.82416456681061,2333.48866322025,5.32844640965788,97.2814752105654
0.5,58.9,-12.9282095007278,-2.46609841084459,2335.48566504549,5.33273797354371,97.2861466950369
0.5,58.95,-13.7216087695452,-2.1430420144408,2337.48266786724,5.33702936077324,97.2908110324497
0.5,59,-14.5531649159738,-1.87219045680929,2339.47967167221,5.34132057160503,97.2954682327404
0.5,59.05,-15.386401008385,-1.65306653460376,2341.47667644721,5.34561160629715,97.3001183058367
0.5,59.1,-16.1981233938724,-1.47840855067483,2343.4736821791,5.3499024651072,97.3047612616569
0.5,59.15,-16.974851356983,-1.33966272987933,2345.47068885479,5.35419314829232,97.3093971101103
0.5,59.2,-17.7096436408479,-1.22912741209744,2347.46769646127,5.3584836561092,97.314025861097
0.5,59.25,-18.3997777485158,-1.14052224041905,2349.46470498559,5.36277398881403,97.3186475245077
0.5,59.3,-19.0451831298388,-1.0689425134953,2351.46171441486,5.36706414666256,97.3232621102241
0.5,59.35,-19.6474120180483,-1.01062772405973,2353.45872473625,5.37135412991007,97.3278696281184
0.5,59.4,-20.2089637826125,-0.962711437422059,2355.45573593699,5.37564393881138,97.3324700880534
0.5,59.45,-20.7328370408235,-0.923006705896551,2357.45274800437,5.37993357362083,97.3370634998827
0.5,59.5,-21.2222308152278,-0.889837219062381,2359.44976092576,5.38422303459232,97.3416498734503
0.5,59.55,-21.6803465427053,-0.861909461707131,2361.44677468856,5.38851232197926,97.3462292185911
0.5,59.6,-22.1102606388581,-0.838217564368115,2363.44378928025,5.39280143603464,97.3508015451301
0.5,59.65,-22.5148474098343,-0.817972921096408,2365.44080468837,5.39709037701094,97.355366862883
0.5,59.7,-22.8967379156889,-0.800552132425442,2367.43782090052,5.40137914516021,97.3599251816561
0.5,59.75,-23.2583040386687,-0.785458371429461,2369.43483790435,5.40566774073405,97.3644765112459
0.5,59.8,-23.6016595894614,-0.772292556021785,2371.43185568759,5.40995616398356,97.3690208614393
0.5,59.85,-23.9286722873165,-0.760731696743395,2373.42887423799,5.41424441515941,97.3735582420138
0.5,59.9,-24.2409820697301,-0.750512516800719,2375.42589354341,5.41853249451182,97.378088662737
0.5,59.95,-24.5400224949567,-0.741418967803853,2377.42291359173,5.42282040229053,97.382612133367
0.5,60,-24.8270430304634,-0.733272642822122,2379.41993437091,5.42710813874483,97.387128663652
0.5,60.05,-25.1031308042475,-0.725925359288657,2381.41695586895,5.43139570412356,97.3916382633306
0.5,60.1,-25.3692309702753,-0.71925337863094,2383.41397807393,5.43568309867511,97.3961409421316
0.5,60.15,-25.6261652436021,-0.713152869420823,2385.41100097396,5.4399703226474,97.4006367097739
0.5,60.2,-25.8746484331661,-0.707536322068419,2387.40802455724,5.44425737628789,97.4051255759666
0.5,60.25,-26.1153029745831,-0.702329696751245,2389.405048812,5.44854425984361,97.409607550409
0.5,60.3,-26.348671569439,-0.69747014021593,2391.40207372655,5.45283097356112,97.4140826427904
0.5,60.35,-26.5752280934069,-0.692904146853761,2393.39909928923,5.45711751768654,97.4185508627905
0.5,60.4,-26.795386959378,-0.688586068957257,2395.39612548846,5.46140389246551,97.4230122200785
0.5,60.45,-27.0095111254563,-0.684476903105017,2397.3931523127,5.46569009814325,97.4274667243142
0.5,60.5,-27.2179189293449,-0.680543296194885,2399.39017975048,5.46997613496451,97.4319143851471
0.5,60.55,-27.4208899158768,-0.676756727187222,2401.38720779038,5.4742620031736,97.4363552122167
0.5,60.6,-27.6186698067966,-0.673092830172141,2403.38423642104,5.47854770301438,97.4407892151524
0.5,60.65,-27.811474743635,-0.669530831694028,2405.38126563113,5.48283323473026,97.4452164035737
0.5,60.7,-27.9994949169305,-0.666053080909424,2407.37829540942,5.48711859856418,97.4496367870899
0.5,60.75,-28.1828976788654,-0.662644655529111,2409.3753257447,5.49140379475866,97.4540503753003
0.5,60.8,-28.3618302219007,-0.65929302990645,2411.37235662582,5.49568882355576,97.4584571777939
0.5,60.85,-28.5364218932912,-0.655987794308172,2413.36938804169,5.4999736851971,97.4628572041495
0.5,60.9,-28.7067862043869,-0.652720416510961,2415.36641998128,5.50425837992385,97.4672504639359
0.5,60.95,-28.8730225842226,-0.64948403853609,2417.3634524336,5.50854290797672,97.4716369667115
0.5,61,-29.0352179189136,-0.646273302662509,2419.36048538774,5.512827269596,97.4760167220246
0.5,61.05,-29.1934479116154,-0.643084201920842,2421.3575188328,5.51711146502151,97.4803897394131
0.5,61.1,-29.3477782921057,-0.639913951123692,2423.35455275797,5.52139549449265,97.4847560284049
0.5,61.15,-29.4982659002546,-0.6367608751756,2425.35158715248,5.52567935824836,97.4891155985171
0.5,61.2,-29.6449596636027,-0.633624311963724,2427.34862200561,5.52996305652713,97.493468459257
0.5,61.25,-29.7879014858741,-0.63050452758335,2429.3456573067,5.53424658956704,97.4978146201212
0.5,61.3,-29.9271270603757,-0.627402642022835,2431.34269304514,5.53852995760568,97.5021540905961
0.5,61.35,-30.062666619815,-0.624320563736027,2433.33972921037,5.54281316088024,97.5064868801577
0.5,61.4,-30.1945456320102,-0.621260931779737,2435.33676579187,5.54709619962745,97.5108129982714
0.5,61.45,-30.3227854492217,-0.618227064400275,2437.33380277921,5.5513790740836,97.5151324543924
0.5,61.5,-30.4474039173479,-0.615222913123606,2439.33084016196,5.55566178448453,97.5194452579654
0.5,61.55,-30.5684159499528,-0.61225302154593,2441.32787792978,5.55994433106566,97.5237514184246
0.5,61.6,-30.685834071011,-0.609322488139858,2443.32491607237,5.56422671406197,97.5280509451936
0.5,61.65,-30.7996689293231,-0.606436932490524,2445.32195457947,5.56850893370798,97.5323438476857
0.5,61.7,-30.9099297867593,-0.603602464459335,2447.31899344089,5.57279099023779,97.5366301353035
0.5,61.75,-31.0166249818169,-0.600825655843095,2449.31603264646,5.57707288388505,97.5409098174391
0.5,61.8,-31.1197623694044,-0.598113514155716,2451.3130721861,5.58135461488298,97.5451829034742
0.5,61.85,-31.2193497372895,-0.595473458209865,2453.31011204976,5.58563618346436,97.5494494027796
0.5,61.9,-31.3153951992619,-0.592913295218892,2455.30715222742,5.58991758986154,97.5537093247157
0.5,61.95,-31.4079075647497,-0.590441199175831,2457.30419270915,5.59419883430642,97.5579626786324
0.5,62,-31.4968966843929,-0.588065690297706,2459.30123348503,5.59847991703048,97.5622094738686
0.5,62.05,-31.582373770912,-0.585795615350424,2461.29827454522,5.60276083826474,97.5664497197529
0.5,62.1,-31.6643516945053,-0.583640128692795,2463.29531587991,5.60704159823981,97.570683425603
0.5,62.15,-31.7428452519678,-0.581608673898579,2465.29235747935,5.61132219718587,97.5749106007261
0.5,62.2,-31.8178714087348,-0.579710965833148,2467.28939933383,5.61560263533262,97.5791312544186
0.5,62.25,-31.8894495131187,-0.577956973076908,2469.28644143368,5.61988291290938,97.5833453959661
0.5,62.3,-31.9576014821134,-0.576356900601273,2471.28348376931,5.62416303014501,97.5875530346437
0.5,62.35,-32.0223519582905,-0.574921172615232,2473.28052633114,5.62844298726793,97.5917541797154
0.5,62.4,-32.0837284374905,-0.573660415511359,2475.27756910967,5.63272278450614,97.5959488404348
0.5,62.45,-32.1417613672223,-0.572585440849886,2477.27461209542,5.6370024220872,97.6001370260444
0.5,62.5,-32.1964842159125,-0.571707228328367,2479.27165527897,5.64128190023826,97.6043187457763
0.5,62.55,-32.2479335133871,-0.571036908692403,2481.26869865095,5.64556121918599,97.6084940088513
0.5,62.6,-32.2961488632177,-0.570585746550425,2483.26574220203,5.64984037915668,97.6126628244798
0.5,62.65,-32.3411729278137,-0.570365123062209,2485.26278592293,5.65411938037615,97.6168252018612
0.5,62.7,-32.3830513873809,-0.570386518477318,2487.25982980442,5.65839822306981,97.6209811501839
0.5,62.75,-32.4218328740991,-0.570661494505447,2489.25687383732,5.66267690746264,97.6251306786257
0.5,62.8,-32.45756888308,-0.57120167650631,2491.25391801247,5.66695543377916,97.6292737963534
0.5,62.85,-32.4903136618549,-0.572018735491984,2493.25096232078,5.6712338022435,97.6334105125229
0.5,62.9,-32.5201240803036,-0.573124369939606,2495.2480067532,5.67551201307933,97.6375408362791
0.5,62.95,-32.5470594830657,-0.574530287417058,2497.24505130073,5.67979006650991,97.6416647767563
0.5,63,-32.5711815265759,-0.576248186028937,2499.2420959544,5.68406796275805,97.6457823430774
0.55,57,-27.4511654101639,-0.584391682658255,2259.32781127247,5.13759882871159,96.4713981115824
0.55,57.05,-27.1771381445379,-0.590152333812003,2261.3254619686,5.14187573117633,96.4760973357799
0.55,57.1,-26.8935557956712,-0.596402122767851,2263.32311282061,5.14615245545584,96.480788689929
0.55,57.15,-26.6001016938076,-0.603203654649587,2265.32076381545,5.15042900183978,96.4854721862655
0.55,57.2,-26.2964308415518,-0.61063065114346,2267.31841494018,5.15470537061719,96.4901478370103
0.55,57.25,-25.9821652221192,-0.618770325993381,2269.31606618192,5.15898156207654,96.4948156543698
0.55,57.3,-25.6568879510235,-0.627726360794484,2271.31371752784,5.16325757650568,96.4994756505355
0.55,57.35,-25.3201359976176,-0.637622656524866,2273.3113689652,5.16753341419187,96.5041278376841
0.55,57.4,-24.9713911879798,-0.648608094071275,2275.30902048133,5.17180907542176,96.5087722279775
0.55,57.45,-24.6100692189945,-0.660862615728704,2277.30667206363,5.17608456048141,96.5134088335629
0.55,57.5,-24.2355064902279,-0.674605047266168,2279.30432369954,5.18035986965628,96.5180376665723
0.55,57.55,-23.8469447319026,-0.690103227607392,2281.30197537661,5.18463500323124,96.522658739123
0.55,57.6,-23.4435137260595,-0.707687215236846,2283.29962708243,5.18890996149056,96.5272720633173
0.55,57.65,-23.0242129573326,-0.727766616287978,2285.29727880467,5.1931847447179,96.5318776512428
0.55,57.7,-22.5878938941182,-0.750853452072424,2287.29493053106,5.19745935319635,96.5364755149715
0.55,57.75,-22.1332459428479,-0.777592477112486,2289.29258224941,5.20173378720838,96.541065666561
0.55,57.8,-21.6587911696974,-0.808801484465019,2291.29023394758,5.20600804703589,96.5456481180535
0.55,57.85,-21.1628960140392,-0.845524860770144,2293.2878856135,5.21028213296018,96.5502228814763
0.55,57.9,-20.6438130290471,-0.889104319586831,2295.28553723518,5.21455604526195,96.5547899688414
0.55,57.95,-20.0997731669675,-0.94127086314624,2297.28318880069,5.21882978422132,96.5593493921458
0.55,58,-19.5291608605938,-1.00426032486421,2299.28084029814,5.22310335011782,96.5639011633714
0.55,58.05,-18.9308224807298,-1.08094821135376,2301.27849171576,5.22737674323038,96.5684452944848
0.55,58.1,-18.3045865733336,-1.17498075605887,2303.27614304178,5.23164996383736,96.5729817974375
0.55,58.15,-17.6521134262772,-1.29083223022558,2305.27379426455,5.23592301221652,96.5775106841657
0.55,58.2,-16.9782368120133,-1.43361179952871,2307.27144537245,5.24019588864504,96.5820319665903
0.55,58.25,-16.2929832911192,-1.60822440093888,2309.26909635394,5.24446859339951,96.5865456566171
0.55,58.3,-15.6143635613838,-1.81712006514387,2311.26674719754,5.24874112675595,96.5910517661365
0.55,58.35,-14.9716152685982,-2.05551502210538,2313.26439789182,5.25301348898977,96.5955503070235
0.55,58.4,-14.4075162947379,-2.30361762924771,2315.26204842545,5.25728568037583,96.6000412911379
0.55,58.45,-13.976664625457,-2.51948703676431,2317.25969878711,5.26155770118839,96.6045247303241
0.55,58.5,-13.7357525899575,-2.64441969682565,2319.25734896559,5.26582955170113,96.6090006364112
0.55,58.55,-13.7255315552775,-2.63223187092331,2321.25499894972,5.27010123218716,96.6134690212126
0.55,58.6,-13.9532713261087,-2.4844172885268,2323.25264872839,5.27437274291901,96.6179298965266
0.55,58.65,-14.389168518351,-2.24976485132823,2325.25029829055,5.27864408416863,96.622383274136
0.55,58.7,-14.9798589308044,-1.98843533109999,2327.24794762524,5.2829152562074,96.6268291658079
0.55,58.75,-15.6678206316482,-1.74238423406584,2329.24559672152,5.28718625930612,96.6312675832943
0.55,58.8,-16.4046958214586,-1.53043294105475,2331.24324556854,5.29145709373502,96.6356985383313
0.55,58.85,-17.1556930755189,-1.35609090488663,2333.24089415549,5.29572775976376,96.6401220426397
0.55,58.9,-17.8983774812736,-1.21576459816464,2335.23854247165,5.29999825766141,96.6445381079249
0.55,58.95,-18.6195549924995,-1.1036843905191,2337.23619050632,5.30426858769651,96.6489467458764
0.55,59,-19.3122483608102,-1.01414592447567,2339.23383824889,5.30853875013699,96.6533479681684
0.55,59.05,-19.9733990222633,-0.942288251685684,2341.23148568879,5.31280874525024,96.6577417864594
0.55,59.1,-20.6023031549822,-0.88422408771595,2343.22913281553,5.31707857330306,96.6621282123924
0.55,59.15,-21.1996076360365,-0.836933186592446,2345.22677961867,5.32134823456171,96.6665072575946
0.55,59.2,-21.7666870831221,-0.798096683865962,2347.22442608781,5.32561772929188,96.6708789336777
0.55,59.25,-22.3052662678939,-0.765939269134659,2349.22207221264,5.32988705775867,96.6752432522377
0.55,59.3,-22.8171959791704,-0.739098815541107,2351.21971798288,5.33415622022665,96.679600224855
0.55,59.35,-23.3043232970212,-0.716525010153013,2353.21736338833,5.33842521695983,96.6839498630942
0.55,59.4,-23.7684193394932,-0.697402715477565,2355.21500841883,5.34269404822162,96.6882921785043
0.55,59.45,-24.2111416636931,-0.68109474177039,2357.21265306429,5.34696271427493,96.6926271826185
0.55,59.5,-24.6340173078735,-0.667099283062834,2359.21029731466,5.35123121538206,96.6969548869544
0.55,59.55,-25.0384378920992,-0.655018234197969,2361.20794115997,5.35549955180478,96.7012753030139
0.55,59.6,-25.4256615319857,-0.64453352352054,2363.20558459029,5.35976772380431,96.7055884422829
0.55,59.65,-25.7968183698727,-0.63538934333247,2365.20322759575,5.36403573164131,96.7098943162317
0.55,59.7,-26.1529177888712,-0.627378730551246,2367.20087016654,5.36830357557587,96.7141929363148
0.55,59.75,-26.4948561525649,-0.620333371638593,2369.19851229289,5.37257125586755,96.718484313971
0.55,59.8,-26.8234243933763,-0.614115812893237,2371.19615396511,5.37683877277536,96.7227684606233
0.55,59.85,-27.1393150703681,-0.60861347945256,2373.19379517354,5.38110612655774,96.7270453876786
0.55,59.9,-27.4431287037015,-0.603734067208978,2375.19143590859,5.38537331747261,96.7313151065284
0.55,59.95,-27.735379313164,-0.599401988757577,2377.18907616073,5.38964034577731,96.7355776285481
0.55,60,-28.016499171848,-0.595555640151976,2379.18671592047,5.39390721172867,96.7398329650973
0.55,60.05,-28.2868428545092,-0.592145318816079,2381.18435517837,5.39817391558295,96.7440811275198
0.55,60.1,-28.5466907311353,-0.589131671050587,2383.18199392507,5.40244045759587,96.7483221271436
0.55,60.15,-28.7962521479358,-0.586484584993199,2385.17963215123,5.40670683802262,96.7525559752806
0.55,60.2,-29.0356686730172,-0.584182475184115,2387.17726984759,5.41097305711784,96.7567826832271
0.55,60.25,-29.2650179947749,-0.582211930690355,2389.17490700493,5.41523911513563,96.7610022622633
0.55,60.3,-29.4843193973108,-0.580567721959792,2391.17254361409,5.41950501232954,96.7652147236536
0.55,60.35,-29.6935422780922,-0.579253183342725,2393.17017966594,5.42377074895261,96.7694200786465
0.55,60.4,-29.892620046459,-0.578281008477221,2395.16781515144,5.42803632525732,96.7736183384746
0.55,60.45,-30.0814731549691,-0.577674512106386,2397.16545006158,5.43230174149561,96.7778095143544
0.55,60.5,-30.2600473049479,-0.577469417106889,2399.16308438739,5.43656699791891,96.7819936174869
0.55,60.55,-30.4283765705336,-0.577716201863247,2401.16071811997,5.4408320947781,96.7861706590566
0.55,60.6,-30.5866871388209,-0.578482951088403,2403.15835125048,5.44509703232352,96.7903406502325
0.55,60.65,-30.7355667973419,-0.579858408743841,2405.1559837701,5.449361810805,96.7945036021672
0.55,60.7,-30.8762398010581,-0.58195436431304,2407.15361567009,5.45362643047181,96.7986595259978
0.55,60.75,-31.0110076852003,-0.584905288475982,2409.15124694174,5.45789089157272,96.8028084328451
0.55,60.8,-31.143942817827,-0.588860719652327,2411.1488775764,5.46215519435594,96.8069503338142
0.55,60.85,-31.281942480431,-0.593961579440136,2413.14650756548,5.46641933906916,96.8110852399943
0.55,60.9,-31.4362297719941,-0.600285251078822,2415.14413690041,5.47068332595951,96.8152131624583
0.55,60.95,-31.6242249868552,-0.607739250169786,2417.14176557271,5.4749471552736,96.8193341122635
0.55,61,-31.8712083499198,-0.615893362993498,2419.13939357391,5.47921082725741,96.8234481004509
