"W_line [mm]","Freq [GHz]","dB(S(1,1)) []","dB(S(2,1)) []","im(Gamma(1)) []","re(Gamma(1)) []","re(Zo(1)) []"
0.5,57,-20.3892978025524,-0.744583402425591,2223.91138131326,5.09370419744762,111.157278764465
0.5,57.05,-20.3876780584866,-0.736119635149748,2225.92203627854,5.09796504047149,111.172017464679
0.5,57.1,-20.3843485699048,-0.728399550169032,2227.93270258666,5.10222552745802,111.186741466985
0.5,57.15,-20.3792197247178,-0.721404481445442,2229.94338016346,5.10648565911401,111.201450780526
0.5,57.2,-20.3722039166301,-0.715115488595317,2231.9540689351,5.11074543614491,111.216145414508
0.5,57.25,-20.3632155418281,-0.709513434870516,2233.96476882808,5.11500485925487,111.230825378193
0.5,57.3,-20.3521709878807,-0.704579067771756,2235.97547976919,5.11926392914665,111.245490680906
0.5,57.35,-20.3389886162076,-0.700293102334121,2237.98620168559,5.12352264652168,111.260141332028
0.5,57.4,-20.3235887395609,-0.696636307167017,2239.9969345047,5.12778101208008,111.274777340998
0.5,57.45,-20.3058935960702,-0.693589593378399,2242.00767815431,5.13203902652058,111.289398717316
0.5,57.5,-20.2858273215283,-0.691134106566567,2244.01843256249,5.1362966905406,111.304005470536
0.5,57.55,-20.2633159217538,-0.689251322122517,2246.02919765764,5.14055400483618,111.31859761027
0.5,57.6,-20.2382872470573,-0.68792314415212,2248.03997336848,5.14481097010206,111.333175146187
0.5,57.65,-20.2106709710705,-0.687132008400878,2250.05075962403,5.14906758703158,111.34773808801
0.5,57.7,-20.1803985764845,-0.686860989645084,2252.06155635362,5.15332385631679,111.362286445519
0.5,57.75,-20.1474033505858,-0.687093914102421,2254.0723634869,5.15757977864834,111.376820228548
0.5,57.8,-20.1116203938976,-0.687815477512704,2256.08318095383,5.16183535471558,111.391339446987
0.5,57.85,-20.0729866457358,-0.689011369645936,2258.09400868465,5.16609058520646,111.405844110778
0.5,57.9,-20.0314409310955,-0.690668406110165,2260.10484660995,5.17034547080763,111.420334229917
0.5,57.95,-19.9869240340125,-0.692774668455191,2262.11569466059,5.17460001220438,111.434809814454
0.5,58,-19.9393788034137,-0.695319653699063,2264.12655276773,5.17885421008063,111.449270874491
0.5,58.05,-19.888750298516,-0.698294434540342,2266.13742086287,5.18310806511896,111.463717420181
0.5,58.1,-19.834985982077,-0.701691831656552,2268.14829887777,5.18736157800062,111.478149461732
0.5,58.15,-19.7780359712855,-0.705506599622279,2270.15918674451,5.19161474940549,111.492567009399
0.5,58.2,-19.7178533578397,-0.709735628099567,2272.17008439546,5.19586758001211,111.506970073492
0.5,58.25,-19.6543946108512,-0.714378160045042,2274.1809917633,5.20012007049767,111.521358664367
0.5,58.3,-19.5876200786694,-0.719436028721363,2276.19190878098,5.20437222153801,111.535732792434
0.5,58.35,-19.5174946086096,-0.724913915265299,2278.20283538178,5.20862403380761,111.55009246815
0.5,58.4,-19.4439883069322,-0.730819628407161,2280.21377149923,5.21287550797963,111.564437702022
0.5,58.45,-19.367077465299,-0.737164407593591,2282.22471706719,5.21712664472585,111.578768504605
0.5,58.5,-19.2867456843613,-0.743963250149434,2284.23567201979,5.22137744471671,111.593084886502
0.5,58.55,-19.2029852300943,-0.751235262098957,2286.24663629146,5.22562790862132,111.607386858365
0.5,58.6,-19.115798663915,-0.759004030677287,2288.2576098169,5.22987803710741,111.621674430893
0.5,58.65,-19.0252007933327,-0.7672980141569,2290.26859253112,5.23412783084139,111.635947614831
0.5,58.7,-18.9312209955508,-0.776150941058211,2292.27958436941,5.23837729048831,111.650206420971
0.5,58.75,-18.8339059714608,-0.785602205655724,2294.29058526733,5.24262641671187,111.664450860151
0.5,58.8,-18.7333229908699,-0.795697239327387,2296.30159516073,5.24687521017443,111.678680943256
0.5,58.85,-18.6295636899954,-0.806487826932172,2298.31261398575,5.251123671537,111.692896681212
0.5,58.9,-18.5227484767826,-0.81803232302985,2300.32364167881,5.25537180145923,111.707098084996
0.5,58.95,-18.413031584726,-0.830395703141192,2302.33467817659,5.25961960059944,111.721285165624
0.5,59,-18.3006067860393,-0.843649358970813,2304.34572341609,5.26386706961461,111.73545793416
0.5,59.05,-18.1857137221363,-0.857870512141662,2306.35677733453,5.26811420916035,111.749616401708
0.5,59.1,-18.0686447219669,-0.873141077431379,2308.36783986946,5.27236101989096,111.763760579418
0.5,59.15,-17.949751840934,-0.889545753766741,2310.37891095867,5.27660750245936,111.777890478481
0.5,59.2,-17.8294536438177,-0.907169061798187,2312.38999054024,5.28085365751714,111.792006110132
0.5,59.25,-17.7082409477604,-0.926090988003297,2314.40107855252,5.28509948571457,111.806107485647
0.5,59.3,-17.5866803051227,-0.946380852621691,2316.41217493412,5.28934498770053,111.820194616344
0.5,59.35,-17.4654134102835,-0.968089021464282,2318.42327962394,5.29359016412261,111.834267513581
0.5,59.4,-17.3451498392841,-0.991236178457814,2320.43439256114,5.29783501562702,111.848326188759
0.5,59.45,-17.2266495876226,-1.01580013967824,2322.44551368513,5.30207954285865,111.862370653318
0.5,59.5,-17.1106908367444,-1.04170071594051,2324.45664293563,5.30632374646103,111.876400918737
0.5,59.55,-16.9980174511353,-1.06878401831751,2326.46778025258,5.31056762707638,111.890416996538
0.5,59.6,-16.8892602731739,-1.09680889946493,2328.4789255762,5.31481118534555,111.904418898279
0.5,59.65,-16.7848269893342,-1.12543983748162,2330.490078847,5.31905442190809,111.918406635558
0.5,59.7,-16.6847581153164,-1.1542521199612,2332.50124000571,5.32329733740218,111.932380220012
0.5,59.75,-16.5885525714543,-1.18275590124087,2334.51240899335,5.32753993246468,111.946339663317
0.5,59.8,-16.4949762320941,-1.21044447938164,2336.52358575118,5.3317822077311,111.960284977184
0.5,59.85,-16.4018805399692,-1.23686796097293,2338.53477022074,5.33602416383564,111.974216173363
0.5,59.9,-16.306073437973,-1.26172629594864,2340.54596234382,5.34026580141115,111.988133263642
0.5,59.95,-16.2032960452534,-1.28496728269862,2342.55716206246,5.34450712108916,112.002036259845
0.5,60,-16.0883574385133,-1.30686931018941,2344.56836931896,5.34874812349985,112.015925173831
0.5,60.05,-15.9554583919074,-1.32808939133838,2346.57958405587,5.35298880927208,112.029800017497
0.5,60.1,-15.7986906180843,-1.34966600988217,2348.59080621601,5.35722917903339,112.043660802774
0.5,60.15,-15.6126406334124,-1.37298054276208,2350.60203574243,5.36146923340997,112.057507541629
0.5,60.2,-15.3929795523667,-1.3996942628947,2352.61327257845,5.36570897302671,112.071340246063
0.5,60.25,-15.1369082767723,-1.43168438305133,2354.62451666763,5.36994839850715,112.085158928114
0.5,60.3,-14.8433646999487,-1.47100046795067,2356.63576795377,5.37418751047351,112.098963599851
0.5,60.35,-14.5129731682632,-1.51985438664175,2358.64702638095,5.37842630954671,112.112754273379
0.5,60.4,-14.1477936655481,-1.58064719062979,2360.65829189346,5.3826647963463,112.126530960835
0.5,60.45,-13.7509764130473,-1.65602808837345,2362.66956443587,5.38690297149056,112.14029367439
0.5,60.5,-13.3264336729156,-1.74897459136209,2364.68084395296,5.39114083559641,112.154042426249
0.5,60.55,-12.8786138742681,-1.86287698027371,2366.69213038978,5.39537838927947,112.167777228646
0.5,60.6,-12.4124238163513,-2.0016007269251,2368.70342369161,5.39961563315404,112.18149809385
0.5,60.65,-11.9333092170974,-2.16948213952038,2370.71472380398,5.40385256783309,112.195205034162
0.5,60.7,-11.4474783497297,-2.37117827895189,2372.72603067267,5.40808919392831,112.208898061911
0.5,60.75,-10.962234360828,-2.61123375944586,2374.73734424366,5.41232551205,112.222577189462
0.5,60.8,-10.4863602783873,-2.89313889259959,2376.74866446335,5.41656152275091,112.236242429207
0.5,60.85,-10.0304677091461,-3.21754962103456,2378.75999127784,5.42079722680751,112.249893793569
0.5,60.9,-9.607172675178,-3.57929953907502,2380.7713246342,5.42503262465782,112.263531295003
0.5,60.95,-9.23091172371297,-3.96310025826504,2382.7826644793,5.42926771696282,112.277154945991
0.5,61,-8.91719545805463,-4.33889791480441,2384.7940107603,5.43350250432637,112.290764759047
0.5,61.05,-8.68117676409645,-4.66019456258218,2386.80536342465,5.437736987351,112.304360746714
0.5,61.1,-8.53563790445427,-4.87109493000179,2388.81672241999,5.44197116663787,112.317942921561
0.5,61.15,-8.48883520706003,-4.92537901073582,2390.82808769421,5.44620504278687,112.331511296187
0.5,61.2,-8.54289636760916,-4.80915303728505,2392.83945919544,5.45043861639659,112.345065883219
0.5,61.25,-8.69340042054216,-4.54857551926854,2394.85083687203,5.4546718880643,112.358606695332
0.5,61.3,-8.93032494944366,-4.19517855544313,2396.86222067255,5.45890485838597,112.372133745172
0.5,61.35,-9.23997765390981,-3.80268035370603,2398.87361054581,5.4631375279563,112.385647045471
0.5,61.4,-9.60721163848596,-3.41191840398807,2400.88500644084,5.46736989736866,112.399146608965
0.5,61.45,-10.017300676504,-3.04745240860738,2402.89640830691,5.47160196721513,112.412632448416
0.5,61.5,-10.4571651855091,-2.72073583314247,2404.90781609349,5.47583373808652,112.426104576614
0.5,61.55,-10.9159466795243,-2.43477883507894,2406.9192297503,5.48006521057233,112.439563006375
0.5,61.6,-11.3850964035849,-2.18796364463727,2408.93064922726,5.48429638526076,112.453007750541
0.5,61.65,-11.8581770480671,-1.97654883251763,2410.94207447454,5.48852726273874,112.466438821978
0.5,61.7,-12.330536728177,-1.79611173753977,2412.9535054425,5.4927578435919,112.479856233579
0.5,61.75,-12.7989561944382,-1.64229411611569,2414.96494208173,5.4969881284046,112.493259998262
0.5,61.8,-13.2613210728704,-1.51113910244035,2416.97638434306,5.50121811775989,112.506650128966
0.5,61.85,-13.7163379764118,-1.39920687043334,2418.98783217751,5.50544781223957,112.520026638658
0.5,61.9,-14.1632942774966,-1.30357951457525,2420.99928553634,5.50967721242412,112.533389540328
0.5,61.95,-14.601851563472,-1.22181628618975,2423.01074437101,5.51390631889276,112.546738846988
0.5,62,-15.0318584744078,-1.15189120860726,2425.02220863319,5.51813513222345,112.560074571675
0.5,62.05,-15.453167589245,-1.09212881920123,2427.0336782748,5.52236365299285,112.573396727449
0.5,62.1,-15.8654429342406,-1.04114505248557,2429.04515324793,5.52659188177634,112.586705327393
0.5,62.15,-16.2679510139302,-0.99779577773873,2431.0566335049,5.53081981914805,112.600000384609
0.5,62.2,-16.6593421399918,-0.961133301039013,2433.06811899826,5.53504746568083,112.613281912227
0.5,62.25,-17.0374538678308,-0.930370143986633,2435.07960968075,5.53927482194624,112.626549923394
0.5,62.3,-17.3992048624773,-0.904849017969438,2437.09110550532,5.54350188851461,112.639804431281
0.5,62.35,-17.7406848817909,-0.884017793497516,2439.10260642514,5.54772866595497,112.65304544908
0.5,62.4,-18.0575547184968,-0.867408231458864,2441.11411239358,5.5519551548351,112.666272990005
0.5,62.45,-18.345803358111,-0.854617173526216,2443.12562336421,5.55618135572152,112.679487067287
0.5,62.5,-18.6027438286789,-0.845288665603951,2445.13713929084,5.56040726917949,112.692687694183
0.5,62.55,-18.8279236470062,-0.839094940883324,2447.14866012744,5.564632895773,112.705874883966
0.5,62.6,-19.0235385325492,-0.835712995975654,2449.16018582822,5.56885823606478,112.719048649931
0.5,62.65,-19.1941057549904,-0.834790977723629,2451.17171634757,5.57308329061633,112.732209005392
0.5,62.7,-19.3455123308646,-0.83589326031941,2453.1832516401,5.57730805998786,112.745355963684
0.5,62.75,-19.4838459233153,-0.838401496339858,2455.19479166062,5.58153254473837,112.758489538157
0.5,62.8,-19.6144394632604,-0.841323039611609,2457.20633636413,5.58575674542556,112.771609742186
0.5,62.85,-19.7413547464884,-0.842899478642227,2459.21788570584,5.58998066260593,112.784716589159
0.5,62.9,-19.8672895289319,-0.839779496564388,2461.22943964116,5.5942042968347,112.797810092486
0.5,62.95,-19.9937592185167,-0.8252970425848,2463.24099812569,5.59842764866585,112.810890265594
0.5,63,-20.1213912867459,-0.786508275912124,2465.25256111524,5.60265071865214,112.823957121928
0.55,57,-22.5291770650065,-0.616114879372313,2227.83987789166,5.07567554218814,111.592841308582
0.55,57.05,-22.5353809245232,-0.616765529508132,2229.85186541458,5.07990465322124,111.606642174092
0.55,57.1,-22.5378473808685,-0.617732010413483,2231.86385865909,5.08413345417672,111.620426601757
0.55,57.15,-22.5365947057779,-0.619013881092862,2233.87585756901,5.08836194573792,111.63419461115
0.55,57.2,-22.5316472401386,-0.620612374434348,2235.8878620884,5.09259012858641,111.647946221867
0.55,57.25,-22.5230363461561,-0.622530511963473,2237.89987216161,5.09681800340205,111.661681453523
0.55,57.3,-22.5108015770412,-0.624773222191096,2239.91188773325,5.1010455708629,111.675400325759
0.55,57.35,-22.4949921065626,-0.627347460280539,2241.9239087482,5.10527283164531,111.689102858232
0.55,57.4,-22.4756684691621,-0.630262325425581,2243.93593515162,5.1094997864239,111.702789070623
0.55,57.45,-22.4529046710198,-0.633529170469067,2245.94796688891,5.11372643587151,111.716458982632
0.55,57.5,-22.4267907435257,-0.63716169572183,2247.96000390577,5.1179527806593,111.730112613978
0.55,57.55,-22.3974358229675,-0.641176015431454,2249.97204614812,5.12217882145666,111.743749984401
0.55,57.6,-22.3649718535791,-0.645590680609728,2251.98409356218,5.12640455893127,111.757371113659
0.55,57.65,-22.3295580247095,-0.650426635603796,2253.99614609441,5.13062999374909,111.770976021527
0.55,57.7,-22.2913860654536,-0.655707077482243,2256.00820369154,5.13485512657434,111.784564727802
0.55,57.75,-22.2506865293487,-0.661457176573455,2258.02026630055,5.13907995806956,111.798137252295
0.55,57.8,-22.2077362038844,-0.667703602957138,2260.03233386868,5.14330448889554,111.811693614836
0.55,57.85,-22.1628667685462,-0.674473787179101,2262.04440634343,5.14752871971139,111.825233835273
0.55,57.9,-22.11647479153,-0.681794824192301,2264.05648367255,5.1517526511745,111.838757933468
0.55,57.95,-22.0690330850175,-0.689691908667835,2266.06856580405,5.15597628394055,111.852265929305
0.55,58,-22.0211033113656,-0.698186170087178,2268.08065268618,5.16019961866354,111.865757842589
0.55,58.05,-21.973349518655,-0.707291762721812,2270.09274426746,5.16442265599576,111.879233693455
0.55,58.1,-21.9265519444812,-0.717012067933276,2272.10484049663,5.16864539658781,111.892693501635
0.55,58.15,-21.881619911827,-0.727334898757594,2274.11694132271,5.17286784108862,111.906137287123
0.55,58.2,-21.8396018930292,-0.738226680438198,2276.12904669496,5.17708999014541,111.919565069875
0.55,58.25,-21.8016897828181,-0.749625742130524,2278.14115656287,5.18131184440373,111.932976869859
0.55,58.3,-21.769213071104,-0.761435122220244,2280.15327087619,5.18553340450744,111.94637270706
0.55,58.35,-21.7436169835552,-0.773515679743563,2282.16538958491,5.18975467109876,111.959752601471
0.55,58.4,-21.726416950515,-0.785680801954026,2284.17751263927,5.19397564481821,111.973116573102
0.55,58.45,-21.7191204082061,-0.797694523817483,2286.18963998974,5.19819632630464,111.986464641973
0.55,58.5,-21.7231067296639,-0.80927525441086,2288.20177158704,5.20241671619525,111.999796828118
0.55,58.55,-21.7394582556587,-0.820107261934397,2290.21390738212,5.20663681512558,112.013113151582
0.55,58.6,-21.7687415030643,-0.829861285897479,2292.22604732618,5.21085662372951,112.02641363242
0.55,58.65,-21.8107490953991,-0.838223920507521,2294.23819137065,5.21507614263925,112.039698290701
0.55,58.7,-21.864230117473,-0.844932892892552,2296.2503394672,5.21929537248541,112.052967146503
0.55,58.75,-21.92665725368,-0.849812712420974,2298.26249156772,5.22351431389689,112.066220219915
0.55,58.8,-21.9940971924449,-0.852803500275526,2300.27464762437,5.227732967501,112.079457531034
0.55,58.85,-22.0612564787991,-0.853976195399563,2302.28680758949,5.23195133392338,112.092679099971
0.55,58.9,-22.1217573656754,-0.853530125397942,2304.29897141571,5.23616941378805,112.105884946842
0.55,58.95,-22.1686515932286,-0.851773330582055,2306.31113905585,5.2403872077174,112.119075091775
0.55,59,-22.1951115480228,-0.849090356920593,2308.32331046296,5.24460471633219,112.132249554906
0.55,59.05,-22.1951710569894,-0.845904821856649,2310.33548559035,5.24882194025154,112.145408356379
0.55,59.1,-22.1643539787647,-0.842644148713859,2312.34766439152,5.25303888009297,112.158551516346
0.55,59.15,-22.1000504301471,-0.839711885513034,2314.35984682023,5.25725553647238,112.171679054968
0.55,59.2,-22.0015739847641,-0.837470130652322,2316.37203283044,5.26147191000406,112.184790992413
0.55,59.25,-21.8699265137889,-0.836231946758674,2318.38422237634,5.26568800130067,112.197887348854
0.55,59.3,-21.7073694411506,-0.83626193240113,2320.39641541235,5.26990381097329,112.210968144474
0.55,59.35,-21.5169259225384,-0.837782448692191,2322.40861189311,5.27411933963137,112.224033399462
0.55,59.4,-21.3019197675656,-0.840983108034084,2324.42081177349,5.2783345878828,112.237083134011
0.55,59.45,-21.065614500025,-0.846031660834248,2326.43301500855,5.28254955633383,112.250117368322
0.55,59.5,-20.8109726314543,-0.853085060183722,2328.44522155359,5.28676424558916,112.263136122601
0.55,59.55,-20.5405247018897,-0.862300062708821,2330.45743136414,5.29097865625188,112.27613941706
0.55,59.6,-20.2563228550449,-0.873843162823228,2332.46964439593,5.2951927889235,112.289127271914
0.55,59.65,-19.9599510492972,-0.887899953403398,2334.4818606049,5.29940664420394,112.302099707385
0.55,59.7,-19.6525680786117,-0.90468418689342,2336.49407994723,5.30362022269157,112.315056743698
0.55,59.75,-19.3349660267214,-0.924446913437767,2338.50630237928,5.30783352498316,112.327998401084
0.55,59.8,-19.007633037298,-0.947486128781564,2340.51852785766,5.31204655167392,112.340924699774
0.55,59.85,-18.6708142768215,-0.974157397143789,2342.53075633915,5.31625930335751,112.353835660007
0.55,59.9,-18.3245685204076,-1.00488593571777,2344.54298778079,5.320471780626,112.366731302023
0.55,59.95,-17.9688201418802,-1.04018066023272,2346.55522213978,5.32468398406992,112.379611646065
0.55,60,-17.6034077935027,-1.08065068568822,2348.56745937357,5.32889591427824,112.392476712379
0.55,60.05,-17.2281320516297,-1.12702472729646,2350.57969943979,5.33310757183839,112.405326521213
0.55,60.1,-16.8428050465395,-1.18017370244617,2352.5919422963,5.33731895733623,112.418161092819
0.55,60.15,-16.4473057785051,-1.2411365002164,2354.60418790113,5.3415300713561,112.430980447447
0.55,60.2,-16.041645571501,-1.31114819086452,2356.61643621257,5.3457409144808,112.443784605353
0.55,60.25,-15.6260489873797,-1.39166859641473,2358.62868718905,5.34995148729156,112.456573586792
0.55,60.3,-15.2010564850482,-1.48440662500599,2360.64094078926,5.35416179036812,112.46934741202
0.55,60.35,-14.7676559844101,-1.59133123645127,2362.65319697206,5.35837182428867,112.482106101295
0.55,60.4,-14.3274508512396,-1.71465200276659,2364.66545569652,5.36258158962987,112.494849674874
0.55,60.45,-13.8828707852399,-1.8567389732628,2366.67771692191,5.36679108696689,112.507578153014
0.55,60.5,-13.4374281030672,-2.01993050587478,2368.68998060769,5.37100031687333,112.520291555975
0.55,60.55,-12.9960124499763,-2.20614720402773,2370.70224671353,5.37520927992133,112.532989904014
0.55,60.6,-12.565198625763,-2.41619330337944,2372.7145151993,5.37941797668148,112.545673217388
0.55,60.65,-12.1535116283561,-2.64860249075086,2374.72678602506,5.38362640772288,112.558341516353
0.55,60.7,-11.7715500491855,-2.89792880048275,2376.73905915106,5.38783457361314,112.570994821165
0.55,60.75,-11.4318229701404,-3.15261419725053,2378.75133453776,5.39204247491834,112.583633152079
0.55,60.8,-11.1481335762443,-3.3931476728801,2380.7636121458,5.39625011220309,112.596256529346
0.55,60.85,-10.934391158636,-3.59216560252562,2382.77589193601,5.40045748603051,112.608864973218
0.55,60.9,-10.8028957926873,-3.71872301995729,2384.78817386943,5.4046645969622,112.621458503944
0.55,60.95,-10.7624030707737,-3.74749365456786,2386.80045790728,5.40887144555831,112.63403714177
0.55,61,-10.816516669404,-3.66931341785941,2388.81274401097,5.41307803237749,112.64660090694
0.55,61.05,-10.962980409456,-3.49595359703201,2390.8250321421,5.41728435797693,112.659149819697
