"W_line [mm]","Freq [GHz]","dB(S(1,1)) []","dB(S(2,1)) []","im(Gamma(1:1)) []","re(Gamma(1:1)) []","re(Zo(1:1)) []"
0.5,37,-45.9535796740268,-0.309811800195551,1301.21739902021,3.15811865762062,72.5524363220193
0.5,37.05,-45.8037773208591,-0.310004472215462,1303.06625840754,3.16236354886392,72.553420271996
0.5,37.1,-45.6590343276932,-0.310193711347975,1304.91530235636,3.16660866159518,72.5544013328545
0.5,37.15,-45.5192011227724,-0.310379753697786,1306.76453061066,3.17085399575037,72.5553794839229
0.5,37.2,-45.3841334689989,-0.310562811359354,1308.6139429149,3.17509955127489,72.5563547047019
0.5,37.25,-45.2536925189271,-0.310743073149878,1310.46353901403,3.17934532812322,72.5573269748668
0.5,37.3,-45.1277448373495,-0.310920705372938,1312.31331865349,3.18359132625874,72.5582962742685
0.5,37.35,-45.0061623982742,-0.311095852611633,1314.16328157919,3.18783754565342,72.559262582935
0.5,37.4,-44.8888225617611,-0.311268638550078,1316.01342753754,3.19208398628757,72.5602258810729
0.5,37.45,-44.7756080350065,-0.311439166822014,1317.86375627545,3.19633064814961,72.5611861490684
0.5,37.5,-44.6664068212026,-0.311607521885426,1319.71426754031,3.20057753123575,72.5621433674888
0.5,37.55,-44.5611121589972,-0.311773769921856,1321.56496108003,3.20482463554981,72.5630975170838
0.5,37.6,-44.4596224548186,-0.311937959759292,1323.415836643,3.20907196110291,72.5640485787865
0.5,37.65,-44.3618412098732,-0.312100123817349,1325.26689397813,3.21331950791325,72.564996533715
0.5,37.7,-44.2676769432544,-0.312260279073553,1327.11813283484,3.21756727600586,72.5659413631732
0.5,37.75,-44.177043112303,-0.312418428049466,1328.96955296305,3.22181526541231,72.5668830486522
0.5,37.8,-44.0898580311138,-0.312574559815455,1330.82115411319,3.22606347617052,72.5678215718312
0.5,37.85,-44.0060447878853,-0.312728651012851,1332.67293603623,3.23031190832446,72.5687569145791
0.5,37.9,-43.9255311616434,-0.312880666892258,1334.52489848365,3.23456056192397,72.5696890589549
0.5,37.95,-43.8482495387381,-0.313030562366802,1336.37704120742,3.23880943702444,72.5706179872092
0.5,38,-43.7741368293965,-0.313178283079065,1338.22936396009,3.24305853368663,72.5715436817852
0.5,38.05,-43.7031343845244,-0.313323766480496,1340.08186649469,3.24730785197639,72.5724661253196
0.5,38.1,-43.6351879128664,-0.313466942922054,1341.93454856481,3.25155739196446,72.5733853006435
0.5,38.15,-43.5702473985723,-0.313607736754864,1343.78740992455,3.25580715372619,72.5743011907835
0.5,38.2,-43.5082670191521,-0.313746067439685,1345.64045032856,3.26005713734132,72.5752137789626
0.5,38.25,-43.4492050637616,-0.313881850663937,1347.49366953203,3.26430734289378,72.576123048601
0.5,38.3,-43.3930238517073,-0.314014999465098,1349.34706729067,3.26855777047141,72.5770289833169
0.5,38.35,-43.3396896510308,-0.314145425359282,1351.20064336076,3.27280842016573,72.5779315669276
0.5,38.4,-43.2891725969912,-0.314273039473735,1353.0543974991,3.27705929207174,72.5788307834501
0.5,38.45,-43.2414466102423,-0.314397753682098,1354.90832946304,3.28131038628768,72.5797266171019
0.5,38.5,-43.1964893144701,-0.31451948174123,1356.7624390105,3.28556170291481,72.5806190523017
0.5,38.55,-43.154281953238,-0.314638140428381,1358.61672589994,3.28981324205713,72.5815080736704
0.5,38.6,-43.1148093057673,-0.314753650677523,1360.47118989036,3.29406500382125,72.5823936660314
0.5,38.65,-43.0780596013661,-0.31486593871369,1362.32583074134,3.29831698831608,72.5832758144116
0.5,38.7,-43.0440244322065,-0.314974937184079,1364.180648213,3.30256919565266,72.5841545040417
0.5,38.75,-43.0126986641465,-0.315080586284771,1366.03564206602,3.30682162594392,72.5850297203573
0.5,38.8,-42.9840803452822,-0.315182834881892,1367.89081206167,3.31107427930446,72.5859014489991
0.5,38.85,-42.9581706119237,-0.315281641626,1369.74615796176,3.31532715585036,72.5867696758134
0.5,38.9,-42.9349735916866,-0.31537697605855,1371.60167952867,3.31958025569891,72.5876343868531
0.5,38.95,-42.9144963034031,-0.315468819709236,1373.45737652534,3.32383357896845,72.5884955683775
0.5,39,-42.8967485535702,-0.315557167183041,1375.31324871532,3.32808712577811,72.5893532068535
0.5,39.05,-42.8817428290711,-0.315642027235814,1377.16929586269,3.33234089624765,72.5902072889557
0.5,39.1,-42.8694941859328,-0.315723423837195,1379.02551773212,3.3365948904972,72.5910578015665
0.5,39.15,-42.8600201339103,-0.315801397219678,1380.88191408887,3.34084910864708,72.5919047317774
0.5,39.2,-42.8533405167264,-0.315876004912679,1382.73848469876,3.34510355081759,72.5927480668882
0.5,39.25,-42.8494773878395,-0.315947322760383,1384.59522932821,3.34935821712878,72.5935877944084
0.5,39.3,-42.8484548816562,-0.31601544592219,1386.4521477442,3.35361310770028,72.5944239020567
0.5,39.35,-42.8502990801645,-0.316080489854586,1388.30923971432,3.35786822265106,72.595256377762
0.5,39.4,-42.8550378750217,-0.316142591273224,1390.16650500672,3.36212356209927,72.5960852096628
0.5,39.45,-42.8627008251957,-0.316201909094061,1392.02394339017,3.36637912616199,72.5969103861085
0.5,39.5,-42.8733190103314,-0.316258625352293,1393.881554634,3.37063491495508,72.5977318956585
0.5,39.55,-42.88692488009,-0.316312946097979,1395.73933850815,3.37489092859294,72.5985497270832
0.5,39.6,-42.9035520997843,-0.316365102267057,1397.59729478316,3.37914716718834,72.5993638693637
0.5,39.65,-42.9232353927217,-0.316415350526646,1399.45542323013,3.3834036308522,72.6001743116923
0.5,39.7,-42.9460103797464,-0.316463974093368,1401.3137236208,3.38766031969343,72.600981043472
0.5,39.75,-42.9719134165599,-0.316511283523546,1403.17219572748,3.3919172338187,72.6017840543172
0.5,39.8,-43.000981429484,-0.316557617474026,1405.0308393231,3.39617437333227,72.6025833340535
0.5,39.85,-43.0332517504151,-0.316603343432502,1406.88965418117,3.40043173833581,72.6033788727176
0.5,39.9,-43.0687619517967,-0.316648858416061,1408.74864007583,3.40468932892817,72.6041706605574
0.5,39.95,-43.107549682515,-0.316694589636886,1410.6077967818,3.40894714520523,72.604958688032
0.5,40,-43.1496525056914,-0.316740995133794,1412.46712407442,3.41320518725971,72.6057429458116
0.5,40.05,-43.1951077394076,-0.316788564368574,1414.32662172964,3.41746345518096,72.6065234247774
0.5,40.1,-43.2439523014499,-0.316837818785875,1416.18628952401,3.4217219490548,72.6073001160215
0.5,40.15,-43.2962225592038,-0.31688931233554,1418.0461272347,3.42598066896333,72.608073010847
0.5,40.2,-43.3519541858561,-0.316943631956223,1419.90613463948,3.43023961498475,72.6088421007671
0.5,40.25,-43.4111820240795,-0.317001398019165,1421.76631151675,3.43449878719317,72.6096073775059
0.5,40.3,-43.4739399583758,-0.317063264731098,1423.62665764552,3.43875818565845,72.6103688329977
0.5,40.35,-43.5402607972409,-0.317129920495067,1425.4871728054,3.44301781044599,72.6111264593865
0.5,40.4,-43.6101761662842,-0.317202088228213,1427.34785677664,3.4472776616166,72.6118802490262
0.5,40.45,-43.6837164133938,-0.317280525635469,1429.2087093401,3.45153773922628,72.6126301944803
0.5,40.5,-43.7609105269745,-0.317366025438083,1431.06973027726,3.45579804332609,72.6133762885213
0.5,40.55,-43.8417860682167,-0.317459415556127,1432.93091937022,3.46005857396192,72.6141185241305
0.5,40.6,-43.9263691182611,-0.317561559243898,1434.79227640171,3.46431933117439,72.6148568944976
0.5,40.65,-44.014684241026,-0.317673355177443,1436.65380115507,3.4685803149986,72.6155913930207
0.5,40.7,-44.1067544623509,-0.317795737493234,1438.51549341429,3.47284152546405,72.6163220133053
0.5,40.75,-44.202601265991,-0.31792967577727,1440.37735296395,3.47710296259438,72.6170487491644
0.5,40.8,-44.3022446068663,-0.318076175003759,1442.23937958929,3.48136462640727,72.6177715946175
0.5,40.85,-44.4057029418397,-0.31823627542266,1444.10157307617,3.48562651691426,72.6184905438908
0.5,40.9,-44.5129932781608,-0.3184110523955,1445.96393321107,3.48988863412058,72.6192055914163
0.5,40.95,-44.6241312395799,-0.318601616178755,1447.8264597811,3.49415097802496,72.6199167318313
0.5,41,-44.7391311500025,-0.318809111654289,1449.68915257402,3.49841354861952,72.6206239599779
0.55,37,-48.4231142982545,-0.294575710384698,1308.02085668672,3.11428366028255,69.6371568607591
0.55,37.05,-48.2798330460627,-0.29488456236465,1309.87659462902,3.1184992002336,69.6375716333721
0.55,37.1,-48.1407164213867,-0.295175582609025,1311.73250700785,3.12271507409206,69.6379818380504
0.55,37.15,-48.0057539255918,-0.295449913829291,1313.58859360614,3.12693128184941,69.6383874732609
0.55,37.2,-47.8749334642468,-0.295708663112979,1315.44485420722,3.13114782350378,69.6387885376423
0.55,37.25,-47.7482414160729,-0.295952901861207,1317.3012885948,3.1353646990597,69.6391850300043
0.55,37.3,-47.625662687283,-0.29618366577376,1319.15789655297,3.13958190852788,69.6395769493277
0.55,37.35,-47.5071807547685,-0.296401954881059,1321.01467786623,3.14379945192489,69.6399642947635
0.55,37.4,-47.3927777011611,-0.296608733622145,1322.87163231948,3.14801732927294,69.6403470656327
0.55,37.45,-47.2824342444051,-0.296804930967923,1324.72875969799,3.15223554059959,69.6407252614259
0.55,37.5,-47.1761297641243,-0.296991440588694,1326.58605978748,3.15645408593753,69.6410988818032
0.55,37.55,-47.0738423267453,-0.297169121065117,1328.44353237404,3.1606729653243,69.641467926593
0.55,37.6,-46.9755487110434,-0.297338796141607,1330.30117724418,3.16489217880203,69.6418323957921
0.55,37.65,-46.8812244355124,-0.297501255021209,1332.15899418482,3.16911172641723,69.6421922895652
0.55,37.7,-46.7908437887079,-0.297657252700883,1334.01698298332,3.17333160822048,69.6425476082443
0.55,37.75,-46.7043798634944,-0.297807510346183,1335.87514342742,3.17755182426625,69.6428983523281
0.55,37.8,-46.6218045959132,-0.297952715704243,1337.73347530532,3.18177237461257,69.6432445224817
0.55,37.85,-46.5430888092045,-0.298093523553969,1339.59197840563,3.18599325932086,69.6435861195358
0.55,37.9,-46.4682022633426,-0.298230556192333,1341.45065251737,3.19021447845565,69.6439231444866
0.55,37.95,-46.397113710288,-0.298364403955605,1343.30949743002,3.19443603208434,69.6442555984948
0.55,38,-46.3297909550203,-0.298495625774407,1345.16851293348,3.19865792027696,69.6445834828852
0.55,38.05,-46.2662009222907,-0.298624749761399,1347.02769881809,3.20288014310594,69.6449067991464
0.55,38.1,-46.2063097289232,-0.298752273830434,1348.88705487462,3.20710270064585,69.6452255489296
0.55,38.15,-46.1500827613979,-0.298878666346004,1350.74658089431,3.2113255929732,69.6455397340486
0.55,38.2,-46.0974847583665,-0.299004366801749,1352.60627666881,3.21554882016616,69.6458493564789
0.55,38.25,-46.048479897685,-0.299129786526887,1354.46614199024,3.21977238230435,69.6461544183571
0.55,38.3,-46.0030318874888,-0.299255309419305,1356.32617665117,3.22399627946863,69.6464549219803
0.55,38.35,-45.9611040607964,-0.299381292704157,1358.18638044461,3.22822051174081,69.6467508698052
0.55,38.4,-45.9226594730946,-0.29950806771672,1360.04675316403,3.2324450792035,69.6470422644481
0.55,38.45,-45.887661002336,-0.299635940708303,1361.90729460338,3.2366699819398,69.6473291086836
0.55,38.5,-45.8560714507737,-0.299765193674045,1363.76800455704,3.24089522003313,69.6476114054438
0.55,38.55,-45.8278536480528,-0.299896085201331,1365.62888281988,3.24512079356699,69.6478891578185
0.55,38.6,-45.8029705549873,-0.300028851337664,1367.48992918721,3.24934670262474,69.6481623690535
0.55,38.65,-45.781385367467,-0.300163706476766,1369.35114345482,3.25357294728936,69.6484310425504
0.55,38.7,-45.7630616199581,-0.300300844261745,1371.21252541899,3.25779952764325,69.6486951818657
0.55,38.75,-45.7479632880895,-0.300440438504063,1373.07407487644,3.262026443768,69.6489547907104
0.55,38.8,-45.7360548898473,-0.300582644117192,1374.93579162439,3.26625369574418,69.6492098729487
0.55,38.85,-45.7273015849358,-0.300727598063702,1376.79767546053,3.27048128365112,69.6494604325976
0.55,38.9,-45.7216692718994,-0.300875420314647,1378.65972618303,3.2747092075667,69.649706473826
0.55,38.95,-45.7191246826401,-0.301026214820042,1380.52194359053,3.27893746756714,69.6499480009541
0.55,39,-45.7196354740062,-0.301180070489263,1382.38432748219,3.28316606372675,69.6501850184524
0.55,39.05,-45.7231703161661,-0.301337062180195,1384.24687765762,3.28739499611779,69.6504175309409
0.55,39.1,-45.7296989775239,-0.301497251695974,1386.10959391693,3.29162426481019,69.6506455431885
0.55,39.15,-45.7391924059695,-0.301660688788172,1387.97247606074,3.29585386987141,69.650869060112
0.55,39.2,-45.7516228062949,-0.301827412165224,1389.83552389014,3.30008381136616,69.6510880867753
0.55,39.25,-45.7669637136437,-0.301997450504996,1391.69873720673,3.30431408935626,69.6513026283885
0.55,39.3,-45.7851900628906,-0.302170823470313,1393.56211581259,3.3085447039004,69.6515126903073
0.55,39.35,-45.8062782538797,-0.30234754272634,1395.42565951032,3.31277565505396,69.6517182780318
0.55,39.4,-45.8302062124754,-0.302527612958614,1397.28936810302,3.31700694286879,69.651919397206
0.55,39.45,-45.8569534474013,-0.302711032890669,1399.15324139428,3.32123856739303,69.6521160536166
0.55,39.5,-45.8865011028629,-0.302897796300059,1401.0172791882,3.32547052867087,69.6523082531922
0.55,39.55,-45.9188320069627,-0.30308789303167,1402.8814812894,3.32970282674244,69.6524960020026
0.55,39.6,-45.9539307159286,-0.303281310007219,1404.74584750299,3.33393546164351,69.6526793062578
0.55,39.65,-45.9917835541815,-0.303478032229764,1406.61037763461,3.33816843340537,69.6528581723067
0.55,39.7,-46.0323786502699,-0.303678043782174,1408.4750714904,3.34240174205463,69.653032606637
0.55,39.75,-46.0757059686985,-0.303881328818363,1410.33992887702,3.34663538761298,69.6532026158736
0.55,39.8,-46.121757337667,-0.304087872546262,1412.20494960165,3.35086937009707,69.6533682067777
0.55,39.85,-46.1705264727278,-0.304297662201311,1414.07013347198,3.35510368951826,69.6535293862464
0.55,39.9,-46.2220089963484,-0.304510688009474,1415.93548029624,3.35933834588247,69.6536861613112
0.55,39.95,-46.2762024533479,-0.30472694413861,1417.80098988315,3.36357333919,69.6538385391372
0.55,40,-46.3331063221436,-0.30494642963708,1419.66666204199,3.3678086694353,69.6539865270223
0.55,40.05,-46.3927220217125,-0.305169149358549,1421.53249658253,3.37204433660684,69.6541301323961
0.55,40.1,-46.4550529141314,-0.305395114871859,1423.3984933151,3.37628034068691,69.6542693628188
0.55,40.15,-46.5201043025117,-0.305624345354893,1425.26465205053,3.38051668165141,69.6544042259806
0.55,40.2,-46.5878834240887,-0.305856868471317,1427.13097260021,3.38475335946973,69.6545347297003
0.55,40.25,-46.6583994381628,-0.30609272122919,1428.99745477603,3.38899037410452,69.6546608819246
0.55,40.3,-46.7316634085163,-0.306331950820305,1430.86409839043,3.39322772551153,69.6547826907269
0.55,40.35,-46.807688279845,-0.306574615439232,1432.73090325639,3.39746541363946,69.6549001643063
0.55,40.4,-46.8864888476497,-0.306820785081032,1434.59786918742,3.40170343842975,69.655013310987
0.55,40.45,-46.9680817209198,-0.307070542316534,1436.46499599757,3.40594179981642,69.6551221392165
0.55,40.5,-47.0524852768219,-0.307323983044224,1438.33228350142,3.41018049772592,69.6552266575655
0.55,40.55,-47.1397196064581,-0.307581217217671,1440.19973151411,3.41441953207692,69.655326874726
0.55,40.6,-47.2298064506014,-0.307842369547505,1442.0673398513,3.41865890278017,69.6554227995109
0.55,40.65,-47.3227691241279,-0.308107580176958,1443.93510832921,3.42289860973834,69.6555144408526
0.55,40.7,-47.4186324276544,-0.308377005330025,1445.8030367646,3.42713865284582,69.6556018078023
0.55,40.75,-47.5174225446522,-0.308650817931211,1447.67112497477,3.4313790319886,69.6556849095287
0.55,40.8,-47.6191669220276,-0.30892920819604,1449.53937277758,3.43561974704405,69.6557637553167
0.55,40.85,-47.7238941318517,-0.309212384191328,1451.40777999142,3.43986079788082,69.655838354567
0.55,40.9,-47.8316337115588,-0.30950057236441,1453.27634643526,3.44410218435864,69.6559087167945
0.55,40.95,-47.9424159795275,-0.309794018040368,1455.14507192859,3.44834390632815,69.6559748516275
0.55,41,-48.0562718224899,-0.310092985886548,1457.01395629147,3.45258596363079,69.6560367688065
0.6,37,-48.9202368891807,-0.285274305848531,1315.51604200751,3.17336030722978,66.9286012327967
0.6,37.05,-48.8352829572913,-0.285479425099671,1317.37957058431,3.17762010679499,66.9286465728649
0.6,37.1,-48.7542821327715,-0.285681256475397,1319.24326633428,3.18188025593688,66.9286870630783
0.6,37.15,-48.6772565433053,-0.285880420969324,1321.10712907193,3.18614075460203,66.9287227174758
0.6,37.2,-48.6042185259819,-0.286077506202315,1322.97115861196,3.1904016027426,66.9287535502248
0.6,37.25,-48.5351713218113,-0.286273066773288,1324.83535476934,3.194662800316,66.9287795756198
0.6,37.3,-48.4701097799754,-0.286467624653069,1326.69971735927,3.19892434728465,66.9288008080808
0.6,37.35,-48.4090210673015,-0.286661669620358,1328.56424619722,3.20318624361569,66.9288172621515
0.6,37.4,-48.3518853785418,-0.286855659738658,1330.4289410989,3.20744848928069,66.9288289524981
0.6,37.45,-48.2986766431924,-0.287050021873103,1332.29380188026,3.21171108425536,66.9288358939073
0.6,37.5,-48.2493632247823,-0.287245152246036,1334.15882835753,3.21597402851933,66.9288381012851
0.6,37.55,-48.2039086088131,-0.287441417030158,1336.02402034721,3.22023732205583,66.9288355896545
0.6,37.6,-48.1622720758248,-0.287639152978068,1337.88937766604,3.22450096485143,66.9288283741549
0.6,37.65,-48.1244093563956,-0.287838668086966,1339.75490013105,3.22876495689578,66.9288164700395
0.6,37.7,-48.0902732652495,-0.288040242297309,1341.62058755954,3.23302929818133,66.9287998926743
0.6,37.75,-48.0598143120327,-0.288244128224126,1343.4864397691,3.23729398870308,66.9287786575365
0.6,37.8,-48.0329812867251,-0.288450551919754,1345.35245657757,3.2415590284583,66.9287527802125
0.6,37.85,-48.0097218180591,-0.288659713666714,1347.21863780312,3.24582441744626,66.9287222763967
0.6,37.9,-47.9899829037251,-0.288871788799402,1349.08498326415,3.25009015566801,66.9286871618895
0.6,37.95,-47.9737114115375,-0.289086928553336,1350.95149277941,3.25435624312607,66.9286474525962
0.6,38,-47.9608545511157,-0.289305260940643,1352.81816616791,3.25862267982419,66.9286031645249
0.6,38.05,-47.9513603159875,-0.289526891650436,1354.68500324896,3.26288946576711,66.9285543137853
0.6,38.1,-47.945177896354,-0.289751904972812,1356.55200384219,3.2671566009603,66.9285009165869
0.6,38.15,-47.9422580630519,-0.289980364745139,1358.41916776752,3.27142408540967,66.9284429892374
0.6,38.2,-47.9425535235173,-0.290212315319309,1360.28649484517,3.27569191912136,66.928380548141
0.6,38.25,-47.9460192507847,-0.290447782548623,1362.15398489569,3.2799601021015,66.9283136097972
0.6,38.3,-47.952612786759,-0.290686774793046,1364.02163773994,3.2842286343559,66.9282421907989
0.6,38.35,-47.9622945211586,-0.290929283941471,1365.88945319908,3.28849751588986,66.9281663078307
0.6,38.4,-47.9750279476683,-0.291175286449701,1367.75743109461,3.29276674670791,66.9280859776678
0.6,38.45,-47.9907798989415,-0.291424744392824,1369.62557124835,3.29703632681355,66.9280012171738
0.6,38.5,-48.0095207621709,-0.291677606530744,1371.49387348244,3.30130625620901,66.9279120432995
0.6,38.55,-48.0312246770019,-0.291933809385497,1373.36233761935,3.30557653489506,66.9278184730816
0.6,38.6,-48.0558697175918,-0.292193278329112,1375.23096348188,3.30984716287067,66.9277205236402
0.6,38.65,-48.083438060635,-0.292455928680724,1377.09975089318,3.31411814013288,66.9276182121785
0.6,38.7,-48.1139161411693,-0.292721666811645,1378.96869967673,3.31838946667649,66.9275115559799
0.6,38.75,-48.1472947979665,-0.292990391257169,1380.83780965633,3.32266114249385,66.9274005724075
0.6,38.8,-48.1835694102866,-0.2932619938338,1382.70708065615,3.32693316757464,66.9272852789022
0.6,38.85,-48.2227400277414,-0.293536360760651,1384.5765125007,3.33120554190561,66.9271656929808
0.6,38.9,-48.2648114949844,-0.29381337378381,1386.44610501484,3.33547826547036,66.9270418322349
0.6,38.95,-48.3097935729022,-0.294092911302372,1388.31585802378,3.33975133824915,66.9269137143293
