"W_line [mm]","Freq [GHz]","dB(S(1,1)) []","dB(S(2,1)) []","im(Gamma(1)) []","re(Gamma(1)) []","re(Zo(1)) []"
0.5,37,-11.5164688894662,-3.18563846612245,1461.9130981017,3.49924614281008,91.5067361817513
0.5,37.05,-11.5570352855135,-3.15034670170462,1463.90629970115,3.50369213406038,91.5150476157138
0.5,37.1,-11.6435491582276,-3.07842073404466,1465.89951867205,3.50813777493293,91.523349691561
0.5,37.15,-11.7765614080468,-2.97333270005488,1467.89275493081,3.51258306582626,91.5316424088707
0.5,37.2,-11.9550680393816,-2.84119765035832,1469.88600839418,3.51702800713985,91.5399257673258
0.5,37.25,-12.176611606932,-2.68970333919339,1471.87927897923,3.5214725992741,91.5481997667137
0.5,37.3,-12.4375253198367,-2.52689491618658,1473.87256660339,3.52591684263029,91.5564644069255
0.5,37.35,-12.7332703049819,-2.36015149411472,1475.86587118439,3.53036073761062,91.5647196879552
0.5,37.4,-13.0588050977558,-2.19554059352854,1477.85919264029,3.53480428461814,91.572965609899
0.5,37.45,-13.4089321675443,-2.03756658960494,1479.85253088951,3.53924748405676,91.5812021729546
0.5,37.5,-13.7785834923058,-1.88922015168534,1481.84588585076,3.54369033633124,91.58942937742
0.5,37.55,-14.1630277523855,-1.75220255316761,1483.8392574431,3.54813284184715,91.5976472236935
0.5,37.6,-14.5579991187065,-1.62721647015651,1485.8326455859,3.55257500101089,91.6058557122724
0.5,37.65,-14.9597587899016,-1.51425165139663,1487.82605019887,3.55701681422965,91.6140548437523
0.5,37.7,-15.3651053559438,-1.41282870044517,1489.81947120202,3.56145828191141,91.6222446188266
0.5,37.75,-15.7713503647949,-1.32218888821865,1491.81290851571,3.5658994044649,91.6304250382855
0.5,37.8,-16.1762731452416,-1.24143203768953,1493.80636206061,3.57034018229963,91.6385961030157
0.5,37.85,-16.5780656212339,-1.16961084262224,1495.7998317577,3.57478061582585,91.6467578139992
0.5,37.9,-16.9752745687773,-1.10579158341561,1497.79331752828,3.57922070545452,91.6549101723125
0.5,37.95,-17.3667460166175,-1.04909043181619,1499.78681929399,3.58366045159735,91.6630531791265
0.5,38,-17.7515744231881,-0.998692856437803,1501.78033697676,3.58809985466672,91.6711868357054
0.5,38.05,-18.1290578295753,-0.953861833603194,1503.77387049885,3.59253891507572,91.6793111434058
0.5,38.1,-18.4986592686235,-0.913938980051257,1505.76741978284,3.59697763323812,91.6874261036764
0.5,38.15,-18.8599741678525,-0.878341463088703,1507.76098475161,3.60141600956835,91.6955317180569
0.5,38.2,-19.2127031998678,-0.846556602609973,1509.75456532837,3.60585404448149,91.7036279881777
0.5,38.25,-19.5566299164161,-0.818135406373578,1511.74816143661,3.61029173839328,91.711714915759
0.5,38.3,-19.8916024851939,-0.79268581401826,1513.74177300017,3.61472909172007,91.71979250261
0.5,38.35,-20.2175188873549,-0.769866111426476,1515.73539994318,3.61916610487884,91.7278607506282
0.5,38.4,-20.5343149996992,-0.749378770860027,1517.72904219007,3.62360277828718,91.7359196617993
0.5,38.45,-20.8419550612701,-0.730964840382626,1519.7226996656,3.62803911236327,91.7439692381956
0.5,38.5,-21.1404240994816,-0.714398924287523,1521.71637229483,3.63247510752587,91.752009481976
0.5,38.55,-21.4297219606673,-0.699484747604065,1523.71006000311,3.63691076419432,91.760040395385
0.5,38.6,-21.7098586517321,-0.686051270617173,1525.70376271612,3.64134608278852,91.7680619807524
0.5,38.65,-21.9808507527492,-0.673949305840142,1527.69748035981,3.64578106372891,91.7760742404921
0.5,38.7,-22.2427187051733,-0.663048584814142,1529.69121286048,3.65021570743649,91.7840771771017
0.5,38.75,-22.495484817585,-0.653235222053741,1531.68496014468,3.65465001433278,91.7920707931622
0.5,38.8,-22.73917186147,-0.644409526217854,1533.6787221393,3.65908398483982,91.8000550913365
0.5,38.85,-22.9738021544135,-0.636484112772418,1535.67249877151,3.66351761938013,91.8080300743698
0.5,38.9,-23.1993970481492,-0.629382277168583,1537.66628996879,3.66795091837677,91.8159957450879
0.5,38.95,-23.4159767549148,-0.62303659237955,1539.66009565891,3.67238388225327,91.8239521063975
0.5,39,-23.6235604582256,-0.617387699232295,1541.65391576994,3.67681651143361,91.8318991612847
0.5,39.05,-23.8221666640403,-0.612383262189851,1543.64775023024,3.68124880634227,91.8398369128151
0.5,39.1,-24.0118137558509,-0.607977067023614,1545.64159896847,3.68568076740417,91.8477653641329
0.5,39.15,-24.1925207228706,-0.60412824015292,1547.63546191359,3.69011239504466,91.8556845184598
0.5,39.2,-24.3643080345651,-0.600800572339659,1549.62933899484,3.69454368968956,91.8635943790953
0.5,39.25,-24.5271986375464,-0.597961931942636,1551.62323014176,3.69897465176508,91.8714949494153
0.5,39.3,-24.6812190525837,-0.595583755100048,1553.61713528418,3.70340528169784,91.8793862328717
0.5,39.35,-24.8264005503875,-0.593640602060799,1555.61105435221,3.7078355799149,91.8872682329921
0.5,39.4,-24.9627803850958,-0.592109770466078,1557.60498727627,3.71226554684368,91.8951409533786
0.5,39.45,-25.0904030642119,-0.590970957729226,1559.59893398705,3.71669518291199,91.9030043977079
0.5,39.5,-25.2093216332855,-0.590205965807284,1561.59289441553,3.72112448854802,91.91085856973
0.5,39.55,-25.3195989530475,-0.589798442631384,1563.58686849298,3.7255534641803,91.9187034732681
0.5,39.6,-25.4213089461596,-0.589733655290683,1565.58085615094,3.72998211023775,91.9265391122177
0.5,39.65,-25.5145377903565,-0.589998290767917,1567.57485732127,3.7344104271496,91.9343654905463
0.5,39.7,-25.5993850346668,-0.590580280622816,1569.56887193607,3.73883841534541,91.9421826122924
0.5,39.75,-25.6759646156997,-0.591468646528534,1571.56289992775,3.74326607525509,91.9499904815652
0.5,39.8,-25.7444057517646,-0.592653363999584,1573.55694122898,3.74769340730884,91.9577891025442
0.5,39.85,-25.8048536938964,-0.594125242019249,1575.55099577274,3.75212041193716,91.9655784794782
0.5,39.9,-25.8574703147245,-0.595875816589568,1577.54506349226,3.75654708957084,91.9733586166847
0.5,39.95,-25.902434518533,-0.597897256496302,1579.53914432106,3.76097344064098,91.9811295185499
0.5,40,-25.9399424587826,-0.600182279811601,1581.53323819293,3.7653994655789,91.9888911895276
0.5,40.05,-25.9702075527266,-0.602724079854319,1583.52734504195,3.76982516481622,91.9966436341387
0.5,40.1,-25.9934602864683,-0.605516259497036,1585.52146480246,3.7742505387848,92.0043868569709
0.5,40.15,-26.0099478077558,-0.608552772854124,1587.51559740909,3.77867558791674,92.0121208626779
0.5,40.2,-26.0199333078712,-0.611827873509988,1589.50974279673,3.78310031264435,92.0198456559787
0.5,40.25,-26.0236951980109,-0.615336068554172,1591.50390090054,3.7875247134002,92.0275612416577
0.5,40.3,-26.0215260894426,-0.619072077782605,1593.49807165596,3.79194879061702,92.0352676245632
0.5,40.35,-26.0137315903492,-0.623030797504394,1595.49225499869,3.79637254472778,92.0429648096077
0.5,40.4,-26.0006289355208,-0.627207268462465,1597.48645086472,3.8007959761656,92.050652801767
0.5,40.45,-25.9825454678607,-0.631596647436474,1599.48065919029,3.80521908536383,92.0583316060794
0.5,40.5,-25.9598169929661,-0.636194182147962,1601.4748799119,3.80964187275592,92.0660012276456
0.5,40.55,-25.9327860298006,-0.640995189132871,1603.46911296635,3.81406433877553,92.0736616716282
0.5,40.6,-25.9017999816886,-0.645995034285552,1605.46335829066,3.81848648385645,92.0813129432505
0.5,40.65,-25.8672092525351,-0.651189115812276,1607.45761582215,3.82290830843259,92.0889550477968
0.5,40.7,-25.8293653333487,-0.656572849361906,1609.45188549839,3.82732981293799,92.0965879906114
0.5,40.75,-25.788618883857,-0.662141655127074,1611.44616725722,3.83175099780682,92.1042117770981
0.5,40.8,-25.7453178333019,-0.667890946731703,1613.44046103672,3.83617186347333,92.11182641272
0.5,40.85,-25.6998055234454,-0.673816121740311,1615.43476677526,3.84059241037188,92.1194319029983
0.5,40.9,-25.6524189154508,-0.679912553641687,1617.42908441144,3.8450126389369,92.1270282535128
0.5,40.95,-25.6034868806873,-0.686175585174548,1619.42341388415,3.84943254960288,92.1346154699003
0.5,41,-25.5533285936685,-0.692600522875848,1621.41775513252,3.8538521428044,92.142193557855
0.55,37,-12.4266793028956,-2.63423370699543,1461.43825760779,3.46210880386245,89.8818753587259
0.55,37.05,-12.7589070881717,-2.44251731400783,1463.43271127694,3.46651953712723,89.8901140765747
0.55,37.1,-13.1435687886969,-2.24465376756417,1465.42718015931,3.4709299145788,89.8983420363904
0.55,37.15,-13.5690307816256,-2.05198083153507,1467.42166416924,3.475339936745,89.9065592435472
0.55,37.2,-14.0243002919593,-1.87182761623534,1469.41616322144,3.47974960415406,89.9147657035168
0.55,37.25,-14.4996675502036,-1.70805072345996,1471.41067723105,3.48415891733462,89.9229614218673
0.55,37.3,-14.9869874408378,-1.56197173476667,1473.40520611358,3.48856787681567,89.9311464042619
0.55,37.35,-15.4797001649097,-1.43329225482154,1475.39974978493,3.49297648312656,89.9393206564585
0.55,37.4,-15.9726965067263,-1.32080902359469,1477.3943081614,3.49738473679696,89.9474841843087
0.55,37.45,-16.4621113229913,-1.2229034390638,1479.38888115966,3.50179263835689,89.9556369937567
0.55,37.5,-16.9451002929591,-1.13784474790676,1481.38346869679,3.50620018833664,89.963779090839
0.55,37.55,-17.4196306802063,-1.06396057963511,1483.37807069023,3.51060738726682,89.9719104816829
0.55,37.6,-17.8842999897368,-0.999721519780594,1485.37268705781,3.5150142356783,89.9800311725061
0.55,37.65,-18.3381862468985,-0.943773904646989,1487.36731771775,3.51942073410223,89.9881411696157
0.55,37.7,-18.7807282897426,-0.894943562390418,1489.36196258864,3.52382688306998,89.9962404794074
0.55,37.75,-19.2116321515031,-0.852224650212791,1491.35662158945,3.52823268311319,90.0043291083647
0.55,37.8,-19.6307989885925,-0.81476194070297,1493.35129463952,3.53263813476369,90.0124070630579
0.55,37.85,-20.0382702320633,-0.781831231940546,1495.34598165859,3.53704323855354,90.0204743501435
0.55,37.9,-20.4341862130926,-0.752820326679535,1497.34068256674,3.54144799501498,90.0285309763634
0.55,37.95,-20.8187551731663,-0.727211727197303,1499.33539728443,3.54585240468044,90.0365769485439
0.55,38,-21.1922301916921,-0.704567466317978,1501.33012573252,3.55025646808252,90.0446122735951
0.55,38.05,-21.5548920973043,-0.684516110036077,1503.3248678322,3.55466018575396,90.0526369585099
0.55,38.1,-21.9070368612987,-0.666741779152743,1505.31962350504,3.55906355822768,90.0606510103633
0.55,38.15,-22.2489663055454,-0.650974959572454,1507.31439267299,3.56346658603668,90.0686544363118
0.55,38.2,-22.5809811989044,-0.636984852264797,1509.30917525835,3.56786926971413,90.0766472435924
0.55,38.25,-22.9033759647312,-0.624573024953316,1511.30397118378,3.57227160979329,90.0846294395217
0.55,38.3,-23.2164342568636,-0.613568151860013,1513.29878037231,3.5766736068075,90.0926010314955
0.55,38.35,-23.5204245151737,-0.603821656381214,1515.29360274733,3.5810752612902,90.100562026988
0.55,38.4,-23.8155941012679,-0.595204099814769,1517.28843823259,3.58547657377491,90.1085124335504
0.55,38.45,-24.1021592476317,-0.587602185057256,1519.28328675217,3.58987754479519,90.1164522588112
0.55,38.5,-24.3802844398606,-0.580916266735465,1521.27814823055,3.59427817488469,90.1243815104744
0.55,38.55,-24.6500347770017,-0.575058278416772,1523.27302259253,3.59867846457706,90.1323001963195
0.55,38.6,-24.9112543992455,-0.569950003584212,1525.26790976328,3.60307841440599,90.1402083242006
0.55,38.65,-25.163223314673,-0.565521630330186,1527.26280966831,3.60747802490521,90.1481059020453
0.55,38.7,-25.4035910265243,-0.561710540618606,1529.25772223348,3.61187729660843,90.1559929378543
0.55,38.75,-25.6250642632779,-0.558460293872878,1531.25264738501,3.61627623004937,90.1638694397008
0.55,38.8,-25.8119414085951,-0.555719771910309,1533.24758504946,3.62067482576174,90.1717354157295
0.55,38.85,-25.9930887371466,-0.55344245815818,1535.24253515372,3.62507308427923,90.1795908741558
0.55,38.9,-26.235397604887,-0.551585828902114,1537.23749762505,3.62947100613548,90.1874358232655
0.55,38.95,-26.4780022627622,-0.550110838239563,1539.23247239104,3.6338685918641,90.1952702714138
0.55,39,-26.7008262535354,-0.548981481609262,1541.22745937962,3.63826584199864,90.2030942270246
0.55,39.05,-26.9091051335479,-0.548164425378956,1543.22245851905,3.6426627570726,90.2109076985899
0.55,39.1,-27.1066835105825,-0.547628692109794,1545.21746973795,3.64705933761939,90.2187106946691
0.55,39.15,-27.2954337123391,-0.547345392866961,1547.21249296526,3.65145558417235,90.2265032238883
0.55,39.2,-27.4762744821802,-0.547287499384593,1549.20752813026,3.65585149726471,90.2342852949395
0.55,39.25,-27.6496747491946,-0.547429650077643,1551.20257516256,3.66024707742963,90.2420569165801
0.55,39.3,-27.8158735140943,-0.547747984871459,1553.1976339921,3.66464232520012,90.2498180976323
0.55,39.35,-27.9749794193417,-0.548220004629211,1555.19270454918,3.66903724110908,90.2575688469819
0.55,39.4,-28.1270186445885,-0.548824451629168,1557.18778676438,3.67343182568931,90.2653091735785
0.55,39.45,-28.2719593643428,-0.549541208102842,1559.18288056864,3.67782607947344,90.2730390864339
0.55,39.5,-28.409724974265,-0.550351210311493,1561.17798589323,3.68222000299394,90.2807585946223
0.55,39.55,-28.5402017081278,-0.551236376028872,1563.17310266974,3.68661359678315,90.2884677072791
0.55,39.6,-28.6632434116911,-0.552179543625632,1565.16823083006,3.69100686137323,90.2961664336003
0.55,39.65,-28.7786749310813,-0.553164421226504,1567.16337030644,3.69539979729616,90.303854782842
0.55,39.7,-28.8862949423181,-0.554175544643995,1569.15852103142,3.69979240508373,90.31153276432
0.55,39.75,-28.985878729621,-0.555198242989325,1571.15368293788,3.70418468526756,90.3192003874085
0.55,39.8,-29.0771812503718,-0.55621861102847,1573.14885595902,3.70857663837903,90.3268576615401
0.55,39.85,-29.1599407276499,-0.557223487493599,1575.14404002834,3.71296826494933,90.334504596205
0.55,39.9,-29.2338829490833,-0.558200438681713,1577.13923507967,3.71735956550941,90.3421412009501
0.55,39.95,-29.2987264033578,-0.55913774677656,1579.13444104714,3.72175054059002,90.3497674853788
0.55,40,-29.3541883420148,-0.560024402419288,1581.12965786521,3.72614119072162,90.35738345915
0.55,40.05,-29.3999918078584,-0.560850101130649,1583.12488546864,3.73053151643447,90.3649891319779
0.55,40.1,-29.4358736190529,-0.561605243254145,1585.12012379251,3.73492151825854,90.3725845136312
0.55,40.15,-29.461593238632,-0.562280937147568,1587.11537277219,3.73931119672354,90.380169613932
0.55,40.2,-29.476942393345,-0.56286900540076,1589.11063234339,3.74370055235891,90.3877444427564
0.55,40.25,-29.4817552359081,-0.563361993901427,1591.10590244209,3.74808958569379,90.3953090100327
0.55,40.3,-29.4759187748019,-0.563753183609538,1593.1011830046,3.75247829725705,90.4028633257414
0.55,40.35,-29.4593832310263,-0.56403660493467,1595.09647396752,3.75686668757723,90.4104073999147
0.55,40.4,-29.4321719278433,-0.564207054640618,1597.09177526777,3.76125475718257,90.4179412426355
0.55,40.45,-29.3943902837887,-0.564260115228014,1599.08708684255,3.76564250660099,90.4254648640372
0.55,40.5,-29.3462334667623,-0.564192176769136,1601.08240862937,3.77002993636007,90.4329782743029
0.55,40.55,-29.2879922818933,-0.564000461189826,1603.07774056603,3.77441704698707,90.4404814836651
0.55,40.6,-29.2200569098896,-0.563683049011897,1605.07308259065,3.77880383900887,90.4479745024048
0.55,40.65,-29.1429181846713,-0.56323890858577,1607.06843464162,3.78319031295202,90.4554573408512
0.55,40.7,-29.057166195268,-0.562667927857539,1609.06379665764,3.7875764693427,90.462930009381
0.55,40.75,-28.9634861107341,-0.561970948727313,1611.05916857769,3.7919623087067,90.4703925184178
0.55,40.8,-28.8626512498878,-0.561149804066926,1613.05455034106,3.79634783156944,90.4778448784319
0.55,40.85,-28.7555135410639,-0.560207357474465,1615.04994188732,3.80073303845594,90.4852870999392
0.55,40.9,-28.642991632216,-0.559147545851179,1617.04534315632,3.80511792989081,90.4927191935012
0.55,40.95,-28.5260570114923,-0.557975424892735,1619.04075408822,3.80950250639827,90.5001411697241
0.55,41,-28.4057185777418,-0.556697217591716,1621.03617462345,3.81388676850209,90.5075530392584
0.6,37,-15.161080045011,-1.58737437767629,1461.21380712303,3.40690702371401,88.9869396928412
0.6,37.05,-15.7000622199042,-1.44945353577984,1463.20927242276,3.41127047151332,88.9949653364439
0.6,37.1,-16.2482817556317,-1.32230482946795,1465.20475025465,3.4156335767744,89.0029788414682
0.6,37.15,-16.7976158523584,-1.20861617884554,1467.20024053599,3.41999634010025,89.0109802201512
0.6,37.2,-17.3423358114343,-1.10916197501559,1469.19574318448,3.4243587620941,89.0189694848091
0.6,37.25,-17.8785720898145,-1.02343129864013,1471.19125811827,3.42872084335935,89.0269466478366
0.6,37.3,-18.4038425075711,-0.950195787797149,1473.18678525591,3.43308258449955,89.0349117217057
0.6,37.35,-18.9166700708929,-0.887926200231522,1475.1823245164,3.43744398611835,89.042864718965
0.6,37.4,-19.4162885894464,-0.835055425380752,1477.17787581914,3.44180504881947,89.0508056522388
0.6,37.45,-19.9024229638426,-0.790122318164748,1479.17343908397,3.44616577320665,89.058734534226
0.6,37.5,-20.3751285036748,-0.75183605936023,1481.16901423112,3.45052615988364,89.0666513776995
0.6,37.55,-20.834674962664,-0.719093232630607,1483.16460118127,3.45488620945413,89.074556195505
0.6,37.6,-21.2814635638351,-0.690969768449443,1485.16019985549,3.45924592252177,89.0824490005606
0.6,37.65,-21.7159679545178,-0.666701471514218,1487.15581017525,3.46360529969008,89.0903298058554
0.6,37.7,-22.1386923299623,-0.645660927605255,1489.15143206247,3.46796434156247,89.0981986244489
0.6,37.75,-22.5501417899145,-0.62733483715404,1491.14706543945,3.47232304874216,89.1060554694702
0.6,37.8,-22.9508013796896,-0.611303618960997,1493.14271022889,3.47668142183222,89.1139003541171
0.6,37.85,-23.3411212956159,-0.597223914731609,1495.13836635392,3.48103946143545,89.1217332916551
0.6,37.9,-23.7215064868044,-0.584814006215404,1497.13403373805,3.48539716815445,89.1295542954168
0.6,37.95,-24.0923094316424,-0.573841874962718,1499.12971230519,3.48975454259153,89.1373633788008
0.6,38,-24.4538252634645,-0.564115534426183,1501.12540197967,3.49411158534869,89.1451605552713
0.6,38.05,-24.8062887065568,-0.555475255361042,1503.12110268619,3.49846829702764,89.1529458383568
0.6,38.1,-25.1498724903997,-0.547787338329298,1505.11681434987,3.50282467822973,89.1607192416496
0.6,38.15,-25.484687057277,-0.540939135122223,1507.1125368962,3.50718072955595,89.1684807788048
0.6,38.2,-25.810781479843,-0.534835070845636,1509.10827025108,3.5115364516069,89.1762304635397
0.6,38.25,-26.1281455699599,-0.529393464248247,1511.10401434078,3.51589184498277,89.1839683096326
0.6,38.3,-26.4367131939069,-0.524543983393204,1513.09976909197,3.52024691028334,89.1916943309228
0.6,38.35,-26.7363668157782,-0.52022560664284,1515.0955344317,3.52460164810794,89.1994085413088
0.6,38.4,-27.0269432735619,-0.516384985669297,1517.09131028741,3.52895605905542,89.2071109547483
0.6,38.45,-27.3082407540684,-0.512975128660445,1519.08709658691,3.53331014372418,89.214801585257
0.6,38.5,-27.5800268773905,-0.509954338956156,1521.08289325841,3.53766390271211,89.2224804469082
0.6,38.55,-27.8420477340297,-0.507285357850249,1523.07870023047,3.54201733661659,89.2301475538315
0.6,38.6,-28.0940376447628,-0.504934670941174,1525.07451743206,3.54637044603448,89.2378029202126
0.6,38.65,-28.3357293426328,-0.502871945800992,1527.07034479248,3.5507232315621,89.2454465602922
0.6,38.7,-28.5668642167344,-0.501069575336665,1529.06618224144,3.55507569379523,89.2530784883654
0.6,38.75,-28.7872022172049,-0.499502306422288,1531.06202970902,3.55942783332906,89.2606987187808
0.6,38.8,-28.9965310072003,-0.498146937488031,1533.05788712564,3.56377965075824,89.2683072659399
0.6,38.85,-29.1946739653152,-0.496982071998533,1535.05375442211,3.56813114667682,89.2759041442963
0.6,38.9,-29.3814966921399,-0.495987917325723,1537.0496315296,3.57248232167824,89.2834893683553
0.6,38.95,-29.5569117546781,-0.495146120564089,1539.04551837964,3.57683317635538,89.2910629526724
