"W_line [mm]","Freq [GHz]","dB(S(1,1)) []","dB(S(2,1)) []","im(Gamma(1)) []","re(Gamma(1)) []","re(Zo(1)) []"
0.5,57,-29.8313003986246,-0.549286385332625,2271.13833663309,5.35315912524867,78.1791439085414
0.5,57.05,-29.6350683769408,-0.55509047278959,2273.13789699858,5.35751997999248,78.1808849378327
0.5,57.1,-29.4360374463368,-0.561746977486614,2275.13745852897,5.36188062248012,78.1826211844087
0.5,57.15,-29.2354884883873,-0.569313270210206,2277.13702121781,5.36624105296309,78.1843526562888
0.5,57.2,-29.0350416158441,-0.577839106659971,2279.13658505873,5.3706012716924,78.1860793614825
0.5,57.25,-28.8367147942251,-0.587359874773038,2281.13615004534,5.37496127891852,78.1878013079899
0.5,57.3,-28.6429790766216,-0.597887508519578,2283.13571617133,5.37932107489142,78.1895185038014
0.5,57.35,-28.4568006102487,-0.609398916156475,2285.13528343041,5.38368065986058,78.1912309568977
0.5,57.4,-28.2816543220068,-0.621822224978555,2287.1348518163,5.38804003407492,78.1929386752499
0.5,57.45,-28.1214881870086,-0.635021937841763,2289.13442132278,5.39239919778291,78.1946416668193
0.5,57.5,-27.9806115915033,-0.648785260621893,2291.13399194365,5.39675815123247,78.1963399395577
0.5,57.55,-27.8634791210785,-0.662813259905337,2293.13356367276,5.40111689467103,78.198033501407
0.5,57.6,-27.7743459377851,-0.676721719704652,2295.13313650396,5.4054754283455,78.1997223602995
0.5,57.65,-27.7167867805838,-0.690056809065298,2297.13271043116,5.4098337525023,78.2014065241576
0.5,57.7,-27.6930994741393,-0.702329002736905,2299.13228544829,5.41419186738733,78.2030860008942
0.5,57.75,-27.7036524017488,-0.713064547017599,2301.13186154931,5.41854977324599,78.2047607984122
0.5,57.8,-27.7462733714252,-0.721867733373144,2303.13143872822,5.4229074703232,78.2064309246048
0.5,57.85,-27.8157996158935,-0.728481543853704,2305.13101697906,5.42726495886334,78.2080963873555
0.5,57.9,-27.9039028242137,-0.732831996770307,2307.13059629587,5.43162223911031,78.2097571945378
0.5,57.95,-27.9992673379605,-0.735044890726765,2309.13017667275,5.43597931130752,78.2114133540156
0.5,58,-28.0881445079098,-0.735431893368603,2311.12975810383,5.44033617569786,78.2130648736429
0.5,58.05,-28.1552465391763,-0.7344524220315,2313.12934058325,5.44469283252373,78.2147117612637
0.5,58.1,-28.1848874747227,-0.73266422372369,2315.1289241052,5.44904928202703,78.2163540247124
0.5,58.15,-28.1622280497839,-0.730676746326663,2317.1285086639,5.45340552444918,78.2179916718134
0.5,58.2,-28.0744388657504,-0.729118116038766,2319.12809425358,5.45776156003109,78.2196247103812
0.5,58.25,-27.9115805313522,-0.728621481222715,2321.12768086854,5.46211738901316,78.2212531482206
0.5,58.3,-27.667035722128,-0.729832268985807,2323.12726850307,5.46647301163534,78.2228769931263
0.5,58.35,-27.3374254991649,-0.73343592551258,2325.12685715151,5.47082842813704,78.2244962528831
0.5,58.4,-26.9220734938331,-0.740206147206883,2327.12644680823,5.47518363875722,78.2261109352661
0.5,58.45,-26.4221940676356,-0.751076005876232,2329.12603746763,5.47953864373433,78.2277210480403
0.5,58.5,-25.8400329454143,-0.767238184244642,2331.12562912414,5.48389344330633,78.2293265989607
0.5,58.55,-25.1781805755396,-0.790285185162389,2333.12522177221,5.4882480377107,78.2309275957725
0.5,58.6,-24.4392483992483,-0.822404422751189,2335.12481540633,5.49260242718443,78.2325240462109
0.5,58.65,-23.6261018107214,-0.866641470640671,2337.12441002101,5.49695661196402,78.2341159580014
0.5,58.7,-22.742934440378,-0.927220594968691,2339.12400561081,5.50131059228551,78.2357033388591
0.5,58.75,-21.7976899025556,-1.00981440171888,2341.12360217029,5.50566436838444,78.2372861964895
0.5,58.8,-20.8066864563229,-1.12134871977678,2343.12319969407,5.51001794049585,78.2388645385879
0.5,58.85,-19.8025374096081,-1.26813159384602,2345.12279817678,5.51437130885399,78.2404383728397
0.5,58.9,-18.8454953774579,-1.44961573817646,2347.12239761308,5.51872447368232,78.2420077069201
0.5,58.95,-18.0332992919068,-1.64487151099619,2349.12199799762,5.52307743523622,78.2435725484947
0.5,59,-17.493196560706,-1.79890826487509,2351.12159932519,5.52743019374412,78.2451329052187
0.5,59.05,-17.3355536576155,-1.84093689211457,2353.12120159051,5.53178274942793,78.2466887847374
0.5,59.1,-17.5864364449971,-1.74776687211888,2355.12080478835,5.5361351025235,78.2482401946863
0.5,59.15,-18.1688748908636,-1.56982946467234,2357.12040891352,5.5404872532631,78.2497871426905
0.5,59.2,-18.9567089060262,-1.37588340244501,2359.12001396085,5.54483920187813,78.2513296363654
0.5,59.25,-19.8372021977371,-1.20551092646281,2361.11961992521,5.5491909485994,78.2528676833162
0.5,59.3,-20.7354454940709,-1.0693800613014,2363.11922680148,5.5535424936572,78.254401291138
0.5,59.35,-21.6101089204748,-0.964590496904772,2365.11883458457,5.55789383728136,78.255930467416
0.5,59.4,-22.4417387333105,-0.884656687452783,2367.11844326945,5.56224497970121,78.2574552197252
0.5,59.45,-23.2231969225144,-0.82341266403903,2369.11805285106,5.56659592114562,78.2589755556306
0.5,59.5,-23.9536926820679,-0.775991810842536,2371.11766332442,5.57094666184298,78.2604914826873
0.5,59.55,-24.6354505389478,-0.738796964664167,2373.11727468456,5.57529720202123,78.2620030084399
0.5,59.6,-25.2719530832144,-0.709227954548874,2375.11688692652,5.57964754190782,78.2635101404234
0.5,59.65,-25.867049999123,-0.685411465642813,2377.11650004539,5.58399768172974,78.2650128861625
0.5,59.7,-26.4245263326921,-0.665990127941224,2379.11611403627,5.58834762171352,78.2665112531717
0.5,59.75,-26.9479092620461,-0.649970527015319,2381.11572889431,5.59269736208523,78.2680052489557
0.5,59.8,-27.4403964692708,-0.636616898531393,2383.11534461465,5.59704690307047,78.2694948810089
0.5,59.85,-27.9048448049888,-0.625377407346194,2385.1149611925,5.60139624489437,78.2709801568157
0.5,59.9,-28.3437872873268,-0.615832935181656,2387.11457862306,5.60574538778161,78.2724610838502
0.5,59.95,-28.7594619262071,-0.60766125727567,2389.11419690157,5.61009433195642,78.2739376695768
0.5,60,-29.1538440012726,-0.600611742965895,2391.11381602331,5.61444307764254,78.2754099214495
0.5,60.05,-29.5286777072956,-0.594487294332166,2393.11343598356,5.61879162506329,78.2768778469122
0.5,60.1,-29.8855053277277,-0.589131305784599,2395.11305677765,5.6231399744415,78.2783414533988
0.5,60.15,-30.2256932596896,-0.584418141674666,2397.11267840092,5.62748812599956,78.2798007483331
0.5,60.2,-30.5504547984015,-0.580246105299766,2399.11230084874,5.63183607995941,78.2812557391286
0.5,60.25,-30.8608698663214,-0.576532191490392,2401.11192411651,5.63618383654253,78.282706433189
0.5,60.3,-31.1579019875712,-0.573208129844307,2403.11154819964,5.64053139596994,78.2841528379076
0.5,60.35,-31.4424128400497,-0.570217371741211,2405.1111730936,5.64487875846222,78.2855949606678
0.5,60.4,-31.7151747083086,-0.567512774512472,2407.11079879384,5.64922592423949,78.2870328088427
0.5,60.45,-31.9768811324336,-0.565054805615596,2409.11042529588,5.65357289352142,78.2884663897954
0.5,60.5,-32.2281560137704,-0.562810138298344,2411.11005259522,5.65791966652723,78.2898957108789
0.5,60.55,-32.4695614034146,-0.560750544622036,2413.10968068743,5.66226624347572,78.2913207794359
0.5,60.6,-32.7016041668467,-0.558852016260306,2415.10930956807,5.66661262458519,78.2927416027993
0.5,60.65,-32.9247416891059,-0.557094061178494,2417.10893923275,5.67095881007353,78.2941581882915
0.5,60.7,-33.1393867597667,-0.555459137162403,2419.10856967707,5.67530480015818,78.2955705432251
0.5,60.75,-33.3459117555638,-0.55393219260195,2421.1082008967,5.67965059505613,78.2969786749024
0.5,60.8,-33.5446522204702,-0.552500291916449,2423.10783288731,5.68399619498392,78.2983825906157
0.5,60.85,-33.7359099279602,-0.551152308214848,2425.10746564458,5.68834160015767,78.2997822976471
0.5,60.9,-33.919955497696,-0.549878669697323,2427.10709916424,5.69268681079303,78.3011778032685
0.5,60.95,-34.0970306285813,-0.54867114926743,2429.10673344204,5.69703182710524,78.3025691147419
0.5,61,-34.2673500017144,-0.547522689083295,2431.10636847374,5.70137664930906,78.303956239319
0.5,61.05,-34.4311028999609,-0.546427253510793,2433.10600425514,5.70572127761885,78.3053391842415
0.5,61.1,-34.5884545854229,-0.545379705282007,2435.10564078204,5.71006571224851,78.3067179567409
0.5,61.15,-34.7395474718087,-0.544375700704416,2437.1052780503,5.7144099534115,78.3080925640386
0.5,61.2,-34.8845021254423,-0.543411600581422,2439.10491605578,5.71875400132086,78.3094630133459
0.5,61.25,-35.0234181262506,-0.542484394146247,2441.10455479435,5.72309785618919,78.3108293118641
0.5,61.3,-35.1563748184149,-0.541591633818417,2443.10419426194,5.72744151822863,78.3121914667842
0.5,61.35,-35.2834319793628,-0.540731378995579,2445.10383445448,5.73178498765093,78.3135494852872
0.5,61.4,-35.4046304352976,-0.539902147415752,2447.10347536792,5.73612826466737,78.3149033745439
0.5,61.45,-35.5199926514331,-0.539102872884196,2449.10311699824,5.74047134948882,78.3162531417153
0.5,61.5,-35.6295233253929,-0.538332868367932,2451.10275934145,5.7448142423257,78.3175987939519
0.5,61.55,-35.7332100127622,-0.537591793630485,2453.10240239357,5.74915694338801,78.3189403383943
0.5,61.6,-35.8310238143917,-0.536879626717269,2455.10204615066,5.75349945288533,78.320277782173
0.5,61.65,-35.9229201556178,-0.536196638714824,2457.10169060878,5.75784177102679,78.3216111324085
0.5,61.7,-36.0088396879165,-0.535543371299731,2459.10133576402,5.7621838980211,78.322940396211
0.5,61.75,-36.0887093434582,-0.53492061666933,2461.10098161251,5.76652583407655,78.3242655806806
0.5,61.8,-36.1624435723771,-0.534329399509493,2463.10062815038,5.770867579401,78.3255866929077
0.5,61.85,-36.2299457910923,-0.533770960707238,2465.1002753738,5.77520913420188,78.3269037399722
0.5,61.9,-36.291110067496,-0.53324674255961,2467.09992327894,5.77955049868619,78.3282167289442
0.5,61.95,-36.3458230650301,-0.532758375266913,2469.09957186202,5.78389167306053,78.3295256668835
0.5,62,-36.393966262427,-0.532307664529085,2471.09922111925,5.78823265753104,78.33083056084
0.5,62.05,-36.435418459021,-0.531896580089917,2473.0988710469,5.79257345230346,78.3321314178535
0.5,62.1,-36.4700585669892,-0.531527245095686,2475.09852164123,5.79691405758312,78.3334282449538
0.5,62.15,-36.4977686816417,-0.531201926153414,2477.09817289854,5.80125447357489,78.3347210491603
0.5,62.2,-36.5184374091084,-0.530923023989756,2479.09782481513,5.80559470048326,78.3360098374829
0.5,62.25,-36.5319634177299,-0.530693064625065,2481.09747738735,5.80993473851228,78.3372946169211
0.5,62.3,-36.5382591655951,-0.530514690988801,2483.09713061156,5.81427458786557,78.3385753944644
0.5,62.35,-36.5372547425658,-0.530390654912399,2485.09678448412,5.81861424874636,78.3398521770923
0.5,62.4,-36.5289017515339,-0.530323809444445,2487.09643900145,5.82295372135744,78.3411249717743
0.5,62.45,-36.5131771414091,-0.530317101440356,2489.09609415997,5.82729300590119,78.3423937854698
0.5,62.5,-36.4900868943438,-0.530373564385392,2491.09574995611,5.83163210257958,78.3436586251283
0.5,62.55,-36.459669462857,-0.530496311415494,2493.09540638634,5.83597101159414,78.3449194976891
0.5,62.6,-36.4219988496078,-0.530688528505394,2495.09506344715,5.84030973314603,78.3461764100816
0.5,62.65,-36.3771872242259,-0.530953467797904,2497.09472113503,5.84464826743594,78.3474293692252
0.5,62.7,-36.3253869781553,-0.531294441052124,2499.09437944652,5.8489866146642,78.3486783820294
0.5,62.75,-36.266792129968,-0.531714813191815,2501.09403837817,5.85332477503068,78.3499234553935
0.5,62.8,-36.2016390097258,-0.532217995938194,2503.09369792653,5.85766274873487,78.3511645962068
0.5,62.85,-36.1302061710398,-0.532807441514216,2505.0933580882,5.86200053597583,78.3524018113489
0.5,62.9,-36.0528135025305,-0.533486636409791,2507.09301885978,5.86633813695223,78.3536351076891
0.5,62.95,-35.9698205352328,-0.534259095199691,2509.0926802379,5.8706755518623,78.3548644920871
0.5,63,-35.8816239677782,-0.535128354407835,2511.09234221922,5.87501278090388,78.3560899713921
0.55,57,-37.4084430828161,-0.528816883385553,2271.44496904411,5.23039692582132,76.4072213942407
0.55,57.05,-37.2067099824719,-0.528253612284411,2273.44526750908,5.23469890623488,76.408704872668
0.55,57.1,-36.994392697394,-0.52788567070931,2275.44556654487,5.23900070732751,76.4101836896933
0.55,57.15,-36.7711524415022,-0.527722175092267,2277.44586614642,5.24330232932749,76.4116578541842
0.55,57.2,-36.5366645040152,-0.527773678827433,2279.44616630872,5.24760377246261,76.4131273749944
0.55,57.25,-36.290619343565,-0.528052438185461,2281.44646702675,5.25190503696019,76.4145922609631
0.55,57.3,-36.0327226427708,-0.528572733072185,2283.44676829556,5.25620612304702,76.4160525209157
0.55,57.35,-35.7626940358415,-0.529351255895643,2285.44707011019,5.26050703094943,76.4175081636633
0.55,57.4,-35.4802642231894,-0.530407585478622,2287.44737246576,5.26480776089324,76.4189591980029
0.55,57.45,-35.1851702065611,-0.531764767768778,2289.44767535739,5.26910831310378,76.4204056327174
0.55,57.5,-34.8771484180354,-0.533450031448441,2291.44797878021,5.2734086878059,76.4218474765756
0.55,57.55,-34.555925577216,-0.535495674970322,2293.44828272943,5.27770888522396,76.423284738332
0.55,57.6,-34.2212071922471,-0.537940172787048,2295.44858720026,5.28200890558182,76.4247174267272
0.55,57.65,-33.8726637196619,-0.540829563631555,2297.44889218793,5.28630874910287,76.4261455504876
0.55,57.7,-33.509914512493,-0.544219204069512,2299.44919768772,5.29060841601001,76.4275691183256
0.55,57.75,-33.1325098132101,-0.548175998166242,2301.44950369493,5.29490790652564,76.4289881389392
0.55,57.8,-32.7399111885577,-0.55278125173194,2303.4498102049,5.29920722087171,76.4304026210127
0.55,57.85,-32.3314709646382,-0.558134350999177,2305.45011721298,5.30350635926965,76.431812573216
0.55,57.9,-31.9064114220959,-0.564357535845392,2307.45042471456,5.30780532194044,76.4332180042052
0.55,57.95,-31.4638047927046,-0.571602133499307,2309.45073270506,5.31210410910456,76.4346189226221
0.55,58,-31.0025555325243,-0.580056748368128,2311.45104117993,5.31640272098203,76.4360153370944
0.55,58.05,-30.5213870583473,-0.589958076248085,2313.45135013465,5.32070115779236,76.437407256236
0.55,58.1,-30.0188363345926,-0.601605233364707,2315.45165956471,5.32499941975461,76.4387946886466
0.55,58.15,-29.4932617394359,-0.615378757651777,2317.45196946565,5.32929750708736,76.4401776429118
0.55,58.2,-28.9428731073737,-0.631765712294725,2319.45227983302,5.33359542000871,76.4415561276031
0.55,58.25,-28.3657987092357,-0.651392470769269,2321.45259066242,5.33789315873629,76.4429301512782
0.55,58.3,-27.7602137708061,-0.675066438902101,2323.45290194946,5.34219072348725,76.4442997224806
0.55,58.35,-27.1245714446177,-0.703826305306127,2325.45321368979,5.34648811447827,76.4456648497399
0.55,58.4,-26.4580035929943,-0.738995367519487,2327.45352587907,5.35078533192558,76.4470255415715
0.55,58.45,-25.7609997313203,-0.782219503665979,2329.45383851301,5.3550823760449,76.448381806477
0.55,58.5,-25.0365302241403,-0.835441005172492,2331.45415158732,5.35937924705151,76.4497336529439
0.55,58.55,-24.2918433603751,-0.900694826251064,2333.45446509777,5.36367594516023,76.4510810894458
0.55,58.6,-23.5411797551678,-0.979494842866285,2335.45477904012,5.36797247058538,76.4524241244422
0.55,58.65,-22.8094418175358,-1.07142280300427,2337.4550934102,5.37226882354086,76.4537627663787
0.55,58.7,-22.136057650195,-1.17155248816301,2339.45540820382,5.37656500424005,76.4550970236869
0.55,58.75,-21.5764401866928,-1.26722444473214,2341.45572341686,5.38086101289592,76.4564269047846
0.55,58.8,-21.1961012460114,-1.33727857568436,2343.4560390452,5.38515684972096,76.4577524180756
0.55,58.85,-21.0532915280556,-1.35909458091168,2345.45635508474,5.38945251492718,76.4590735719496
0.55,58.9,-21.1751140094094,-1.32295057032969,2347.45667153144,5.39374800872614,76.4603903747825
0.55,58.95,-21.5438713426805,-1.24017134575361,2349.45698838125,5.39804333132896,76.4617028349363
0.55,59,-22.1060211118503,-1.13465967285906,2351.45730563017,5.40233848294628,76.4630109607593
0.55,59.05,-22.7954399358715,-1.0281081619383,2353.45762327422,5.4066334637883,76.4643147605854
0.55,59.1,-23.5532057310464,-0.932905914647576,2355.45794130943,5.41092827406474,76.4656142427351
0.55,59.15,-24.3359109644722,-0.853270242044625,2357.45825973188,5.4152229139849,76.4669094155149
0.55,59.2,-25.1153833848,-0.788852346518749,2359.45857853765,5.4195173837576,76.4682002872173
0.55,59.25,-25.8750576038935,-0.73750645423536,2361.45889772288,5.42381168359121,76.4694868661211
0.55,59.3,-26.6061525401958,-0.696742657162158,2363.4592172837,5.42810581369366,76.4707691604912
0.55,59.35,-27.3047326652143,-0.664315089150463,2365.45953721629,5.43239977427242,76.4720471785787
0.55,59.4,-27.9697269052408,-0.638384719594389,2367.45985751683,5.43669356553453,76.473320928621
0.55,59.45,-28.6016793578597,-0.61750957699339,2369.46017818156,5.44098718768654,76.4745904188413
0.55,59.5,-29.2019908013935,-0.600580420246204,2371.46049920671,5.44528064093461,76.4758556574495
0.55,59.55,-29.7724697123139,-0.586749581347738,2373.46082058855,5.4495739254844,76.4771166526415
0.55,59.6,-30.3150724120843,-0.575369135126613,2375.46114232338,5.45386704154117,76.4783734125994
0.55,59.65,-30.8317568017484,-0.565941820805404,2377.46146440752,5.4581599893097,76.4796259454916
0.55,59.7,-31.3244035550248,-0.558083642772806,2379.4617868373,5.46245276899435,76.4808742594727
0.55,59.75,-31.794776967161,-0.551495898145106,2381.4621096091,5.46674538079904,76.4821183626837
0.55,59.8,-32.244508805315,-0.545944406577816,2383.4624327193,5.47103782492723,76.4833582632518
0.55,59.85,-32.6750952179911,-0.541244102387804,2385.46275616433,5.47533010158195,76.4845939692904
0.55,59.9,-33.0879007878388,-0.537247573382089,2387.46307994062,5.47962221096579,76.4858254888994
0.55,59.95,-33.4841662277603,-0.533836493780113,2389.46340404462,5.48391415328093,76.4870528301648
0.55,60,-33.8650176708673,-0.530915181110954,2391.46372847284,5.48820592872907,76.4882760011592
0.55,60.05,-34.2314763764163,-0.52840571739489,2393.46405322177,5.49249753751149,76.4894950099413
0.55,60.1,-34.5844681969217,-0.526244228338106,2395.46437828796,5.49678897982906,76.4907098645563
0.55,60.15,-34.9248324641998,-0.524378025022088,2397.46470366795,5.50108025588219,76.4919205730358
0.55,60.2,-35.2533301371544,-0.522763392251689,2399.46502935833,5.50537136587085,76.4931271433976
0.55,60.25,-35.5706511618093,-0.521363865085095,2401.46535535569,5.50966230999462,76.494329583646
0.55,60.3,-35.8774210549526,-0.520148876480328,2403.46568165667,5.5139530884526,76.4955279017719
0.55,60.35,-36.1742067553315,-0.519092689024238,2405.46600825792,5.5182437014435,76.4967221057524
0.55,60.4,-36.4615218020379,-0.518173545605556,2407.46633515609,5.52253414916559,76.497912203551
0.55,60.45,-36.7398309055162,-0.517372989953066,2409.46666234789,5.5268244318167,76.4990982031179
0.55,60.5,-37.0095539767586,-0.516675319812942,2411.46698983004,5.53111454959424,76.5002801123896
0.55,60.55,-37.2710696773659,-0.51606714434341,2413.46731759927,5.53540450269522,76.5014579392891
0.55,60.6,-37.5247185487657,-0.515537023887483,2415.46764565234,5.53969429131618,76.5026316917259
0.55,60.65,-37.7708057739744,-0.515075175236923,2417.46797398603,5.54398391565328,76.5038013775961
0.55,60.7,-38.009603620362,-0.514673229250816,2419.46830259716,5.54827337590224,76.5049670047822
0.55,60.75,-38.2413536072447,-0.514324030549176,2421.46863148254,5.55256267225835,76.5061285811533
0.55,60.8,-38.4662684379318,-0.514021471192022,2423.46896063903,5.5568518049165,76.5072861145651
0.55,60.85,-38.6845337321281,-0.513760351942852,2425.46929006349,5.56114077407115,76.5084396128599
0.55,60.9,-38.8963095913662,-0.513536266024608,2427.46961975283,5.56542957991634,76.5095890838664
0.55,60.95,-39.1017320273478,-0.513345501297102,2429.46994970394,5.56971822264569,76.5107345354001
0.55,61,-39.3009142806897,-0.513184957585036,2431.47027991378,5.57400670245241,76.5118759752631
