"W_line [mm]","Freq [GHz]","dB(S(1,1)) []","dB(S(2,1)) []","im(Gamma(1)) []","re(Gamma(1)) []","re(Zo(1)) []"
0.5,57,-29.4878299568031,-0.569010048889202,2266.03025158085,5.22243164516874,92.1285195563426
0.5,57.05,-29.1263040436349,-0.571440156141549,2268.02763774069,5.22673992985303,92.1324232776395
0.5,57.1,-28.7584264832853,-0.574446878171372,2270.02502492909,5.23104802515125,92.1363211786767
0.5,57.15,-28.3836565006936,-0.57804823954263,2272.02241313637,5.23535593130653,92.1402132687287
0.5,57.2,-28.0014005856288,-0.582273079059723,2274.01980235289,5.23966364856151,92.1440995570594
0.5,57.25,-27.6110063904694,-0.587163151748672,2276.01719256905,5.24397117715835,92.1479800529222
0.5,57.3,-27.2117558387705,-0.592775757319284,2278.01458377532,5.24827851733877,92.1518547655597
0.5,57.35,-26.802857356077,-0.599187058875101,2280.01197596219,5.25258566934396,92.1557237042038
0.5,57.4,-26.383437141256,-0.606496313052718,2282.0093691202,5.2568926334147,92.1595868780758
0.5,57.45,-25.9525294176922,-0.61483131275505,2284.00676323995,5.26119940979124,92.1634442963865
0.5,57.5,-25.5090656496015,-0.624355455962353,2286.00415831209,5.26550599871342,92.1672959683356
0.5,57.55,-25.0518627971209,-0.635277013061762,2288.00155432728,5.26981240042057,92.1711419031123
0.5,57.6,-24.5796108441755,-0.647861391721078,2289.99895127627,5.27411861515157,92.1749821098951
0.5,57.65,-24.0908601148118,-0.662447523324067,2291.99634914983,5.27842464314484,92.1788165978516
0.5,57.7,-23.5840093798435,-0.679469963202562,2293.99374793877,5.28273048463834,92.1826453761385
0.5,57.75,-23.0572965871256,-0.699488972491825,2295.99114763397,5.28703613986956,92.1864684539022
0.5,57.8,-22.5087954652418,-0.723231820830057,2297.98854822633,5.29134160907554,92.1902858402777
0.5,57.85,-21.9364236619071,-0.751649928589165,2299.98594970681,5.29564689249285,92.1940975443896
0.5,57.9,-21.3379721876509,-0.785998369606929,2301.9833520664,5.29995199035763,92.1979035753513
0.5,57.95,-20.7111729434683,-0.827946711705945,2303.98075529616,5.30425690290553,92.2017039422657
0.5,58,-20.0538330469692,-0.879732861295262,2305.97815938716,5.30856163037177,92.2054986542246
0.5,58.05,-19.3640848627456,-0.944373062226807,2307.97556433053,5.31286617299113,92.2092877203089
0.5,58.1,-18.640834193282,-1.02593686634012,2309.97297011745,5.31717053099789,92.2130711495887
0.5,58.15,-17.8845426240204,-1.12987266418946,2311.97037673915,5.32147470462594,92.2168489511232
0.5,58.2,-17.0985580130659,-1.26329292202945,2313.96778418687,5.32577869410869,92.2206211339607
0.5,58.25,-16.2912966587137,-1.4349161741098,2315.96519245192,5.33008249967908,92.2243877071384
0.5,58.3,-15.4796047315583,-1.65384724649857,2317.96260152564,5.33438612156967,92.2281486796825
0.5,58.35,-14.6933348028038,-1.9253530280205,2319.96001139944,5.3386895600125,92.2319040606086
0.5,58.4,-13.9800018575145,-2.2406408643204,2321.95742206473,5.34299281523921,92.235653858921
0.5,58.45,-13.4057036968883,-2.55975364637012,2323.95483351299,5.34729588748099,92.239398083613
0.5,58.5,-13.0454718487768,-2.80078237345167,2325.95224573574,5.35159877696858,92.2431367436672
0.5,58.55,-12.9590055056882,-2.87019056164151,2327.94965872453,5.35590148393228,92.2468698480548
0.5,58.6,-13.1624146772697,-2.7374404669318,2329.94707247097,5.36020400860196,92.2505974057363
0.5,58.65,-13.6193808146397,-2.46494675589417,2331.94448696669,5.36450635120703,92.2543194256609
0.5,58.7,-14.2605072889023,-2.14772889017027,2333.94190220337,5.36880851197648,92.2580359167669
0.5,58.75,-15.0124639352821,-1.85120927413092,2335.93931817274,5.37311049113885,92.2617468879815
0.5,58.8,-15.8165162459683,-1.60143820113957,2337.93673486657,5.37741228892223,92.265452348221
0.5,58.85,-16.6329934777189,-1.40091528665017,2339.93415227665,5.3817139055543,92.2691523063903
0.5,58.9,-17.4381627230918,-1.24293156646642,2341.93157039484,5.38601534126229,92.2728467713834
0.5,58.95,-18.2193352290247,-1.11890482132445,2343.92898921301,5.39031659627299,92.2765357520832
0.5,59,-18.970743423783,-1.02112725879358,2345.9264087231,5.39461767081275,92.2802192573615
0.5,59.05,-19.6906927197358,-0.943435145300993,2347.92382891707,5.39891856510749,92.2838972960789
0.5,59.1,-20.379767283725,-0.881126097757121,2349.92124978693,5.4032192793827,92.287569877085
0.5,59.15,-21.0397534958644,-0.830677343896404,2351.91867132471,5.40751981386344,92.2912370092182
0.5,59.2,-21.6730124511039,-0.789461039946646,2353.91609352252,5.4118201687743,92.2948987013057
0.5,59.25,-22.2821216554189,-0.755511165945574,2355.91351637247,5.41612034433949,92.2985549621636
0.5,59.3,-22.8696740286296,-0.727346906973549,2357.91093986673,5.42042034078274,92.3022058005969
0.5,59.35,-23.4381668278411,-0.703843129698988,2359.90836399749,5.42472015832736,92.3058512253993
0.5,59.4,-23.9899404082317,-0.684136588831681,2361.90578875701,5.42901979719624,92.3094912453534
0.5,59.45,-24.5271430191366,-0.667558179128938,2363.90321413756,5.43331925761181,92.3131258692307
0.5,59.5,-25.0517074652495,-0.653583858953203,2365.90064013146,5.4376185397961,92.3167551057913
0.5,59.55,-25.5653312242182,-0.641798890942665,2367.89806673107,5.44191764397068,92.3203789637844
0.5,59.6,-26.0694552022536,-0.631871592007003,2369.89549392878,5.44621657035671,92.3239974519477
0.5,59.65,-26.565238761056,-0.623533905719279,2371.89292171703,5.45051531917489,92.3276105790079
0.5,59.7,-27.0535305922653,-0.616566902446042,2373.89035008829,5.45481389064552,92.3312183536803
0.5,59.75,-27.5348368240048,-0.610789866789457,2375.88777903507,5.45911228498844,92.3348207846691
0.5,59.8,-28.0092896014431,-0.606052018641567,2377.88520854992,5.46341050242309,92.3384178806674
0.5,59.85,-28.4766212933194,-0.602226184517994,2379.88263862542,5.46770854316847,92.3420096503567
0.5,59.9,-28.9361512447437,-0.599203925721502,2381.88006925418,5.47200640744314,92.3455961024076
0.5,59.95,-29.3867932150904,-0.596891764063779,2383.87750042888,5.47630409546526,92.3491772454794
0.5,60,-29.8270917147084,-0.59520824135962,2385.87493214221,5.48060160745255,92.3527530882199
0.5,60.05,-30.2552937270025,-0.594081617373724,2387.87236438689,5.48489894362231,92.356323639266
0.5,60.1,-30.6694582950716,-0.593448060378012,2389.8697971557,5.48919610419141,92.359888907243
0.5,60.15,-31.0676002101803,-0.593250220516385,2391.86723044145,5.49349308937634,92.3634489007653
0.5,60.2,-31.4478564496996,-0.593436102632658,2393.86466423696,5.49778989939314,92.3670036284357
0.5,60.25,-31.8086568762098,-0.593958174795654,2395.86209853513,5.50208653445745,92.3705530988459
0.5,60.3,-32.148876362072,-0.594772663354993,2397.85953332887,5.50638299478451,92.3740973205763
0.5,60.35,-32.4679459583144,-0.595838996332027,2399.85696861112,5.51067928058915,92.377636302196
0.5,60.4,-32.7659066658004,-0.597119365256801,2401.85440437487,5.5149753920858,92.3811700522628
0.5,60.45,-33.0433995521782,-0.59857838189863,2403.85184061314,5.51927132948848,92.3846985793233
0.5,60.5,-33.3015975282583,-0.600182811207298,2405.84927731898,5.52356709301084,92.3882218919128
0.5,60.55,-33.5420937102942,-0.601901365552351,2407.8467144855,5.52786268286611,92.391739998555
0.5,60.6,-33.7667665108948,-0.603704548287567,2409.8441521058,5.53215809926714,92.3952529077628
0.5,60.65,-33.9776417400058,-0.605564536977268,2411.84159017307,5.53645334242642,92.3987606280375
0.5,60.7,-34.176768079553,-0.60745509844785,2413.83902868048,5.54074841255601,92.4022631678692
0.5,60.75,-34.3661162801435,-0.609351529283235,2415.83646762128,5.5450433098676,92.4057605357365
0.5,60.8,-34.5475062844487,-0.611230616549872,2417.83390698872,5.54933803457251,92.409252740107
0.5,60.85,-34.7225615593767,-0.613070614479169,2419.8313467761,5.55363258688166,92.4127397894369
0.5,60.9,-34.8926867736145,-0.614851233600115,2421.82878697677,5.55792696700558,92.4162216921708
0.5,60.95,-35.0590635127452,-0.616553639439886,2423.82622758408,5.5622211751544,92.4196984567424
0.5,61,-35.2226585639592,-0.61816045842304,2425.82366859143,5.56651521153788,92.423170091574
0.5,61.05,-35.3842399253514,-0.619655789022974,2427.82110999227,5.57080907636536,92.4266366050762
0.5,61.1,-35.5443966721228,-0.621025216569253,2429.81855178005,5.57510276984579,92.4300980056488
0.5,61.15,-35.7035598465796,-0.622255830404951,2431.81599394829,5.5793962921877,92.4335543016801
0.5,61.2,-35.8620224620324,-0.623336242329518,2433.8134364905,5.58368964359922,92.437005501547
0.5,61.25,-36.0199574513588,-0.62425660546371,2435.81087940027,5.58798282428805,92.4404516136151
0.5,61.3,-36.1774329395341,-0.625008632839953,2437.8083226712,5.59227583446146,92.4438926462388
0.5,61.35,-36.3344245986823,-0.625585615160213,2439.80576629691,5.59656867432629,92.447328607761
0.5,61.4,-36.4908250894726,-0.625982437277996,2441.80321027107,5.60086134408897,92.4507595065134
0.5,61.45,-36.6464507404581,-0.626195593055386,2443.80065458738,5.60515384395544,92.4541853508165
0.5,61.5,-36.801045699309,-0.626223198322818,2445.79809923957,5.60944617413125,92.4576061489793
0.5,61.55,-36.9542838328092,-0.626065001731583,2447.79554422141,5.61373833482146,92.4610219092995
0.5,61.6,-37.1057686759613,-0.625722393338406,2449.79298952668,5.61803032623069,92.4644326400635
0.5,61.65,-37.2550317495511,-0.625198410800146,2451.79043514922,5.62232214856312,92.4678383495465
0.5,61.7,-37.401529591163,-0.624497743086108,2453.78788108289,5.62661380202245,92.4712390460123
0.5,61.75,-37.5446398850006,-0.623626731636846,2455.78532732157,5.63090528681195,92.4746347377133
0.5,61.8,-37.6836571366187,-0.622593368913349,2457.78277385919,5.63519660313442,92.4780254328907
0.5,61.85,-37.8177884230575,-0.621407294289545,2459.78022068971,5.63948775119219,92.4814111397743
0.5,61.9,-37.9461498572803,-0.620079787245534,2461.7776678071,5.64377873118717,92.4847918665828
0.5,61.95,-38.0677645347566,-0.618623757819716,2463.77511520538,5.64806954332076,92.4881676215234
0.5,62,-38.1815628706979,-0.617053734275219,2465.7725628786,5.65236018779397,92.491538412792
0.5,62.05,-38.2863863729531,-0.61538584793128,2467.77001082084,5.6566506648073,92.4949042485732
0.5,62.1,-38.3809960034147,-0.613637815103337,2469.7674590262,5.66094097456083,92.4982651370405
0.5,62.15,-38.4640863261473,-0.6118289160875,2471.76490748883,5.66523111725418,92.5016210863558
0.5,62.2,-38.5343065813869,-0.60997997111648,2473.7623562029,5.66952109308651,92.5049721046698
0.5,62.25,-38.590289615291,-0.608113313204706,2475.7598051626,5.67381090225656,92.5083182001221
0.5,62.3,-38.6306891946683,-0.606252757792026,2477.75725436217,5.67810054496259,92.5116593808407
0.5,62.35,-38.6542256200081,-0.604423569086627,2479.75470379586,5.68239002140242,92.5149956549426
0.5,62.4,-38.6597387279752,-0.602652423001231,2481.75215345798,5.68667933177345,92.5183270305333
0.5,62.45,-38.6462464025288,-0.600967366570517,2483.74960334283,5.69096847627261,92.5216535157072
0.5,62.5,-38.6130057030567,-0.599397773733894,2485.74705344476,5.69525745509638,92.5249751185472
0.5,62.55,-38.559572827409,-0.597974297365952,2487.74450375817,5.69954626844082,92.5282918471251
0.5,62.6,-38.4858575388388,-0.59672881743722,2489.74195427745,5.70383491650153,92.5316037095013
0.5,62.65,-38.3921675597034,-0.59569438519143,2491.73940499705,5.70812339947367,92.5349107137251
0.5,62.7,-38.279238862525,-0.594905163231267,2493.73685591143,5.71241171755195,92.5382128678344
0.5,62.75,-38.1482487527896,-0.59439636141429,2495.73430701509,5.71669987093064,92.5415101798559
0.5,62.8,-38.0008100002613,-0.594204168473148,2497.73175830255,5.72098785980358,92.5448026578051
0.5,62.85,-37.8389458075746,-0.594365679290649,2499.72920976838,5.72527568436413,92.548090309686
0.5,62.9,-37.6650468468157,-0.594918817779941,2501.72666140715,5.72956334480524,92.5513731434915
0.5,62.95,-37.4818127300387,-0.59590225534397,2503.72411321347,5.73385084131938,92.5546511672035
0.5,63,-37.2921809934656,-0.597355324915324,2505.72156518199,5.73813817409861,92.5579243887922
0.55,57,-29.7601291911231,-0.563058780549585,2265.85207597265,5.11677964929297,91.6565349894743
0.55,57.05,-29.4185082840724,-0.566461369629829,2267.85022604261,5.12103526569226,91.6602828273391
0.55,57.1,-29.0683683400847,-0.570777016485294,2269.84837628894,5.12529071672418,91.6640247682751
0.55,57.15,-28.7090221909424,-0.576069517560666,2271.84652670349,5.12954600261899,91.6677608231306
0.55,57.2,-28.3397039106991,-0.58241835027277,2273.84467727816,5.13380112360644,91.6714910027375
0.55,57.25,-27.9595595409424,-0.589922402507327,2275.84282800489,5.13805607991572,91.6752153179112
0.55,57.3,-27.567636909274,-0.598704737451274,2277.84097887566,5.14231087177551,91.6789337794499
0.55,57.35,-27.1628746195978,-0.608918727443385,2279.83912988251,5.14656549941395,91.6826463981359
0.55,57.4,-26.7440904352936,-0.620756009999445,2281.83728101751,5.15081996305866,91.6863531847342
0.55,57.45,-26.3099695229912,-0.634456883948144,2283.83543227279,5.15507426293675,91.6900541499937
0.55,57.5,-25.859053444856,-0.650323990167059,2285.8335836405,5.15932839927482,91.6937493046462
0.55,57.55,-25.3897314973208,-0.668740429955272,2287.83173511286,5.16358237229894,91.6974386594072
0.55,57.6,-24.9002371896943,-0.690193885705312,2289.82988668213,5.1678361822347,91.7011222249756
0.55,57.65,-24.3886546677915,-0.715308834948804,2291.82803834059,5.17208982930717,91.7048000120334
0.55,57.7,-23.852943275841,-0.744889563405469,2293.8261900806,5.17634331374095,91.7084720312462
0.55,57.75,-23.2909941609592,-0.779977245397596,2295.82434189453,5.1805966357601,91.7121382932629
0.55,57.8,-22.7007424406754,-0.821924432289115,2297.82249377482,5.18484979558823,91.7157988087159
0.55,57.85,-22.0803745511536,-0.872488689799041,2299.82064571393,5.18910279344845,91.7194535882209
0.55,57.9,-21.4286969241546,-0.933940894186943,2301.81879770438,5.1933556295634,91.7231026423771
0.55,57.95,-20.7457743691244,-1.00916579916276,2303.81694973872,5.19760830415519,91.726745981767
0.55,58,-20.034008806321,-1.10168713208567,2305.81510180957,5.20186081744552,91.7303836169566
0.55,58.05,-19.2999051173027,-1.215444568699,2307.81325390954,5.20611316965557,91.7340155584953
0.55,58.1,-18.5568140453074,-1.35393360689757,2309.81140603134,5.21036536100604,91.7376418169158
0.55,58.15,-17.8287911972408,-1.51796376816535,2311.80955816768,5.2146173917172,91.7412624027345
0.55,58.2,-17.1549744284274,-1.70103587924069,2313.80771031133,5.21886926200882,91.7448773264511
0.55,58.25,-16.5919858784593,-1.88238622732223,2315.8058624551,5.22312097210021,91.7484865985486
0.55,58.3,-16.209060258877,-2.0226073269629,2317.80401459183,5.22737252221021,91.7520902294937
0.55,58.35,-16.0705374166477,-2.07409594492423,2319.80216671443,5.2316239125572,91.7556882297364
0.55,58.4,-16.2095201807107,-2.01135302658829,2321.80031881581,5.23587514335911,91.7592806097103
0.55,58.45,-16.6108660609538,-1.85397993432324,2323.79847088895,5.24012621483339,91.7628673798323
0.55,58.5,-17.2192159225263,-1.65139329864793,2325.79662292686,5.24437712719704,91.7664485505029
0.55,58.55,-17.9643433944536,-1.44896205643151,2327.7947749226,5.2486278806666,91.7700241321061
0.55,58.6,-18.7834174497718,-1.2714759218868,2329.79292686925,5.25287847545816,91.7735941350092
0.55,58.65,-19.6304098396369,-1.12620740014833,2331.79107875995,5.25712891178734,91.7771585695634
0.55,58.7,-20.4757618344557,-1.01127697294707,2333.78923058786,5.2613791898693,91.780717446103
0.55,58.75,-21.3023229664715,-0.921633849867441,2335.78738234621,5.26562930991878,91.7842707749459
0.55,58.8,-22.1011350054086,-0.851945720694009,2337.78553402824,5.26987927215001,91.7878185663939
0.55,58.85,-22.86823400327,-0.797634854902139,2339.78368562723,5.27412907677681,91.7913608307317
0.55,58.9,-23.6025165141561,-0.755079903858677,2341.78183713653,5.27837872401252,91.7948975782282
0.55,58.95,-24.3043986375609,-0.721516629838666,2343.77998854949,5.28262821407004,91.7984288191353
0.55,59,-24.9749926999045,-0.694865074051708,2345.77813985951,5.28687754716181,91.8019545636889
0.55,59.05,-25.6155988409253,-0.673565378728343,2347.77629106005,5.29112672349982,91.8054748221082
0.55,59.1,-26.2273783468525,-0.656444724051731,2349.77444214459,5.29537574329559,91.808989604596
0.55,59.15,-26.8111262625809,-0.642616204301624,2351.77259310664,5.29962460676022,91.8124989213388
0.55,59.2,-27.3670959530969,-0.631404136200976,2353.77074393976,5.30387331410432,91.8160027825066
0.55,59.25,-27.8948554641342,-0.622289523567109,2355.76889463755,5.30812186553808,91.8195011982531
0.55,59.3,-28.3931826508312,-0.614870341474315,2357.76704519364,5.31237026127121,91.8229941787155
0.55,59.35,-28.8600400701749,-0.608832541941223,2359.7651956017,5.31661850151299,91.8264817340149
0.55,59.4,-29.2927146168317,-0.603928773092676,2361.76334585543,5.32086658647224,91.8299638742556
0.55,59.45,-29.6882515338945,-0.599962649138577,2363.76149594858,5.32511451635733,91.8334406095258
0.55,59.5,-30.0443211994353,-0.596777029460767,2365.75964587493,5.32936229137619,91.8369119498975
0.55,59.55,-30.3605564327139,-0.594245209665381,2367.7577956283,5.33360991173628,91.8403779054261
0.55,59.6,-30.6401121880635,-0.592264242137689,2369.75594520254,5.33785737764464,91.8438384861508
0.55,59.65,-30.8907764026496,-0.590749825571936,2371.75409459154,5.34210468930785,91.8472937020946
0.55,59.7,-31.1247226199915,-0.589632359618903,2373.75224378923,5.34635184693205,91.8507435632639
0.55,59.75,-31.3564137737505,-0.588853871797977,2375.75039278956,5.35059885072294,91.8541880796492
0.55,59.8,-31.5992693036219,-0.588365602893347,2377.74854158653,5.35484570088577,91.8576272612245
0.55,59.85,-31.8626550641718,-0.58812609374355,2379.74669017418,5.35909239762537,91.8610611179474
0.55,59.9,-32.150578277726,-0.588099657263802,2381.74483854658,5.36333894114612,91.8644896597596
0.55,59.95,-32.4623061233274,-0.588255149311422,2383.74298669782,5.36758533165197,91.8679128965864
0.55,60,-32.7940836535689,-0.588564973821794,2385.74113462204,5.37183156934644,91.8713308383367
0.55,60.05,-33.1409328908508,-0.589004273749376,2387.73928231342,5.37607765443261,91.8747434949034
0.55,60.1,-33.4979434560394,-0.589550271323931,2389.73742976617,5.38032358711316,91.8781508761633
0.55,60.15,-33.8609516947753,-0.590181730093335,2391.73557697452,5.3845693675903,91.8815529919766
0.55,60.2,-34.226761750383,-0.590878517965954,2393.73372393276,5.38881499606585,91.8849498521877
0.55,60.25,-34.5931080785371,-0.591621255555511,2395.73187063519,5.39306047274122,91.8883414666248
0.55,60.3,-34.958509494031,-0.592391037979385,2397.73001707616,5.39730579781736,91.8917278450997
0.55,60.35,-35.322101329295,-0.593169221161974,2399.72816325005,5.40155097149483,91.8951089974082
0.55,60.4,-35.6834856482023,-0.593937265864269,2401.72630915127,5.40579599397378,91.8984849333302
0.55,60.45,-36.0426126962297,-0.594676634255776,2403.72445477426,5.41004086545393,91.9018556626292
0.55,60.5,-36.3996940367139,-0.595368734982987,2405.7226001135,5.41428558613458,91.9052211950526
0.55,60.55,-36.7551430482597,-0.595994913456877,2407.72074516351,5.41853015621466,91.908581540332
0.55,60.6,-37.1095375560297,-0.596536484548367,2409.71888991883,5.42277457589264,91.9119367081826
0.55,60.65,-37.4636000781273,-0.596974805098731,2411.71703437404,5.42701884536661,91.9152867083036
0.55,60.7,-37.818192398415,-0.59729138366665,2413.71517852375,5.43126296483424,91.9186315503784
0.55,60.75,-38.1743224830154,-0.597468024782942,2415.71332236261,5.4355069344928,91.9219712440743
0.55,60.8,-38.5331630147314,-0.597487004704835,2417.71146588528,5.43975075453915,91.9253057990422
0.55,60.85,-38.896082056945,-0.597331275286727,2419.70960908648,5.44399442516973,91.9286352249177
0.55,60.9,-39.264687686093,-0.596984692147709,2421.70775196094,5.44823794658058,91.9319595313197
0.55,60.95,-39.6408900212664,-0.596432262850642,2423.70589450345,5.45248131896734,91.9352787278516
0.55,61,-40.0269861811508,-0.595660410345709,2425.7040367088,5.45672454252522,91.9385928241006
