"W_line [mm]","Freq [GHz]","dB(S(1,1)) []","dB(S(2,1)) []","im(Gamma(1)) []","re(Gamma(1)) []","re(Zo(1)) []"
0.5,57,-49.1036286643511,-0.436116553804945,2052.93468725774,4.8441321397767,72.6176953783763
0.5,57.05,-49.2596270178081,-0.436409947120421,2054.84155843844,4.84846127878547,72.6172716371546
0.5,57.1,-49.4229517394237,-0.436694832928188,2056.74854523904,4.8527906244875,72.6168470808651
0.5,57.15,-49.593771535823,-0.436971459830002,2058.65564754137,4.8571201766026,72.6164217146254
0.5,57.2,-49.7722606453395,-0.437240080655231,2060.56286522732,4.8614499348473,72.6159955435684
0.5,57.25,-49.9586001715512,-0.437500952196265,2062.47019817886,4.86577989893491,72.6155685728419
0.5,57.3,-50.1529795891386,-0.43775433494119,2064.37764627804,4.87011006857557,72.6151408076086
0.5,57.35,-50.3555984340954,-0.438000492804115,2066.28520940701,4.87444044347629,72.6147122530459
0.5,57.4,-50.5666681920109,-0.43823969285354,2068.19288744796,4.87877102334105,72.6142829143456
0.5,57.45,-50.7864144002751,-0.438472205039133,2070.10068028319,4.88310180787081,72.6138527967135
0.5,57.5,-51.0150789826856,-0.438698301917305,2072.00858779508,4.8874327967636,72.6134219053694
0.5,57.55,-51.2529228380989,-0.438918258375914,2073.91660986609,4.89176398971458,72.6129902455471
0.5,57.6,-51.5002287085134,-0.439132351358475,2075.82474637876,4.89609538641605,72.6125578224936
0.5,57.65,-51.7573043562947,-0.43934085958823,2077.73299721572,4.90042698655757,72.6121246414692
0.5,57.7,-52.0244860851664,-0.439544063292368,2079.64136225968,4.90475878982596,72.6116907077473
0.5,57.75,-52.3021426450079,-0.439742243926754,2081.54984139344,4.90909079590539,72.6112560266144
0.5,57.8,-52.5906795662953,-0.439935683901472,2083.45843449989,4.9134230044774,72.6108206033691
0.5,57.85,-52.8905439758982,-0.440124666307484,2085.36714146202,4.91775541522099,72.6103844433228
0.5,57.9,-53.202229951407,-0.440309474644652,2087.27596216288,4.92208802781266,72.609947551799
0.5,57.95,-53.5262844753405,-0.440490392551476,2089.18489648563,4.92642084192645,72.6095099341329
0.5,58,-53.863314052021,-0.440667703536741,2091.09394431352,4.930753857234,72.6090715956717
0.5,58.05,-54.2139920462087,-0.440841690713346,2093.00310552989,4.93508707340463,72.6086325417737
0.5,58.1,-54.5790667898328,-0.441012636534575,2094.91238001817,4.93942049010532,72.608192777809
0.5,58.15,-54.9593704749401,-0.441180822533008,2096.82176766189,4.94375410700085,72.6077523091583
0.5,58.2,-55.3558287968843,-0.44134652906227,2098.73126834467,4.94808792375379,72.6073111412132
0.5,58.25,-55.7694712147583,-0.441510035041866,2100.64088195022,4.95242194002456,72.6068692793759
0.5,58.3,-56.2014415283003,-0.441671617705261,2102.55060836235,4.95675615547149,72.606426729059
0.5,58.35,-56.6530081861566,-0.44183155235134,2104.46044746498,4.96109056975089,72.6059834956851
0.5,58.4,-57.1255732638445,-0.44199011209949,2106.37039914211,4.96542518251706,72.6055395846868
0.5,58.45,-57.6206782553854,-0.44214756764839,2108.28046327785,4.96975999342233,72.6050950015063
0.5,58.5,-58.1400035008269,-0.442304187038667,2110.19063975639,4.97409500211718,72.6046497515952
0.5,58.55,-58.6853558719778,-0.442460235419558,2112.10092846205,4.97843020825021,72.6042038404145
0.5,58.6,-59.2586356735812,-0.442615974819648,2114.01132927922,4.98276561146823,72.6037572734339
0.5,58.65,-59.8617676095804,-0.442771663921856,2115.92184209242,4.9871012114163,72.6033100561321
0.5,58.7,-60.4965705133032,-0.442927557842704,2117.83246678625,4.99143700773775,72.6028621939961
0.5,58.75,-61.16452381721,-0.443083907915977,2119.74320324542,4.99577300007428,72.6024136925214
0.5,58.8,-61.8663617545327,-0.443240961480854,2121.65405135476,5.00010918806596,72.6019645572115
0.5,58.85,-62.6013846567783,-0.443398961674568,2123.56501099918,5.00444557135129,72.6015147935776
0.5,58.9,-63.3663185311787,-0.443558147229654,2125.47608206371,5.00878214956724,72.6010644071387
0.5,58.95,-64.153491453127,-0.443718752275821,2127.38726443348,5.01311892234932,72.600613403421
0.5,59,-64.9480868475574,-0.443881006146538,2129.29855799372,5.01745588933159,72.600161787958
0.5,59.05,-65.7244560159082,-0.444045133190296,2131.2099626298,5.02179305014673,72.5997095662901
0.5,59.1,-66.4423061778274,-0.444211352586651,2133.12147822715,5.02613040442606,72.5992567439644
0.5,59.15,-67.0454596531627,-0.444379878167044,2135.03310467135,5.0304679517996,72.5988033265344
0.5,59.2,-67.4681769669448,-0.444550918240357,2136.94484184807,5.03480569189614,72.5983493195599
0.5,59.25,-67.6529525684422,-0.444724675423361,2138.8566896431,5.03914362434321,72.5978947286066
0.5,59.3,-67.5742890535821,-0.444901346475919,2140.76864794233,5.04348174876718,72.5974395592462
0.5,59.35,-67.2514851584805,-0.44508112214105,2142.68071663176,5.0478200647933,72.5969838170558
0.5,59.4,-66.7388017758265,-0.445264186989825,2144.59289559752,5.05215857204573,72.5965275076179
0.5,59.45,-66.1020819938122,-0.44545071927109,2146.50518472585,5.05649727014755,72.5960706365199
0.5,59.5,-65.399436804777,-0.445640890766068,2148.41758390308,5.06083615872087,72.5956132093545
0.5,59.55,-64.6733997914103,-0.445834866647757,2150.33009301569,5.0651752373868,72.5951552317186
0.5,59.6,-63.9514291136043,-0.446032805345229,2152.24271195025,5.06951450576555,72.5946967092138
0.5,59.65,-63.2495741261801,-0.446234858412747,2154.15544059346,5.07385396347642,72.5942376474459
0.5,59.7,-62.5762620313689,-0.446441170403744,2156.06827883212,5.07819361013788,72.5937780520244
0.5,59.75,-61.9351888429629,-0.446651878749672,2157.98122655316,5.08253344536759,72.593317928563
0.5,59.8,-61.3272619749361,-0.446867113643699,2159.89428364363,5.08687346878241,72.5928572826784
0.5,59.85,-60.7518230912136,-0.4470869979293,2161.80744999069,5.09121367999852,72.5923961199911
0.5,59.9,-60.2073896295507,-0.447311646993705,2163.72072548164,5.09555407863137,72.5919344461244
0.5,59.95,-59.692093160382,-0.447541168666266,2165.63411000386,5.09989466429576,72.5914722667044
0.5,60,-59.2039325855692,-0.447775663121719,2167.54760344489,5.10423543660589,72.5910095873599
0.5,60.05,-58.7409161564711,-0.44801522278841,2169.46120569237,5.10857639517537,72.5905464137223
0.5,60.1,-58.3011374748096,-0.448259932261421,2171.37491663408,5.11291753961727,72.5900827514249
0.5,60.15,-57.8828126994717,-0.448509868220746,2173.28873615789,5.11725886954414,72.589618606103
0.5,60.2,-57.4842952702704,-0.448765099354437,2175.20266415183,5.12160038456809,72.5891539833939
0.5,60.25,-57.1040778888656,-0.449025686286811,2177.11670050402,5.12594208430078,72.5886888889361
0.5,60.3,-56.7407875532802,-0.449291681511769,2179.03084510274,5.13028396835347,72.5882233283695
0.5,60.35,-56.3931770754845,-0.449563129331235,2180.94509783637,5.13462603633707,72.5877573073353
0.5,60.4,-56.0601150894397,-0.449840065798794,2182.85945859342,5.13896828786215,72.5872908314751
0.5,60.45,-55.740575702136,-0.450122518668553,2184.77392726252,5.143310722539,72.5868239064315
0.5,60.5,-55.4336284269514,-0.450410507349354,2186.68850373245,5.14765333997765,72.5863565378476
0.5,60.55,-55.1384287319267,-0.450704042864301,2188.60318789209,5.15199613978791,72.5858887313662
0.5,60.6,-54.8542093540016,-0.451003127815754,2190.51797963047,5.15633912157938,72.5854204926307
0.5,60.65,-54.5802724246829,-0.451307756355848,2192.43287883673,5.16068228496155,72.5849518272838
0.5,60.7,-54.3159823931223,-0.45161791416257,2194.34788540015,5.16502562954376,72.584482740968
0.5,60.75,-54.0607597009146,-0.451933578421534,2196.26299921014,5.16936915493525,72.5840132393251
0.5,60.8,-53.8140751479043,-0.452254717813508,2198.17822015624,5.17371286074523,72.583543327996
0.5,60.85,-53.5754448830676,-0.452581292507804,2200.0935481281,5.17805674658288,72.5830730126204
0.5,60.9,-53.344425954901,-0.452913254161587,2202.00898301554,5.18240081205738,72.5826022988369
0.5,60.95,-53.1206123591625,-0.453250545925246,2203.92452470849,5.18674505677798,72.5821311922824
0.5,61,-52.9036315267056,-0.453593102453924,2205.84017309699,5.19108948035396,72.5816596985922
0.5,61.05,-52.6931411996186,-0.453940849925236,2207.75592807126,5.19543408239473,72.5811878233996
0.5,61.1,-52.4888266493937,-0.454293706063407,2209.67178952163,5.19977886250985,72.5807155723358
0.5,61.15,-52.2903981961038,-0.454651580169799,2211.58775733854,5.20412382030903,72.5802429510295
0.5,61.2,-52.0975889924244,-0.455014373160039,2213.50383141262,5.20846895540216,72.5797699651071
0.5,61.25,-51.9101530407251,-0.455381977607813,2215.42001163458,5.2128142673994,72.579296620192
0.5,61.3,-51.7278634153794,-0.455754277795383,2217.33629789529,5.21715975591114,72.5788229219045
0.5,61.35,-51.5505106659012,-0.456131149771062,2219.25269008577,5.22150542054806,72.5783488758621
0.5,61.4,-51.3779013795657,-0.456512461413601,2221.16918809715,5.22585126092116,72.5778744876786
0.5,61.45,-51.2098568848314,-0.456898072503669,2223.08579182071,5.2301972766418,72.5773997629643
0.5,61.5,-51.0462120792051,-0.457287834802579,2225.00250114787,5.23454346732169,72.5769247073256
0.5,61.55,-50.8868143672169,-0.457681592138195,2226.91931597018,5.23888983257297,72.5764493263651
0.5,61.6,-50.7315226959299,-0.458079180498274,2228.83623617933,5.24323637200819,72.5759736256809
0.5,61.65,-50.5802066769476,-0.458480428131234,2230.75326166716,5.24758308524039,72.575497610867
0.5,61.7,-50.4327457852122,-0.458885155654463,2232.67039232564,5.25192997188307,72.5750212875125
0.5,61.75,-50.2890286260527,-0.459293176170209,2234.58762804687,5.25627703155028,72.574544661202
0.5,61.8,-50.1489522629571,-0.459704295389191,2236.50496872311,5.26062426385657,72.5740677375146
0.5,61.85,-50.0124215994269,-0.460118311761871,2238.42241424676,5.2649716684171,72.5735905220248
0.5,61.9,-49.8793488090522,-0.460535016617561,2240.33996451035,5.26931924484761,72.5731130203013
0.5,61.95,-49.7496528086236,-0.460954194311288,2242.25761940654,5.27366699276448,72.5726352379073
0.5,62,-49.623258769697,-0.461375622378575,2244.17537882817,5.27801491178474,72.5721571804001
0.5,62.05,-49.5000976645549,-0.461799071697977,2246.0932426682,5.28236300152607,72.5716788533312
0.5,62.1,-49.3801058429741,-0.462224306661575,2248.01121081972,5.2867112616069,72.5712002622457
0.5,62.15,-49.2632246366215,-0.462651085353258,2249.92928317598,5.29105969164635,72.5707214126827
0.5,62.2,-49.1493999882671,-0.463079159734862,2251.84745963039,5.29540829126432,72.5702423101742
0.5,62.25,-49.0385821033313,-0.463508275840099,2253.76574007647,5.29975706008149,72.5697629602459
0.5,62.3,-48.9307251215726,-0.463938173976207,2255.68412440791,5.30410599771933,72.5692833684163
0.5,62.35,-48.825786806987,-0.464368588933306,2257.60261251853,5.30845510380015,72.5688035401969
0.5,62.4,-48.7237282542221,-0.464799250201305,2259.52120430231,5.31280437794713,72.5683234810917
0.5,62.45,-48.6245136100229,-0.465229882194316,2261.43989965337,5.3171538197843,72.5678431965975
0.5,62.5,-48.5281098084152,-0.465660204482439,2263.35869846597,5.32150342893662,72.5673626922032
0.5,62.55,-48.4344863185075,-0.466089932030772,2265.27760063454,5.32585320502996,72.5668819733898
0.5,62.6,-48.343614903945,-0.466518775445485,2267.19660605362,5.33020314769116,72.5664010456303
0.5,62.65,-48.2554693931941,-0.466946441226857,2269.11571461793,5.33455325654802,72.5659199143895
0.5,62.7,-48.1700254599615,-0.467372632028925,2271.03492622233,5.33890353122934,72.5654385851237
0.5,62.75,-48.0872604131669,-0.467797046925738,2272.95424076182,5.34325397136495,72.5649570632808
0.5,62.8,-48.0071529959953,-0.468219381683836,2274.87365813157,5.34760457658572,72.5644753542996
0.5,62.85,-47.9296831936445,-0.468639329040732,2276.79317822686,5.35195534652358,72.5639934636103
0.5,62.9,-47.8548320494699,-0.469056578989199,2278.71280094316,5.35630628081155,72.5635113966337
0.5,62.95,-47.7825814892995,-0.469470819066976,2280.63252617608,5.36065737908377,72.5630291587815
0.5,63,-47.7129141537611,-0.469881734651677,2282.55235382137,5.36500864097551,72.5625467554557
0.55,57,-54.0358943639068,-0.426033695390194,2062.34410025681,4.8098667529098,69.5556250753238
0.55,57.05,-54.2552127879458,-0.426332833105669,2064.25620645395,4.81420341399532,69.555001266674
0.55,57.1,-54.4819152605531,-0.426628985623623,2066.16842593862,4.81854031055111,69.5543781869086
0.55,57.15,-54.7160887453817,-0.426922281878894,2068.08075859568,4.82287744196395,69.5537558405884
0.55,57.2,-54.9577943533106,-0.427212852467161,2069.99320430999,4.82721480762305,69.5531342322703
0.55,57.25,-55.207059907422,-0.42750082950364,2071.90576296648,4.83155240692005,69.5525133665075
0.55,57.3,-55.463870706426,-0.427786346480599,2073.81843445011,4.83589023924893,69.5518932478486
0.55,57.35,-55.7281580932733,-0.428069538123881,2075.73121864587,4.84022830400603,69.5512738808381
0.55,57.4,-55.9997853696437,-0.428350540248652,2077.64411543883,4.84456660058991,69.5506552700163
0.55,57.45,-56.2785305319143,-0.428629489614524,2079.55712471407,4.84890512840139,69.550037419919
0.55,57.5,-56.5640652494366,-0.428906523780254,2081.47024635673,4.85324388684343,69.5494203350775
0.55,57.55,-56.8559294774816,-0.429181780958196,2083.383480252,4.85758287532115,69.5488040200187
0.55,57.6,-57.1535011207885,-0.429455399868653,2085.29682628511,4.86192209324172,69.5481884792645
0.55,57.65,-57.4559602788004,-0.429727519594344,2087.21028434134,4.86626154001436,69.5475737173324
0.55,57.7,-57.7622478680863,-0.429998279435082,2089.12385430603,4.87060121505029,69.5469597387348
0.55,57.75,-58.0710189106626,-0.430267818762887,2091.03753606456,4.87494111776264,69.5463465479793
0.55,57.8,-58.3805916003696,-0.43053627687761,2092.95132950236,4.87928124756646,69.5457341495684
0.55,57.85,-58.6888945279253,-0.430803792863288,2094.86523450492,4.88362160387864,69.5451225479996
0.55,57.9,-58.993416261227,-0.431070505445297,2096.77925095778,4.88796218611786,69.5445117477651
0.55,57.95,-59.2911638769047,-0.431336552848493,2098.69337874654,4.89230299370458,69.5439017533519
0.55,58,-59.5786398982131,-0.431602072656418,2100.60761775684,4.89664402606096,69.5432925692417
0.55,58.05,-59.8518499966506,-0.431867201671722,2102.5219678744,4.90098528261083,69.5426841999106
0.55,58.1,-60.1063559093075,-0.432132075777891,2104.43642898497,4.90532676277964,69.5420766498292
0.55,58.15,-60.3373879605665,-0.432396829802425,2106.35100097439,4.90966846599442,69.5414699234626
0.55,58.2,-60.5400276721381,-0.432661597381494,2108.26568372853,4.91401039168371,69.54086402527
0.55,58.25,-60.7094617574502,-0.432926510826246,2110.18047713333,4.91835253927757,69.5402589597049
0.55,58.3,-60.8412941522564,-0.433191700990815,2112.0953810748,4.92269490820748,69.539654731215
0.55,58.35,-60.9318848872674,-0.433457297142098,2114.01039543901,4.92703749790633,69.5390513442419
0.55,58.4,-60.9786687109601,-0.433723426831406,2115.92552011208,4.93138030780836,69.5384488032212
0.55,58.45,-60.9803992660963,-0.433990215768054,2117.84075498019,4.93572333734911,69.5378471125823
0.55,58.5,-60.9372717523146,-0.434257787694935,2119.75609992962,4.9400665859654,69.5372462767484
0.55,58.55,-60.8508987993856,-0.434526264266161,2121.67155484667,4.94441005309527,69.5366463001364
0.55,58.6,-60.7241446297961,-0.43479576492681,2123.58711961774,4.94875373817793,69.5360471871569
0.55,58.65,-60.560851188364,-0.435066406794866,2125.50279412928,4.95309764065374,69.5354489422138
0.55,58.7,-60.3655073277359,-0.435338304545309,2127.41857826781,4.95744175996414,69.5348515697045
0.55,58.75,-60.1429143138048,-0.435611570296537,2129.33447191993,4.96178609555163,69.5342550740199
0.55,58.8,-59.8978902259315,-0.435886313498996,2131.25047497229,4.9661306468597,69.5336594595438
0.55,58.85,-59.6350385849725,-0.436162640826218,2133.16658731162,4.97047541333282,69.5330647306536
0.55,58.9,-59.3585893026711,-0.436440656068142,2135.08280882474,4.97482039441638,69.5324708917196
0.55,58.95,-59.0723070571186,-0.436720460026871,2136.9991393985,4.97916558955664,69.5318779471048
0.55,59,-58.7794548243987,-0.437002150414812,2138.91557891987,4.9835109982007,69.5312859011657
0.55,59.05,-58.4827978203841,-0.437285821755269,2140.83212727586,4.98785661979646,69.5306947582511
0.55,59.1,-58.1846339163065,-0.437571565285475,2142.74878435357,4.99220245379257,69.5301045227029
0.55,59.15,-57.8868390715127,-0.437859468862121,2144.66555004017,4.9965484996384,69.5295151988553
0.55,59.2,-57.5909192846563,-0.43814961686934,2146.58242422291,5.00089475678396,69.5289267910355
0.55,59.25,-57.2980633033867,-0.438442090129255,2148.49940678911,5.00524122467992,69.5283393035629
0.55,59.3,-57.00919254676,-0.438736965815016,2150.41649762618,5.00958790277752,69.5277527407493
0.55,59.35,-56.7250063248263,-0.439034317366381,2152.3336966216,5.01393479052857,69.5271671068989
0.55,59.4,-56.4460215517825,-0.43933421440787,2154.25100366292,5.01828188738534,69.5265824063083
0.55,59.45,-56.1726068534811,-0.439636722669502,2156.1684186378,5.02262919280061,69.5259986432658
0.55,59.5,-55.9050113791948,-0.439941903910077,2158.08594143394,5.02697670622755,69.5254158220523
0.55,59.55,-55.6433888360856,-0.440249815843122,2160.00357193916,5.03132442711974,69.5248339469402
0.55,59.6,-55.3878173450368,-0.440560512065431,2161.92131004134,5.03567235493109,69.5242530221942
0.55,59.65,-55.1383157197049,-0.440874041988234,2163.83915562845,5.04002048911581,69.5236730520706
0.55,59.7,-54.8948567314494,-0.441190450771065,2165.75710858854,5.04436882912838,69.5230940408174
0.55,59.75,-54.6573778633691,-0.441509779258279,2167.67516880976,5.04871737442349,69.5225159926744
0.55,59.8,-54.4257899905721,-0.441832063918307,2169.59333618031,5.05306612445603,69.5219389118728
0.55,59.85,-54.1999843587721,-0.442157336785621,2171.51161058852,5.05741507868102,69.5213628026355
0.55,59.9,-53.9798381734011,-0.442485625405462,2173.42999192278,5.0617642365536,69.5207876691765
0.55,59.95,-53.7652190584266,-0.442816952781384,2175.34848007158,5.06611359752897,69.5202135157014
0.55,60,-53.5559885984037,-0.443151337325561,2177.26707492348,5.07046316106234,69.519640346407
0.55,60.05,-53.3520051386688,-0.443488792812027,2179.18577636715,5.07481292660893,69.519068165481
0.55,60.1,-53.153125986343,-0.443829328332739,2181.10458429134,5.0791628936239,69.5184969771025
0.55,60.15,-52.9592091281537,-0.444172948256621,2183.02349858489,5.08351306156231,69.5179267854414
0.55,60.2,-52.7701145591882,-0.444519652191562,2184.94251913673,5.08786342987912,69.5173575946586
0.55,60.25,-52.585705298803,-0.444869434949434,2186.8616458359,5.09221399802908,69.5167894089056
0.55,60.3,-52.4058481553444,-0.44522228651418,2188.7808785715,5.09656476546678,69.5162222323251
0.55,60.35,-52.2304142895135,-0.445578192013049,2190.70021723275,5.10091573164655,69.51565606905
0.55,60.4,-52.0592796166115,-0.445937131690955,2192.61966170895,5.10526689602244,69.515090923204
0.55,60.45,-51.8923250801459,-0.446299080888123,2194.53921188951,5.10961825804816,69.5145267989014
0.55,60.5,-51.7294368229908,-0.446664010020956,2196.45886766391,5.11396981717711,69.5139637002466
0.55,60.55,-51.570506277217,-0.447031884566346,2198.37862892175,5.11832157286225,69.5134016313348
0.55,60.6,-51.4154301895996,-0.447402665049289,2200.29849555271,5.12267352455616,69.5128405962511
0.55,60.65,-51.2641105964849,-0.447776307034104,2202.21846744659,5.1270256717109,69.5122805990709
0.55,60.7,-51.1164547590177,-0.448152761119083,2204.13854449326,5.13137801377808,69.5117216438598
0.55,60.75,-50.9723750675504,-0.448531972934855,2206.0587265827,5.13573055020872,69.5111637346732
0.55,60.8,-50.8317889223021,-0.448913883146392,2207.979013605,5.1400832804533,69.5106068755567
0.55,60.85,-50.6946185959127,-0.449298427458804,2209.89940545033,5.14443620396166,69.5100510705456
0.55,60.9,-50.5607910823868,-0.449685536626961,2211.81990200898,5.14878932018302,69.5094963236651
0.55,60.95,-50.4302379359949,-0.450075136469051,2213.74050317133,5.15314262856589,69.5089426389301
0.55,61,-50.3028951029492,-0.450467147884109,2215.66120882786,5.15749612855807,69.5083900203449
