"W_line [mm]","Freq [GHz]","dB(S(1,1)) []","dB(S(2,1)) []","im(Gamma(1)) []","re(Gamma(1)) []","re(Zo(1)) []"
0.5,37,-13.6704610176046,-1.45542893633287,1386.30187027353,3.25987275930839,110.799623006768
0.5,37.05,-13.6753631422458,-1.45866389545671,1388.28744801051,3.26433458782257,110.831493209378
0.5,37.1,-13.6774945908546,-1.46226162381391,1390.27318108931,3.26879554801953,110.863374074486
0.5,37.15,-13.6767089135762,-1.46625483442886,1392.259068887,3.27325563929741,110.895265414108
0.5,37.2,-13.6728653456609,-1.47067800860771,1394.24511078258,3.27771486107679,110.92716704097
0.5,37.25,-13.6658289676584,-1.4755675212264,1396.23130615693,3.28217321280053,110.959078768505
0.5,37.3,-13.6554708380093,-1.48096177743307,1398.21765439282,3.28663069393367,110.991000410857
0.5,37.35,-13.6416680999705,-1.48690136191385,1400.20415487492,3.29108730396332,111.022931782881
0.5,37.4,-13.6243040647606,-1.49342920199722,1402.19080698981,3.29554304239854,111.054872700141
0.5,37.45,-13.6032682727902,-1.50059074601108,1404.17761012594,3.29999790877019,111.086822978916
0.5,37.5,-13.5784565348546,-1.50843415845978,1406.16456367366,3.30445190263079,111.118782436194
0.5,37.55,-13.5497709552301,-1.51701053375571,1408.15166702523,3.30890502355441,111.150750889679
0.5,37.6,-13.5171199387316,-1.52637413042339,1410.13891957478,3.31335727113649,111.182728157786
0.5,37.65,-13.4804181839696,-1.53658262789321,1412.12632071834,3.31780864499375,111.214714059647
0.5,37.7,-13.4395866652902,-1.54769740821721,1414.11386985384,3.32225914476399,111.246708415107
0.5,37.75,-13.394552606207,-1.55978386527137,1416.10156638109,3.32670877010594,111.278711044725
0.5,37.8,-13.3452494475273,-1.57291174425462,1418.08940970177,3.33115752069915,111.310721769778
0.5,37.85,-13.2916168138564,-1.5871555145543,1420.07739921949,3.33560539624379,111.342740412256
0.5,37.9,-13.2336004827299,-1.60259477931591,1422.06553433971,3.34005239646053,111.374766794869
0.5,37.95,-13.1711523612713,-1.61931472532577,1424.05381446978,3.34449852109034,111.406800741041
0.5,38,-13.1042304760213,-1.63740661708138,1426.04223901895,3.34894376989435,111.438842074912
0.5,38.05,-13.0327989824246,-1.65696833917077,1428.03080739834,3.35338814265371,111.470890621341
0.5,38.1,-12.956828201405,-1.67810499129273,1430.01951902095,3.35783163916938,111.502946205904
0.5,38.15,-12.8762946915101,-1.70092954039774,1432.00837330167,3.36227425926201,111.535008654894
0.5,38.2,-12.7911813662809,-1.72556353447931,1433.99736965726,3.36671600277175,111.56707779532
0.5,38.25,-12.7014776677887,-1.75213788244888,1435.98650750635,3.37115686955809,111.599153454913
0.5,38.3,-12.6071798087142,-1.78079370421698,1437.97578626945,3.37559685949968,111.631235462118
0.5,38.35,-12.5082910969074,-1.81168325448895,1439.96520536895,3.38003597249422,111.663323646099
0.5,38.4,-12.404822358088,-1.84497092274234,1441.9547642291,3.38447420845822,111.695417836739
0.5,38.45,-12.2967924742127,-1.88083431022032,1443.94446227603,3.38891156732687,111.727517864637
0.5,38.5,-12.1842290570619,-1.91946538232944,1445.93429893774,3.3933480490539,111.759623561111
0.5,38.55,-12.0671692787625,-1.96107169127482,1447.92427364408,3.39778365361136,111.791734758197
0.5,38.6,-11.9456608832501,-2.00587765870595,1449.91438582676,3.4022183809895,111.823851288648
0.5,38.65,-11.8197634050414,-2.05412590105563,1451.90463491939,3.40665223119659,111.855972985934
0.5,38.7,-11.6895496240645,-2.10607857043616,1453.8950203574,3.41108520425874,111.888099684245
0.5,38.75,-11.5551072875746,-2.16201867048891,1455.88554157809,3.41551730021977,111.920231218486
0.5,38.8,-11.4165411322152,-2.22225128825316,1457.87619802062,3.41994851914102,111.952367424278
0.5,38.85,-11.2739752408329,-2.287104658341,1459.866989126,3.42437886110121,111.984508137962
0.5,38.9,-11.1275557694126,-2.35693094241463,1461.8579143371,3.42880832619626,112.016653196594
0.5,38.95,-10.9774540790317,-2.43210656250206,1463.84897309862,3.43323691453916,112.048802437944
0.5,39,-10.8238703054658,-2.51303186767649,1465.84016485713,3.43766462625977,112.080955700502
0.5,39.05,-10.6670373942632,-2.60012983582748,1467.83148906102,3.4420914615047,112.11311282347
0.5,39.1,-10.5072256207727,-2.69384341049409,1469.82294516055,3.44651742043715,112.145273646767
0.5,39.15,-10.3447476015756,-2.79463094090501,1471.8145326078,3.45094250323673,112.177438011026
0.5,39.2,-10.1799637845691,-2.90295902467964,1473.80625085668,3.45536671009933,112.209605757595
0.5,39.25,-10.0132883779027,-3.0192918402654,1475.79809936296,3.45979004123698,112.241776728535
0.5,39.3,-9.8451956411983,-3.14407579475255,1477.79007758422,3.46421249687767,112.27395076662
0.5,39.35,-9.67622641406835,-3.27771800118862,1479.78218497988,3.4686340772652,112.306127715339
0.5,39.4,-9.50699469516162,-3.42055674646551,1481.7744210112,3.4730547826591,112.338307418891
0.5,39.45,-9.3381940086422,-3.57282174345845,1483.76678514123,3.47747461333438,112.370489722188
0.5,39.5,-9.17060320416604,-3.73458163997422,1485.75927683487,3.48189356958148,112.402674470852
0.5,39.55,-9.0050912330079,-3.90567609910173,1487.75189555883,3.48631165170606,112.434861511216
0.5,39.6,-8.84262033192672,-4.08562997644455,1489.74464078164,3.49072886002891,112.467050690325
0.5,39.65,-8.68424693664074,-4.27354803460666,1491.73751197364,3.49514519488578,112.49924185593
0.5,39.7,-8.53111955255871,-4.46799075703367,1493.73050860698,3.49956065662726,112.531434856493
0.5,39.75,-8.38447275162142,-4.66683582769365,1495.72363015562,3.50397524561863,112.563629541181
0.5,39.8,-8.24561646618418,-4.86713648488484,1497.71687609532,3.50838896223975,112.595825759872
0.5,39.85,-8.11591984284441,-5.06499776097304,1499.71024590365,3.51280180688489,112.628023363148
0.5,39.9,-7.99678912946956,-5.25550420501175,1501.70373905998,3.51721377996264,112.660222202296
0.5,39.95,-7.88963941858013,-5.43274565726632,1503.69735504546,3.52162488189576,112.69242212931
0.5,40,-7.79586056459852,-5.58999533646351,1505.69109334306,3.52603511312107,112.724622996886
0.5,40.05,-7.7167782102674,-5.72008764504182,1507.68495343752,3.53044447408929,112.756824658424
0.5,40.1,-7.65361154438518,-5.81601143130081,1509.67893481536,3.53485296526496,112.789026968027
0.5,40.15,-7.6074300798216,-5.87167396077016,1511.67303696492,3.5392605871263,112.821229780497
0.5,40.2,-7.57911227227495,-5.88271382626794,1513.66725937628,3.54366734016506,112.85343295134
0.5,40.25,-7.56930907487889,-5.847180391986,1515.66160154132,3.54807322488648,112.885636336759
0.5,40.3,-7.57841544276725,-5.76589417519835,1517.65606295369,3.55247824180909,112.917839793656
0.5,40.35,-7.60655231985655,-5.64237691777007,1519.65064310882,3.55688239146465,112.950043179631
0.5,40.4,-7.65356078796907,-5.48236746314568,1521.64534150388,3.56128567439801,112.982246352981
0.5,40.45,-7.71900894592387,-5.29305983915072,1523.64015763785,3.56568809116701,113.014449172699
0.5,40.5,-7.80221088322056,-5.08225780003666,1525.63509101143,3.57008964234236,113.046651498471
0.5,40.55,-7.90225601080176,-4.85762092231475,1527.6301411271,3.57449032850758,113.078853190677
0.5,40.6,-8.01804617751752,-4.62610842823078,1529.62530748909,3.5788901502588,113.111054110392
0.5,40.65,-8.14833754117478,-4.39364990238973,1531.62058960339,3.58328910820477,113.14325411938
0.5,40.7,-8.29178410351815,-4.16501620851753,1533.61598697772,3.58768720296665,113.175453080095
0.5,40.75,-8.44698011028504,-3.94383751682142,1535.61149912156,3.59208443517799,113.207650855683
0.5,40.8,-8.61249905973116,-3.73271229826541,1537.60712554613,3.59648080548459,113.239847309974
0.5,40.85,-8.78692773384147,-3.53336084209949,1539.60286576439,3.60087631454443,113.27204230749
0.5,40.9,-8.96889435157237,-3.34679056445289,1541.59871929103,3.60527096302752,113.304235713434
0.5,40.95,-9.15709055562789,-3.17345305720828,1543.59468564247,3.60966475161587,113.336427393696
0.5,41,-9.35028743102223,-3.01338250464549,1545.59076433686,3.61405768100336,113.36861721485
0.55,37,-15.9415884037055,-0.977108649312406,1391.91355357621,3.26093271512729,113.398084124457
0.55,37.05,-15.8964653353377,-0.982636335941902,1393.90891769254,3.26532352243359,113.431570315556
0.55,37.1,-15.8477832917893,-0.988856049259252,1395.90440889613,3.269713390815,113.465050192007
0.55,37.15,-15.7955736110883,-0.995790914402363,1397.90002658544,3.27410232126572,113.498523580587
0.55,37.2,-15.7398597907521,-1.00346628404175,1399.89577016134,3.27849031479454,113.531990309135
0.55,37.25,-15.6806579702112,-1.01190995001776,1401.8916390271,3.28287737242462,113.565450206551
0.55,37.3,-15.6179773835282,-1.02115237567772,1403.88763258842,3.28726349519327,113.598903102797
0.55,37.35,-15.5518207841563,-1.03122695125782,1405.88375025337,3.29164868415179,113.632348828886
0.55,37.4,-15.4821848448475,-1.04217027492785,1407.87999143244,3.2960329403652,113.66578721689
0.55,37.45,-15.4090605368421,-1.05402246241935,1409.87635553848,3.3004162649121,113.699218099928
0.55,37.5,-15.3324334932639,-1.06682748848926,1411.87284198674,3.30479865888445,113.732641312169
0.55,37.55,-15.2522843623288,-1.08063356383488,1413.86945019482,3.30918012338737,113.766056688826
0.55,37.6,-15.1685891566123,-1.09549355146944,1415.86617958272,3.31356065953895,113.799464066157
0.55,37.65,-15.0813196052824,-1.1114654269905,1417.86302957276,3.31794026847006,113.832863281458
0.55,37.7,-14.9904435169312,-1.1286127876213,1419.85999958964,3.32231895132417,113.866254173064
0.55,37.75,-14.8959251614797,-1.14700541537015,1421.85708906041,3.32669670925715,113.899636580345
0.55,37.8,-14.7977256806261,-1.16671990012318,1423.85429741446,3.3310735434371,113.9330103437
0.55,37.85,-14.6958035374875,-1.18784032894228,1425.8516240835,3.33544945504414,113.96637530456
0.55,37.9,-14.5901150175085,-1.21045904825318,1427.84906850157,3.33982444527027,113.999731305381
0.55,37.95,-14.480614794395,-1.23467750593704,1429.84663010506,3.34419851531916,114.033078189642
0.55,38,-14.3672565768478,-1.26060718052167,1431.84430833265,3.34857166640599,114.066415801843
0.55,38.05,-14.2499938542507,-1.28837060461859,1433.84210262533,3.35294389975728,114.099743987502
0.55,38.1,-14.1287807622744,-1.31810248934814,1435.84001242641,3.35731521661072,114.13306259315
0.55,38.15,-14.0035730926481,-1.34995095556637,1437.83803718148,3.36168561821497,114.166371466332
0.55,38.2,-13.87432947518,-1.38407887601751,1439.83617633844,3.36605510582954,114.199670455599
0.55,38.25,-13.7410127645365,-1.42066532975746,1441.83442934744,3.37042368072462,114.232959410509
0.55,38.3,-13.6035916693744,-1.45990716587704,1443.83279566093,3.37479134418088,114.266238181623
0.55,38.35,-13.4620426671865,-1.50202066708273,1445.83127473365,3.37915809748935,114.299506620503
0.55,38.4,-13.3163522546929,-1.54724329422705,1447.82986602256,3.38352394195125,114.332764579704
0.55,38.45,-13.1665195907463,-1.59583547928079,1449.82856898692,3.38788887887783,114.366011912777
0.55,38.5,-13.0125595964175,-1.64808241496531,1451.82738308821,3.39225290959024,114.399248474264
0.55,38.55,-12.8545065849839,-1.70429576224942,1453.82630779017,3.39661603541936,114.432474119693
0.55,38.6,-12.692418502575,-1.7648151594106,1455.82534255878,3.40097825770565,114.465688705577
0.55,38.65,-12.526381867664,-1.83000936473415,1457.82448686223,3.40533957779903,114.498892089411
0.55,38.7,-12.3565175034921,-1.90027679445066,1459.82374017098,3.40969999705871,114.532084129665
0.55,38.75,-12.1829871605463,-1.97604512214257,1461.82310195765,3.41405951685306,114.565264685789
0.55,38.8,-12.0060011244192,-2.05776947803481,1463.82257169713,3.41841813855949,114.598433618199
0.55,38.85,-11.8258268950811,-2.14592861723985,1465.82214886647,3.42277586356429,114.631590788284
0.55,38.9,-11.6427990031082,-2.24101820485743,1467.82183294494,3.42713269326248,114.664736058395
0.55,38.95,-11.4573299919414,-2.34354008235324,1469.821623414,3.43148862905774,114.697869291849
0.55,39,-11.2699225367022,-2.45398602555999,1471.82151975729,3.43584367236221,114.730990352918
0.55,39.05,-11.0811825821127,-2.5728140785976,1473.82152146063,3.44019782459641,114.764099106832
0.55,39.1,-10.8918332563213,-2.70041506435362,1475.82162801203,3.44455108718909,114.797195419772
0.55,39.15,-10.7027291454199,-2.83706637622255,1477.82183890162,3.44890346157711,114.830279158869
0.55,39.2,-10.5148702880254,-2.98286974874863,1479.82215362175,3.45325494920532,114.8633501922
0.55,39.25,-10.3294149674197,-3.13766958146769,1481.82257166686,3.45760555152641,114.896408388784
0.55,39.3,-10.1476900454644,-3.30094889076123,1483.82309253358,3.46195527000084,114.92945361858
0.55,39.35,-9.97119721656329,-3.47170163291921,1485.82371572066,3.46630410609667,114.962485752482
0.55,39.4,-9.80161320036868,-3.64828376361342,1487.82444072899,3.47065206128945,114.995504662316
0.55,39.45,-9.64078160427882,-3.82825195125228,1489.82526706156,3.47499913706213,115.028510220839
0.55,39.5,-9.49069406637167,-4.00820923878535,1491.82619422351,3.47934533490488,115.061502301734
0.55,39.55,-9.3534584570225,-4.18369126824998,1493.82722172208,3.483690656315,115.094480779605
0.55,39.6,-9.23125250234734,-4.34914299805391,1495.8283490666,3.4880351027968,115.127445529976
0.55,39.65,-9.12626229872323,-4.49804843162454,1497.82957576851,3.49237867586146,115.160396429287
0.55,39.7,-9.04060684341923,-4.62327418885294,1499.83090134134,3.49672137702689,115.19333335489
0.55,39.75,-8.97625180845162,-4.71765847281207,1501.83232530071,3.50106320781762,115.226256185047
0.55,39.8,-8.93491805731508,-4.77481198887052,1503.83384716429,3.50540416976462,115.259164798924
0.55,39.85,-8.91799240433106,-4.79000674506012,1505.83546645184,3.5097442644052,115.292059076591
0.55,39.9,-8.92644931086725,-4.76094921502111,1507.83718268519,3.51408349328281,115.324938899015
0.55,39.95,-8.96079212701715,-4.68821798167343,1509.83899538821,3.51842185794693,115.357804148061
0.55,40,-9.02102088612922,-4.57522392613335,1511.84090408681,3.52275935995283,115.390654706484
0.55,40.05,-9.10663068411957,-4.42769954082045,1513.84290830896,3.52709600086145,115.423490457927
0.55,40.1,-9.21664086062037,-4.25287026606594,1515.84500758465,3.53143178223915,115.45631128692
0.55,40.15,-9.34965133795996,-4.05853337607955,1517.84720144591,3.53576670565753,115.489117078874
0.55,40.2,-9.50391937454877,-3.85224784492655,1519.84948942677,3.54010077269318,115.521907720076
0.55,40.25,-9.67744822367443,-3.64075517676604,1521.85187106328,3.54443398492741,115.554683097692
0.55,40.3,-9.86807894311931,-3.42965886489903,1523.85434589351,3.54876634394599,115.587443099755
0.55,40.35,-10.073577676078,-3.22332519352037,1525.85691345749,3.55309785133879,115.620187615169
0.55,40.4,-10.2917126623537,-3.02493975864347,1527.85957329726,3.55742850869951,115.6529165337
0.55,40.45,-10.5203175057097,-2.83665363019271,1529.86232495686,3.56175831762522,115.685629745977
0.55,40.5,-10.7573393606367,-2.6597668745202,1531.86516798226,3.56608727971595,115.718327143483
0.55,40.55,-11.0008724142024,-2.49491451816004,1533.86810192144,3.57041539657422,115.751008618558
0.55,40.6,-11.2491782052997,-2.34223518012211,1535.8711263243,3.57474266980446,115.783674064392
0.55,40.65,-11.5006949612537,-2.20151357074262,1537.87424074271,3.57906910101244,115.81632337502
0.55,40.7,-11.7540383387421,-2.07229498304225,1539.87744473047,3.58339469180455,115.848956445321
0.55,40.75,-12.0079958608293,-1.95397371797218,1541.88073784333,3.58771944378701,115.881573171016
0.55,40.8,-12.2615170673872,-1.84585911028006,1543.88411963894,3.59204335856503,115.914173448659
0.55,40.85,-12.5137010407809,-1.74722328866973,1545.88758967688,3.59636643774176,115.946757175639
0.55,40.9,-12.7637826011581,-1.6573345956793,1547.89114751865,3.6006886829172,115.979324250173
0.55,40.95,-13.011118127676,-1.57548007891423,1549.89479272761,3.60501009568688,116.011874571305
0.55,41,-13.2551716741175,-1.50097986046171,1551.89852486904,3.60933067764043,116.044408038901
0.6,37,-17.3768225043628,-0.814786693560046,1397.59509669049,3.22865972486044,113.869133829921
0.6,37.05,-17.3078615583966,-0.825193511108737,1399.59642092329,3.2329848349867,113.902307694768
0.6,37.1,-17.235483743203,-0.836256228185685,1401.59784611538,3.23730909600082,113.935459752657
0.6,37.15,-17.159639130459,-0.848010834781283,1403.59937173314,3.241632509689,113.968589875605
0.6,37.2,-17.0802751840408,-0.860496488086445,1405.60099724555,3.2459550778428,114.00169793683
0.6,37.25,-16.9973367987154,-0.87375582191479,1407.60272212409,3.25027680225897,114.034783810744
0.6,37.3,-16.9107663657953,-0.887835288726486,1409.60454584279,3.25459768473932,114.067847372948
0.6,37.35,-16.8205038703334,-0.902785537827673,1411.60646787819,3.2589177270906,114.100888500228
0.6,37.4,-16.7264870253357,-0.918661833655463,1413.60848770935,3.26323693112434,114.133907070549
0.6,37.45,-16.6286514495365,-0.935524518397208,1415.61060481781,3.26755529865671,114.166902963052
0.6,37.5,-16.5269308965423,-0.953439523520501,1417.61281868761,3.27187283150843,114.199876058049
0.6,37.55,-16.4212575446552,-0.972478935086056,1419.61512880527,3.27618953150458,114.232826237015
0.6,37.6,-16.3115623584554,-0.992721617948749,1421.61753465979,3.28050540047452,114.265753382587
0.6,37.65,-16.1977755353224,-1.01425390407885,1423.62003574259,3.28482044025171,114.298657378556
0.6,37.7,-16.0798270525497,-1.03717035019336,1425.62263154757,3.28913465267366,114.331538109863
0.6,37.75,-15.9576473336216,-1.06157456958909,1427.62532157107,3.2934480395817,114.364395462594
0.6,37.8,-15.8311680556508,-1.08758014239278,1429.62810531184,3.29776060282095,114.397229323975
0.6,37.85,-15.7003231239915,-1.11531160721976,1431.63098227105,3.30207234424015,114.430039582364
0.6,37.9,-15.5650498447319,-1.14490553522919,1433.63395195229,3.30638326569154,114.46282612725
0.6,37.95,-15.4252903312209,-1.17651168446081,1435.63701386155,3.31069336903074,114.495588849243
0.6,38,-15.2809931870761,-1.21029422769972,1437.64016750718,3.31500265611666,114.528327640073
0.6,38.05,-15.1321155153325,-1.24643304034917,1439.64341239994,3.31931112881134,114.56104239258
0.6,38.1,-14.9786253115604,-1.28512502509555,1441.64674805294,3.32361878897987,114.593733000712
0.6,38.15,-14.8205043079264,-1.32658543644546,1443.65017398166,3.32792563849024,114.626399359518
0.6,38.2,-14.6577513451947,-1.37104914906247,1445.65368970392,3.33223167921326,114.659041365141
0.6,38.25,-14.4903863603873,-1.41877178731822,1447.65729473987,3.33653691302243,114.691658914816
0.6,38.3,-14.3184550888387,-1.47003059709465,1449.660988612,3.34084134179383,114.724251906861
0.6,38.35,-14.1420345900357,-1.52512489138305,1451.66477084512,3.34514496740603,114.75682024067
0.6,38.4,-13.9612397158466,-1.58437583450052,1453.66864096634,3.34944779173995,114.789363816713
0.6,38.45,-13.7762306458899,-1.64812524067878,1455.67259850508,3.35374981667876,114.821882536524
0.6,38.5,-13.5872216154422,-1.71673294529736,1457.67664299304,3.35805104410782,114.854376302699
0.6,38.55,-13.3944909529997,-1.79057215433616,1459.6807739642,3.3623514759145,114.886845018889
0.6,38.6,-13.1983925225871,-1.87002198292768,1461.6849909548,3.36665111398814,114.919288589794
0.6,38.65,-12.9993686237426,-1.95545615205041,1463.68929350336,3.37094996021991,114.951706921155
0.6,38.7,-12.7979643314755,-2.04722652304675,1465.69368115064,3.37524801650274,114.984099919753
0.6,38.75,-12.5948431491489,-2.14563982283297,1467.69815343964,3.37954528473121,115.016467493399
0.6,38.8,-12.3908036873067,-2.25092557842248,1469.70270991558,3.38384176680141,115.048809550929
0.6,38.85,-12.1867968585155,-2.36319300285176,1471.70735012592,3.38813746461093,115.081126002198
0.6,38.9,-11.9839427815449,-2.48237447832271,1473.71207362032,3.39243238005869,115.113416758073
0.6,38.95,-11.7835462124832,-2.60815357577456,1475.71687995064,3.39672651504487,115.145681730431
0.6,39,-11.5871088722221,-2.73987656146675,1477.72176867094,3.40101987147081,115.177920832148
0.6,39.05,-11.3963365460136,-2.87644853685135,1479.72673933745,3.40531245123895,115.210133977095
