"W_line [mm]","Freq [GHz]","dB(S(1,1)) []","dB(S(2,1)) []","im(Gamma(1)) []","re(Gamma(1)) []","re(Zo(1)) []"
0.5,37,-16.0355395869958,-1.32900030714581,1467.36902942252,3.52079033746847,90.7234373514194
0.5,37.05,-16.4722422453153,-1.25361020719729,1469.36448626154,3.52522982564265,90.7305541420618
0.5,37.1,-16.9069213141157,-1.18422417013669,1471.35995529333,3.5296689650271,90.7376612775426
0.5,37.15,-17.3374841306571,-1.12091902053637,1473.35543645924,3.5341077560555,90.7447587616462
0.5,37.2,-17.7623764918576,-1.06360189799586,1475.35092970086,3.538546199162,90.7518465982356
0.5,37.25,-18.1804713942048,-1.01204318997193,1477.34643496001,3.54298429478115,90.7589247912522
0.5,37.3,-18.5909750525002,-0.965912116533819,1479.34195217875,3.54742204334793,90.7659933447147
0.5,37.35,-18.9933496454249,-0.924811050441364,1481.33748129938,3.55185944529764,90.7730522627188
0.5,37.4,-19.3872510114721,-0.888305895929539,1483.33302226442,3.55629650106595,90.7801015494363
0.5,37.45,-19.7724790828977,-0.855951079986348,1485.32857501664,3.5607332110888,90.7871412091145
0.5,37.5,-20.1489388422416,-0.827308726406439,1487.32413949903,3.56516957580244,90.7941712460754
0.5,37.55,-20.516609792966,-0.801962301436919,1489.31971565483,3.56960559564337,90.8011916647156
0.5,37.6,-20.8755222231644,-0.779525445231359,1491.31530342748,3.57404127104829,90.8082024695048
0.5,37.65,-21.2257388392077,-0.759646889842816,1493.31090276068,3.57847660245413,90.8152036649859
0.5,37.7,-21.5673406206981,-0.742012382943912,1495.30651359835,3.582911590298,90.822195255774
0.5,37.75,-21.900415985775,-0.726344453334165,1497.30213588463,3.58734623501716,90.8291772465557
0.5,37.8,-22.2250525540398,-0.712400721848631,1499.2977695639,3.591780537049,90.8361496420889
0.5,37.85,-22.541330955793,-0.699971315422991,1501.29341458076,3.59621449683103,90.8431124472015
0.5,37.9,-22.8493202656043,-0.688875804364513,1503.28907088004,3.60064811480086,90.8500656667915
0.5,37.95,-23.1490747406151,-0.678959964132147,1505.28473840681,3.60508139139616,90.8570093058258
0.5,38,-23.4406316241739,-0.67009256679253,1507.28041710633,3.60951432705468,90.8639433693398
0.5,38.05,-23.7240098375015,-0.662162333221748,1509.27610692412,3.61394692221419,90.870867862437
0.5,38.1,-23.999209429387,-0.655075122371358,1511.27180780591,3.61837917731248,90.877782790288
0.5,38.15,-24.2662116890158,-0.648751395039687,1513.26751969764,3.62281109278735,90.8846881581301
0.5,38.2,-24.5249798519164,-0.643123963113747,1515.26324254549,3.6272426690766,90.8915839712669
0.5,38.25,-24.7754603451917,-0.638136018086435,1517.25897629587,3.63167390661799,90.8984702350672
0.5,38.3,-25.0175845268596,-0.63373942225479,1519.25472089538,3.63610480584925,90.9053469549648
0.5,38.35,-25.2512708762586,-0.629893240356017,1521.25047629087,3.64053536720803,90.912214136458
0.5,38.4,-25.4764275890073,-0.626562486973818,1523.24624242939,3.64496559113197,90.9190717851085
0.5,38.45,-25.692955521936,-0.623717064726744,1525.24201925821,3.64939547805857,90.9259199065413
0.5,38.5,-25.9007514218837,-0.621330869231095,1527.23780672483,3.65382502842527,90.932758506444
0.5,38.55,-26.0997113586326,-0.619381038555331,1529.23360477696,3.65825424266942,90.9395875905661
0.5,38.6,-26.2897342681322,-0.61784732697382,1531.22941336253,3.66268312122823,90.9464071647186
0.5,38.65,-26.4707254993428,-0.616711585037872,1533.22523242967,3.66711166453882,90.9532172347733
0.5,38.7,-26.6426002483749,-0.615957330156773,1535.22106192675,3.67153987303816,90.9600178066622
0.5,38.75,-26.8052867589536,-0.615569393929973,1537.21690180233,3.67596774716309,90.9668088863772
0.5,38.8,-26.9587291701332,-0.615533634345326,1539.2127520052,3.6803952873503,90.9735904799691
0.5,38.85,-27.1028899017126,-0.61583670263749,1541.20861248436,3.68482249403633,90.9803625935477
0.5,38.9,-27.237751485307,-0.61646585608285,1543.20448318902,3.68924936765756,90.9871252332806
0.5,38.95,-27.3633177740716,-0.617408809301324,1545.20036406859,3.69367590865021,90.9938784053929
0.5,39,-27.4796144952648,-0.618653617755093,1547.19625507271,3.69810211745032,91.0006221161669
0.5,39.05,-27.5866891450178,-0.620188588097173,1549.19215615122,3.70252799449377,91.0073563719411
0.5,39.1,-27.6846102610274,-0.622002210846259,1551.18806725416,3.70695354021624,91.01408117911
0.5,39.15,-27.7734661432857,-0.624083111566172,1553.18398833181,3.71137875505324,91.0207965441236
0.5,39.2,-27.8533631223593,-0.626420017324486,1555.17991933461,3.7158036394401,91.0275024734865
0.5,39.25,-27.924423496506,-0.629001735710408,1557.17586021324,3.72022819381193,91.0341989737578
0.5,39.3,-27.9867832712489,-0.631817144119926,1559.17181091859,3.72465241860369,91.0408860515504
0.5,39.35,-28.0405898370952,-0.634855187377899,1561.16777140173,3.72907631425011,91.0475637135305
0.5,39.4,-28.0859997131353,-0.638104882072467,1563.16374161396,3.73349988118574,91.0542319664169
0.5,39.45,-28.1231764675634,-0.641555326235256,1565.15972150676,3.73792311984494,91.0608908169809
0.5,39.5,-28.1522889027722,-0.645195713218843,1567.15571103184,3.74234603066187,91.0675402720454
0.5,39.55,-28.1735095651693,-0.649015348807063,1569.15171014108,3.74676861407049,91.0741803384847
0.5,39.6,-28.1870136109438,-0.65300367074916,1571.14771878659,3.75119087050456,91.0808110232235
0.5,39.65,-28.1929780312705,-0.65715027004039,1573.14373692067,3.75561280039766,91.0874323332373
0.5,39.7,-28.1915812160034,-0.661444913382577,1575.13976449582,3.76003440418317,91.0940442755509
0.5,39.75,-28.1830028153484,-0.665877566352298,1577.13580146475,3.76445568229428,91.1006468572387
0.5,39.8,-28.16742384521,-0.670438416883785,1579.13184778034,3.76887663516397,91.1072400854235
0.5,39.85,-28.1450269741093,-0.67511789874099,1581.1279033957,3.77329726322508,91.1138239672769
0.5,39.9,-28.1159969274538,-0.679906714710323,1583.12396826413,3.77771756691023,91.1203985100179
0.5,39.95,-28.0805209477349,-0.68479585929376,1585.12004233911,3.78213754665187,91.1269637209131
0.5,40,-28.0387892559014,-0.689776640723044,1587.11612557434,3.78655720288228,91.1335196072758
0.5,40.05,-27.990995468534,-0.694840702150173,1589.11221792369,3.79097653603356,91.1400661764659
0.5,40.1,-27.9373369363535,-0.699980041898789,1591.10831934125,3.79539554653765,91.1466034358889
0.5,40.15,-27.8780149809808,-0.705187032685774,1593.10442978129,3.79981423482633,91.1531313929963
0.5,40.2,-27.8132350178284,-0.710454439743259,1595.10054919826,3.80423260133122,91.1596500552841
0.5,40.25,-27.7432065628721,-0.715775437788926,1597.09667754684,3.80865064648379,91.1661594302931
0.5,40.3,-27.6681431293656,-0.721143626807126,1599.09281478186,3.81306837071537,91.1726595256081
0.5,40.35,-27.5882620270728,-0.726553046615919,1601.08896085837,3.81748577445713,91.1791503488578
0.5,40.4,-27.5037840812295,-0.731998190205275,1603.0851157316,3.82190285814015,91.1856319077137
0.5,40.45,-27.4149332912804,-0.73747401584039,1605.08127935697,3.82631962219534,91.1921042098904
0.5,40.5,-27.321936450649,-0.742975957931032,1607.07745169009,3.83073606705354,91.1985672631446
0.5,40.55,-27.2250227486225,-0.74849993667361,1609.07363268675,3.83515219314543,91.205021075275
0.5,40.6,-27.1244233741512,-0.754042366477378,1611.06982230295,3.83956800090164,91.2114656541216
0.5,40.65,-27.020371139249,-0.75960016318979,1613.06602049485,3.84398349075267,91.2179010075656
0.5,40.7,-26.9131001370041,-0.765170750139013,1615.06222721881,3.84839866312894,91.2243271435286
0.5,40.75,-26.8028454461969,-0.770752063013766,1617.05844243138,3.85281351846081,91.2307440699725
0.5,40.8,-26.6898428913819,-0.77634255360232,1619.05466608928,3.85722805717857,91.2371517948988
0.5,40.85,-26.5743288641621,-0.781941192413635,1621.05089814942,3.86164227971244,91.2435503263483
0.5,40.9,-26.4565402084034,-0.787547470204336,1623.04713856891,3.8660561864926,91.2499396724007
0.5,40.95,-26.3367141693615,-0.793161398435623,1625.04338730502,3.8704697779492,91.2563198411743
0.5,41,-26.2150884041869,-0.798783508684393,1627.03964431522,3.87488305451236,91.2626908408254
0.55,37,-19.9408035415375,-0.859266129704667,1466.85583095001,3.47257446575327,90.3856375588744
0.55,37.05,-20.4737413486741,-0.831553387079359,1468.85252818602,3.47697817336879,90.392850258084
0.55,37.1,-20.9914278593714,-0.805869743147542,1470.84923654526,3.48138153721004,90.4000517918272
0.55,37.15,-21.4917649395241,-0.782130698843279,1472.84595596522,3.4857845578004,90.4072421696616
0.55,37.2,-21.9736596307735,-0.760252015602238,1474.84268638372,3.49018723566178,90.4144214012122
0.55,37.25,-22.4367087709146,-0.740149952485592,1476.83942773886,3.49458957131459,90.42158949617
0.55,37.3,-22.8809716027021,-0.721741487307622,1478.836179969,3.49899156527785,90.4287464642917
0.55,37.35,-23.306808772125,-0.704944521275986,1480.83294301284,3.50339321806915,90.4358923153989
0.55,37.4,-23.7147698027147,-0.68967806687942,1482.82971680932,3.50779453020468,90.4430270593773
0.55,37.45,-24.1055152577973,-0.675862418963789,1484.82650129769,3.5121955021993,90.4501507061762
0.55,37.5,-24.4797634089446,-0.66341930912275,1486.82329641747,3.51659613456652,90.4572632658079
0.55,37.55,-24.8382540730304,-0.652272043692337,1488.82010210849,3.52099642781855,90.4643647483467
0.55,37.6,-25.1817244066805,-0.642345625780266,1490.81691831083,3.52539638246631,90.4714551639286
0.55,37.65,-25.5108929892444,-0.633566861880161,1492.81374496486,3.52979599901948,90.4785345227503
0.55,37.7,-25.8264496244837,-0.625864453719514,1494.81058201124,3.53419527798649,90.485602835069
0.55,37.75,-26.1290490663566,-0.619169076068847,1496.8074293909,3.53859421987462,90.4926601112011
0.55,37.8,-26.4193074179376,-0.613413441299458,1498.80428704504,3.54299282518992,90.4997063615223
0.55,37.85,-26.6978003327575,-0.608532351520071,1500.80115491517,3.54739109443733,90.5067415964663
0.55,37.9,-26.9650624135909,-0.604462739150026,1502.79803294302,3.55178902812068,90.5137658265246
0.55,37.95,-27.2215873895082,-0.601143696800127,1504.79492107065,3.55618662674271,90.5207790622458
0.55,38,-27.4678287820641,-0.598516497333652,1506.79181924035,3.56058389080508,90.5277813142345
0.55,38.05,-27.7042008627048,-0.596524604970826,1508.7887273947,3.56498082080845,90.5347725931515
0.55,38.1,-27.9310797675873,-0.595113678281958,1510.78564547656,3.56937741725247,90.5417529097126
0.55,38.15,-28.148804681211,-0.594231565889007,1512.78257342903,3.57377368063583,90.5487222746881
0.55,38.2,-28.3576790322542,-0.593828295663818,1514.77951119551,3.57816961145626,90.5556806989021
0.55,38.25,-28.5579716677791,-0.593856058175048,1516.77645871964,3.5825652102106,90.5626281932322
0.55,38.3,-28.7499179882843,-0.59426918509604,1518.77341594536,3.5869604773948,90.5695647686087
0.55,38.35,-28.9337210379032,-0.595024123243638,1520.77038281683,3.59135541350396,90.5764904360138
0.55,38.4,-29.109552552714,-0.596079404874011,1522.7673592785,3.59575001903237,90.5834052064815
0.55,38.45,-29.2775539765955,-0.597395614816821,1524.76434527509,3.60014429447352,90.5903090910963
0.55,38.5,-29.4378374589717,-0.59893535498426,1526.76134075157,3.60453824032016,90.5972021009936
0.55,38.55,-29.5904868525748,-0.600663206746974,1528.75834565316,3.60893185706428,90.6040842473581
0.55,38.6,-29.7355587322969,-0.60254569162534,1530.75535992536,3.61332514519721,90.6109555414238
0.55,38.65,-29.8730834584515,-0.604551230702311,1532.75238351392,3.6177181052096,90.6178159944733
0.55,38.7,-30.0030663093993,-0.606650103123207,1534.74941636483,3.62211073759145,90.6246656178373
0.55,38.75,-30.1254887095084,-0.608814404008975,1536.74645842436,3.62650304283219,90.6315044228939
0.55,38.8,-30.2403095787674,-0.611018002072286,1538.74350963903,3.63089502142064,90.6383324210681
0.55,38.85,-30.3474668299543,-0.613236497190949,1540.74056995561,3.63528667384513,90.6451496238311
0.55,38.9,-30.4468790379796,-0.615447178160224,1542.73763932111,3.63967800059343,90.6519560427
0.55,38.95,-30.5384473037224,-0.617628980814808,1544.73471768281,3.64406900215287,90.6587516892373
0.55,39,-30.6220573312637,-0.619762446682666,1546.73180498823,3.64845967901033,90.6655365750499
0.55,39.05,-30.6975817327607,-0.621829682306371,1548.72890118515,3.65285003165226,90.6723107117889
0.55,39.1,-30.764882569259,-0.62381431934292,1550.72600622158,3.65724006056474,90.6790741111492
0.55,39.15,-30.8238141284929,-0.625701475530563,1552.7231200458,3.66162976623352,90.6858267848684
0.55,39.2,-30.8742259322527,-0.627477716590358,1554.72024260632,3.66601914914399,90.692568744727
0.55,39.25,-30.9159659563845,-0.629131019111201,1556.71737385189,3.6704082097813,90.6993000025472
0.55,39.3,-30.9488840362116,-0.630650734449822,1558.71451373153,3.67479694863033,90.7060205701928
0.55,39.35,-30.9728354195246,-0.632027553661485,1560.71166219447,3.67918536617573,90.7127304595687
0.55,39.4,-30.9876844187896,-0.633253473462934,1562.70881919021,3.68357346290198,90.71942968262
0.55,39.45,-30.993308104467,-0.634321763216166,1564.70598466847,3.68796123929339,90.7261182513318
0.55,39.5,-30.9895999729601,-0.635226932910111,1566.70315857922,3.69234869583416,90.7327961777286
0.55,39.55,-30.9764735164054,-0.635964702106863,1568.70034087267,3.69673583300839,90.7394634738739
0.55,39.6,-30.9538656178639,-0.636531969809752,1570.69753149927,3.70112265130013,90.7461201518695
0.55,39.65,-30.9217396950204,-0.636926785202329,1572.69473040968,3.70550915119339,90.7527662238551
0.55,39.7,-30.8800885185505,-0.637148319200002,1574.69193755484,3.70989533317219,90.7594017020079
0.55,39.75,-30.8289366380255,-0.637196836749543,1576.68915288589,3.7142811977206,90.7660265985419
0.55,39.8,-30.7683423584361,-0.637073669806094,1578.68637635422,3.71866674532275,90.7726409257077
0.55,39.85,-30.6983992237386,-0.636781190912472,1580.68360791144,3.72305197646287,90.7792446957915
0.55,39.9,-30.619236979596,-0.636322787301272,1582.68084750941,3.72743689162535,90.7858379211153
0.55,39.95,-30.5310220048445,-0.63570283543698,1584.67809510019,3.7318214912947,90.792420614036
0.55,40,-30.4339572191529,-0.634926675912285,1586.67535063611,3.73620577595567,90.7989927869449
0.55,40.05,-30.3282814917886,-0.634000588610689,1588.6726140697,3.74058974609323,90.8055544522674
0.55,40.1,-30.214268592337,-0.632931768045781,1590.66988535371,3.74497340219261,90.8121056224624
0.55,40.15,-30.0922257377189,-0.631728298786507,1592.66716444115,3.74935674473933,90.8186463100221
0.55,40.2,-29.9624918002067,-0.630399130877277,1594.66445128523,3.75373977421925,90.825176527471
0.55,40.25,-29.8254352478632,-0.628954055161722,1596.66174583939,3.7581224911186,90.8316962873662
0.55,40.3,-29.681451891729,-0.627403678419571,1598.65904805729,3.76250489592396,90.8382056022961
0.55,40.35,-29.5309625131999,-0.625759398227173,1600.65635789283,3.76688698912237,90.8447044848808
0.55,40.4,-29.3744104406684,-0.624033377453938,1602.6536753001,3.77126877120131,90.8511929477708
0.55,40.45,-29.2122591371154,-0.62223851830909,1604.65100023343,3.77565024264876,90.8576710036472
0.55,40.5,-29.044989850548,-0.620388435856039,1606.64833264738,3.7800314039532,90.8641386652212
0.55,40.55,-28.8730993676501,-0.618497430914888,1608.64567249671,3.78441225560367,90.8705959452333
0.55,40.6,-28.6970978984455,-0.616580462277597,1610.64301973641,3.7887927980898,90.8770428564529
0.55,40.65,-28.5175071068272,-0.614653118164818,1612.64037432167,3.79317303190181,90.8834794116785
0.55,40.7,-28.3348582890793,-0.612731586858391,1614.63773620791,3.79755295753057,90.8899056237364
0.55,40.75,-28.1496906905371,-0.610832626449377,1616.63510535076,3.80193257546765,90.8963215054808
0.55,40.8,-27.9625499397199,-0.608973533647485,1618.63248170606,3.80631188620529,90.9027270697933
0.55,40.85,-27.773986569991,-0.607172111604875,1620.62986522988,3.81069089023649,90.9091223295825
0.55,40.9,-27.5845545913225,-0.605446636714583,1622.62725587847,3.81506958805501,90.9155072977835
0.55,40.95,-27.3948100692997,-0.603815824351876,1624.62465360833,3.81944798015541,90.9218819873573
0.55,41,-27.2053096652565,-0.602298793535475,1626.62205837614,3.82382606703309,90.9282464112908
0.6,37,-23.0577148584486,-0.677517672099594,1466.56076777408,3.40182690752945,88.7219250618532
0.6,37.05,-23.744316782805,-0.665634754948602,1468.55847616149,3.40617391890466,88.7290172158195
0.6,37.1,-24.3573734347963,-0.654818660779197,1470.55619397204,3.41052061103498,88.7360973932374
0.6,37.15,-24.8945963012994,-0.644990591546146,1472.55392114386,3.41486698436374,88.7431656090905
0.6,37.2,-25.3628442181539,-0.636075733337849,1474.55165761538,3.41921303933978,88.7502218784119
0.6,37.25,-25.7715205213108,-0.628003135937645,1476.54940332537,3.42355877641723,88.7572662162837
0.6,37.3,-26.1298961934358,-0.620705589205833,1478.54715821289,3.42790419605535,88.7642986378359
0.6,37.35,-26.4461760669825,-0.614119497466387,1480.54492221732,3.43224929871835,88.7713191582461
0.6,37.4,-26.7272922727658,-0.608184752943602,1482.54269527834,3.43659408487515,88.7783277927386
0.6,37.45,-26.9789776229632,-0.602844609163615,1484.54047733594,3.44093855499926,88.7853245565837
0.6,37.5,-27.2059285443394,-0.598045555113839,1486.53826833041,3.44528270956854,88.7923094650968
0.6,37.55,-27.4119800964267,-0.593737190840545,1488.53606820236,3.44962654906509,88.7992825336385
0.6,37.6,-27.6002644132417,-0.58987210506127,1490.53387689269,3.45397007397497,88.8062437776127
0.6,37.65,-27.7733444870088,-0.586405755274128,1492.53169434261,3.45831328478812,88.813193212467
0.6,37.7,-27.9333234402992,-0.583296350760405,1494.52952049362,3.46265618199813,88.8201308536914
0.6,37.75,-28.0819323204647,-0.580504738799763,1496.52735528753,3.46699876610205,88.827056716818
0.6,37.8,-28.2206000981767,-0.577994294348154,1498.52519866645,3.47134103760027,88.83397081742
0.6,37.85,-28.3505093261138,-0.575730813367332,1500.52305057278,3.47568299699631,88.8408731711113
0.6,37.9,-28.4726404058488,-0.573682409940387,1502.52091094922,3.48002464479663,88.8477637935458
0.6,37.95,-28.5878068662934,-0.571819417260072,1504.51877973877,3.48436598151051,88.8546427004164
0.6,38,-28.6966835678457,-0.570114292535031,1506.51665688472,3.48870700764985,88.8615099074553
0.6,38.05,-28.799829338609,-0.568541525822893,1508.51454233066,3.49304772372901,88.8683654304321
0.6,38.1,-28.897705221651,-0.567077552768058,1510.51243602045,3.49738813026462,88.875209285154
0.6,38.15,-28.9906892546485,-0.565700671195425,1512.51033789828,3.50172822777548,88.8820414874652
0.6,38.2,-29.0790885027368,-0.564390961488704,1514.50824790859,3.50606801678231,88.8888620532458
0.6,38.25,-29.16314891014,-0.563130210663161,1516.50616599613,3.51040749780765,88.8956709984116
0.6,38.3,-29.2430634162313,-0.561901840026821,1518.50409210593,3.51474667137569,88.902468338913
0.6,38.35,-29.3189786890084,-0.56069083631142,1520.50202618333,3.51908553801209,88.9092540907351
0.6,38.4,-29.3910007572663,-0.559483686144016,1522.49996817391,3.52342409824384,88.9160282698966
0.6,38.45,-29.459199767096,-0.558268313722108,1524.49791802358,3.52776235259908,88.9227908924491
0.6,38.5,-29.5236140449686,-0.557034021548866,1526.49587567851,3.53210030160699,88.9295419744772
0.6,38.55,-29.5842536156912,-0.55577143408064,1528.49384108514,3.53643794579758,88.9362815320968
0.6,38.6,-29.6411032967031,-0.554472444135786,1530.49181419023,3.54077528570159,88.9430095814557
0.6,38.65,-29.6941254688167,-0.553130161912138,1532.48979494078,3.5451123218503,88.9497261387322
0.6,38.7,-29.7432626062582,-0.551738866459658,1534.48778328409,3.54944905477539,88.9564312201349
0.6,38.75,-29.7884396347004,-0.550293959455086,1536.48577916773,3.5537854850088,88.963124841902
0.6,38.8,-29.8295661740967,-0.548791921126388,1538.48378253955,3.55812161308258,88.9698070203008
0.6,38.85,-29.8665387128921,-0.547230268176496,1540.48179334769,3.56245743952873,88.9764777716269
0.6,38.9,-29.8992427511136,-0.545607513558103,1542.47981154053,3.56679296487907,88.9831371122042
0.6,38.95,-29.9275549415667,-0.543923127954091,1544.47783706675,3.5711281896651,88.9897850583839
