"W_line [mm]","Freq [GHz]","dB(S(1,1)) []","dB(S(2,1)) []","im(Gamma(1)) []","re(Gamma(1)) []","re(Zo(1)) []"
0.5,37,-13.9257239825887,-2.20249237566869,1464.22493061935,3.53624755221921,85.6021048430212
0.5,37.05,-13.7573265636561,-2.29302209636888,1466.21952821815,3.54071151424785,85.6084528352874
0.5,37.1,-13.6032019467161,-2.38003726998622,1468.2141412858,3.54517510650647,85.6147912688199
0.5,37.15,-13.467787761069,-2.45974853122031,1470.20876974763,3.54963832943943,85.6211201443896
0.5,37.2,-13.3559083810893,-2.5276455505833,1472.20341352926,3.55410118349161,85.6274394628623
0.5,37.25,-13.2725735342665,-2.57879616236157,1474.1980725566,3.55856366910839,85.6337492251978
0.5,37.3,-13.2226955775365,-2.60837173586951,1476.19274675588,3.56302578673569,85.6400494324495
0.5,37.35,-13.2107407084607,-2.61235711319968,1478.18743605363,3.56748753681991,85.6463400857631
0.5,37.4,-13.2403505068148,-2.58830557525306,1480.18214037665,3.57194891980793,85.6526211863765
0.5,37.45,-13.3139888919174,-2.53592273170528,1482.17685965206,3.57640993614711,85.6588927356186
0.5,37.5,-13.4326773933902,-2.45726919357098,1484.17159380727,3.58087058628524,85.6651547349088
0.5,37.55,-13.5958720523095,-2.35648571496728,1486.16634276998,3.58533087067058,85.6714071857562
0.5,37.6,-13.8015082648601,-2.23911821179669,1488.16110646818,3.58979078975183,85.6776500897589
0.5,37.65,-14.0462035681872,-2.1112570807246,1490.15588483017,3.59425034397807,85.6838834486032
0.5,37.7,-14.3255756461857,-1.97873455112626,1492.15067778452,3.59870953379882,85.6901072640629
0.5,37.75,-14.6346147254515,-1.84655027052234,1494.14548526011,3.60316835966401,85.696321537999
0.5,37.8,-14.9680498450953,-1.71858067824847,1496.14030718609,3.60762682202393,85.7025262723582
0.5,37.85,-15.3206632147566,-1.59753455170455,1498.1351434919,3.61208492132925,85.7087214691729
0.5,37.9,-15.6875278669326,-1.48507275639345,1500.1299941073,3.61654265803101,85.7149071305602
0.5,37.95,-16.0641633937814,-1.38200842720194,1502.12485896229,3.62100003258062,85.7210832587213
0.5,38,-16.4466183185242,-1.2885245206111,1504.11973798719,3.62545704542981,85.7272498559406
0.5,38.05,-16.8314946661048,-1.20437127377878,1506.11463111259,3.62991369703066,85.7334069245854
0.5,38.1,-17.2159318816569,-1.12902704045022,1508.10953826937,3.63436998783556,85.7395544671048
0.5,38.15,-17.5975654764171,-1.06181953404267,1510.10445938868,3.63882591829723,85.7456924860293
0.5,38.2,-17.9744725226801,-1.00201162135804,1512.09939440198,3.64328148886868,85.7518209839702
0.5,38.25,-18.345112636742,-0.948858532042408,1514.09434324098,3.64773670000324,85.7579399636187
0.5,38.3,-18.7082700522983,-0.901643579716444,1516.08930583768,3.65219155215448,85.7640494277451
0.5,38.35,-19.0630000397852,-0.859698567301425,1518.08428212437,3.6566460457763,85.7701493791986
0.5,38.4,-19.4085812666459,-0.822413762929796,1520.07927203362,3.66110018132283,85.7762398209064
0.5,38.45,-19.7444746058249,-0.789241084074874,1522.07427549825,3.66555395924845,85.782320755873
0.5,38.5,-20.0702882426284,-0.759693078568313,1524.06929245138,3.67000738000783,85.7883921871795
0.5,38.55,-20.3857485729332,-0.733339478308021,1526.06432282641,3.67446044405584,85.7944541179832
0.5,38.6,-20.6906762247186,-0.709802503747047,1528.05936655699,3.6789131518476,85.8005065515166
0.5,38.65,-20.9849664942592,-0.688751674084279,1530.05442357707,3.68336550383844,85.8065494910873
0.5,38.7,-21.2685735161196,-0.669898587333316,1532.04949382086,3.68781750048391,85.8125829400767
0.5,38.75,-21.5414975485945,-0.652991939849859,1534.04457722284,3.69226914223977,85.81860690194
0.5,38.8,-21.8037748325939,-0.637812927938247,1536.03967371776,3.69672042956195,85.824621380205
0.5,38.85,-22.0554695600499,-0.624171093619372,1538.03478324065,3.70117136290661,85.830626378472
0.5,38.9,-22.2966675611957,-0.61190062730363,1540.0299057268,3.70562194273004,85.8366219004126
0.5,38.95,-22.5274713854983,-0.600857111336654,1542.02504111178,3.71007216948873,85.84260794977
0.5,39,-22.7479965076252,-0.590914672887978,1544.0201893314,3.71452204363933,85.848584530357
0.5,39.05,-22.9583684377577,-0.581963507528617,1546.01535032177,3.71897156563863,85.8545516460569
0.5,39.1,-23.158720555555,-0.57390773284124,1548.01052401924,3.72342073594358,85.8605093008219
0.5,39.15,-23.3491925201198,-0.566663532403002,1550.00571036044,3.72786955501125,85.8664574986728
0.5,39.2,-23.5299291354278,-0.5601575531136,1552.00090928226,3.73231802329885,85.8723962436983
0.5,39.25,-23.7010795728512,-0.554325522253422,1553.99612072184,3.73676614126372,85.8783255400546
0.5,39.3,-23.8627968704931,-0.549111054324458,1555.9913446166,3.74121390936328,85.8842453919647
0.5,39.35,-24.0152376438139,-0.544464621342553,1557.98658090421,3.74566132805508,85.8901558037179
0.5,39.4,-24.1585619541077,-0.540342663643531,1559.9818295226,3.75010839779676,85.8960567796689
0.5,39.45,-24.2929332913005,-0.536706821354914,1561.97709040996,3.75455511904605,85.9019483242376
0.5,39.5,-24.4185186357227,-0.533523269439367,1563.97236350475,3.75900149226076,85.9078304419083
0.5,39.55,-24.5354885702957,-0.530762141637355,1565.96764874567,3.76344751789875,85.9137031372293
0.5,39.6,-24.6440174202458,-0.528397030743074,1567.96294607169,3.76789319641798,85.9195664148122
0.5,39.65,-24.7442834022266,-0.526404554467708,1569.95825542201,3.77233852827643,85.9254202793311
0.5,39.7,-24.8364687687649,-0.524763977707704,1571.95357673612,3.77678351393215,85.9312647355227
0.5,39.75,-24.9207599373721,-0.523456883374474,1573.94890995373,3.78122815384322,85.9370997881851
0.5,39.8,-24.9973475965771,-0.522466885084955,1575.94425501484,3.78567244846775,85.9429254421774
0.5,39.85,-25.066426783616,-0.521779375986587,1577.93961185966,3.79011639826387,85.9487417024194
0.5,39.9,-25.1281969306136,-0.521381308819876,1579.93498042868,3.79456000368974,85.9545485738907
0.5,39.95,-25.1828618778449,-0.521261003027374,1581.93036066264,3.7990032652035,85.9603460616305
0.5,40,-25.2306298541177,-0.521407975318635,1583.9257525025,3.80344618326332,85.9661341707367
0.5,40.05,-25.2717134254825,-0.521812790611632,1585.9211558895,3.80788875832732,85.9719129063656
0.5,40.1,-25.306329414378,-0.522466930706325,1587.91657076512,3.81233099085364,85.9776822737314
0.5,40.15,-25.3346987919872,-0.523362678416745,1589.91199707107,3.81677288130037,85.9834422781053
0.5,40.2,-25.3570465470109,-0.524493015204054,1591.90743474932,3.82121443012556,85.9891929248155
0.5,40.25,-25.3736015342988,-0.525851530622838,1593.90288374209,3.82565563778723,85.9949342192462
0.5,40.3,-25.3845963068207,-0.52743234212341,1595.89834399183,3.83009650474335,86.0006661668374
0.5,40.35,-25.3902669343322,-0.529230023950052,1597.89381544123,3.83453703145181,86.0063887730843
0.5,40.4,-25.3908528118198,-0.531239544044035,1599.88929803325,3.83897721837046,86.0121020435364
0.5,40.45,-25.3865964604055,-0.533456208005048,1601.88479171105,3.84341706595703,86.0178059837978
0.5,40.5,-25.3777433228908,-0.535875609289032,1603.88029641807,3.8478565746692,86.0235005995257
0.5,40.55,-25.364541555531,-0.538493584927267,1605.87581209796,3.85229574496454,86.0291858964309
0.5,40.6,-25.3472418169848,-0.54130617614364,1607.87133869462,3.85673457730052,86.0348618802764
0.5,40.65,-25.3260970547004,-0.544309593326322,1609.86687615218,3.86117307213449,86.0405285568774
0.5,40.7,-25.3013622882964,-0.547500184878524,1611.86242441503,3.86561122992369,86.0461859321007
0.5,40.75,-25.2732943888032,-0.550874409532192,1613.85798342776,3.8700490511252,86.0518340118642
0.5,40.8,-25.2421518519561,-0.5544288117597,1615.85355313523,3.87448653619599,86.0574728021363
0.5,40.85,-25.2081945631093,-0.558159999962911,1617.84913348252,3.87892368559288,86.0631023089357
0.5,40.9,-25.171683550775,-0.562064627157456,1619.84472441492,3.88336049977251,86.0687225383304
0.5,40.95,-25.132880725315,-0.566139373903493,1621.84032587799,3.88779697919137,86.0743334964378
0.5,41,-25.0920485989314,-0.5703809332632,1623.83593781751,3.89223312430576,86.0799351894237
0.55,37,-14.1719951832621,-2.1663281095813,1464.04256611085,3.51903403080963,84.2934717349987
0.55,37.05,-13.9819793059221,-2.27038646488433,1466.03848923527,3.52347766355978,84.299564768449
0.55,37.1,-13.8569375994589,-2.34715224796664,1468.03442578913,3.52792091347828,84.3056467658736
0.55,37.15,-13.8072742859574,-2.38529188673305,1470.03037569697,3.53236378114189,84.3117177340038
0.55,37.2,-13.8401244490022,-2.37713392664343,1472.02633888366,3.53680626712732,84.3177776796555
0.55,37.25,-13.9581115838638,-2.32134759664096,1474.02231527442,3.54124837201121,84.3238266097281
0.55,37.3,-14.1588538583783,-2.22364195771097,1476.01830479481,3.54569009637018,84.3298645312035
0.55,37.35,-14.4354009304055,-2.09499083112296,1478.01430737076,3.55013144078072,84.335891451146
0.55,37.4,-14.7774398815629,-1.94840318056734,1480.01032292854,3.55457240581925,84.3419073767007
0.55,37.45,-15.1728608614593,-1.79588777867528,1482.00635139474,3.55901299206209,84.3479123150929
0.55,37.5,-15.6092434229787,-1.64667231422164,1484.00239269632,3.56345320008544,84.3539062736276
0.55,37.55,-16.074974570233,-1.50676414003923,1485.99844676057,3.56789303046537,84.3598892596883
0.55,37.6,-16.5599099038747,-1.37937250009012,1487.99451351511,3.57233248377782,84.3658612807365
0.55,37.65,-17.0556359020548,-1.26565853723985,1489.99059288793,3.57677156059857,84.3718223443105
0.55,37.7,-17.5554539947952,-1.16546970502569,1491.98668480731,3.58121026150324,84.3777724580251
0.55,37.75,-18.0542069150261,-1.07791445916699,1493.98278920191,3.58564858706729,84.3837116295702
0.55,37.8,-18.5480386494667,-1.0017561133062,1495.97890600069,3.59008653786599,84.3896398667109
0.55,37.85,-19.0341455439502,-0.93565729124536,1497.97503513297,3.59452411447443,84.3955571772857
0.55,37.9,-19.5105490054097,-0.878318039208727,1499.97117652838,3.59896131746748,84.4014635692066
0.55,37.95,-19.9759022521201,-0.82854501862606,1501.9673301169,3.60339814741981,84.4073590504577
0.55,38,-20.4293332242153,-0.785279132785337,1503.96349582882,3.60783460490587,84.4132436290948
0.55,38.05,-20.8703206568978,-0.747599752854828,1505.95967359477,3.61227069049988,84.4191173132446
0.55,38.1,-21.2985983417143,-0.714716851166792,1507.95586334569,3.61670640477581,84.4249801111039
0.55,38.15,-21.7140822979061,-0.68595772335844,1509.95206501286,3.6211417483074,84.4308320309387
0.55,38.2,-22.1168160523862,-0.660752048982083,1511.94827852789,3.6255767216681,84.4366730810838
0.55,38.25,-22.5069299862309,-0.638617263822414,1513.94450382269,3.63001132543113,84.4425032699417
0.55,38.3,-22.8846114965689,-0.619145181357102,1515.9407408295,3.6344455601694,84.4483226059821
0.55,38.35,-23.2500834341141,-0.601990220218557,1517.93698948088,3.63887942645557,84.4541310977413
0.55,38.4,-23.6035888705302,-0.586859284965094,1519.93324970972,3.64331292486197,84.459928753821
0.55,38.45,-23.9453807237855,-0.573503194715395,1521.9295214492,3.64774605596066,84.4657155828881
0.55,38.5,-24.2757151356671,-0.561709489388188,1523.92580463284,3.65217882032336,84.4714915936737
0.55,38.55,-24.5948477697386,-0.55129642586812,1525.92209919446,3.6566112185215,84.4772567949725
0.55,38.6,-24.9030323956651,-0.542107983026432,1527.91840506819,3.66104325112617,84.4830111956421
0.55,38.65,-25.2005212599507,-0.534009712031291,1529.91472218849,3.66547491870812,84.4887548046022
0.55,38.7,-25.487566824186,-0.526885289645791,1531.9110504901,3.66990622183776,84.494487630834
0.55,38.75,-25.7644244885339,-0.52063365353445,1533.90738990811,3.67433716108517,84.5002096833796
0.55,38.8,-26.0313559185207,-0.515166618225403,1535.90374037787,3.67876773702005,84.5059209713411
0.55,38.85,-26.288632566384,-0.510406887614739,1537.90010183507,3.68319795021173,84.5116215038801
0.55,38.9,-26.5365389359567,-0.5062863946211,1539.8964742157,3.68762780122919,84.5173112902172
0.55,38.95,-26.7753750978067,-0.502744910948118,1541.89285745604,3.692057290641,84.5229903396306
0.55,39,-27.005457938657,-0.499728880152635,1543.88925149267,3.69648641901538,84.5286586614564
0.55,39.05,-27.2271206484019,-0.497190435644757,1545.88565626249,3.70091518692012,84.5343162650874
0.55,39.1,-27.4407100312781,-0.495086572149425,1547.8820717027,3.70534359492262,84.5399631599724
0.55,39.15,-27.6465813908797,-0.493378444798578,1549.87849775077,3.70977164358987,84.5455993556159
0.55,39.2,-27.8450909846881,-0.492030774622938,1551.8749343445,3.71419933348845,84.5512248615772
0.55,39.25,-28.0365863559886,-0.491011342963094,1553.87138142196,3.71862666518451,84.5568396874696
0.55,39.3,-28.2213951901601,-0.490290560379125,1555.86783892153,3.72305363924376,84.5624438429602
0.55,39.35,-28.399813649443,-0.489841098135764,1557.86430678187,3.72748025623148,84.5680373377691
0.55,39.4,-28.57209534802,-0.489637572382307,1559.86078494195,3.7319065167125,84.5736201816686
0.55,39.45,-28.7384421790409,-0.489656272818914,1561.85727334103,3.73633242125122,84.5791923844828
0.55,39.5,-28.8989980663632,-0.489874929013146,1563.85377191863,3.74075797041154,84.5847539560868
0.55,39.55,-29.0538463965832,-0.490272508659038,1565.85028061459,3.74518316475693,84.5903049064062
0.55,39.6,-29.2030114442574,-0.490829043000835,1567.84679936903,3.74960800485036,84.5958452454166
0.55,39.65,-29.3464636181782,-0.491525475411734,1569.84332812234,3.75403249125435,84.6013749831427
0.55,39.7,-29.4841279201678,-0.492343529753946,1571.83986681521,3.7584566245309,84.6068941296581
0.55,39.75,-29.6158946946827,-0.493265595674621,1573.83641538861,3.76288040524155,84.6124026950842
0.55,39.8,-29.7416315982256,-0.494274628431318,1575.8329737838,3.76730383394731,84.6179006895901
0.55,39.85,-29.8611957332498,-0.495354061207564,1577.82954194229,3.7717269112087,84.6233881233918
0.55,39.9,-29.9744450400824,-0.496487728185572,1579.82611980592,3.77614963758572,84.6288650067515
0.55,39.95,-30.081248271765,-0.497659796900322,1581.82270731676,3.78057201363785,84.6343313499773
0.55,40,-30.1814931369165,-0.498854708615507,1583.81930441718,3.78499403992405,84.6397871634223
0.55,40.05,-30.2750924402311,-0.500057125643919,1585.81591104983,3.78941571700274,84.6452324574843
0.55,40.1,-30.3619882499909,-0.501251884688993,1587.81252715762,3.79383704543179,84.6506672426054
0.55,40.15,-30.4421542641542,-0.502423955414531,1589.80915268375,3.79825802576854,84.6560915292706
0.55,40.2,-30.5155966314046,-0.503558403560497,1591.80578757168,3.80267865856976,84.6615053280083
0.55,40.25,-30.5823535196224,-0.504640358017121,1593.80243176514,3.80709894439168,84.6669086493891
0.55,40.3,-30.6424937239221,-0.50565498135004,1595.79908520814,3.81151888378993,84.6723015040255
0.55,40.35,-30.6961145823945,-0.506587443338181,1597.79574784495,3.8159384773196,84.6776839025712
0.55,40.4,-30.7433394308762,-0.507422897145216,1599.79241962012,3.82035772553517,84.6830558557206
0.55,40.45,-30.7843147866977,-0.508146457796282,1601.78910047846,3.82477662899056,84.6884173742084
0.55,40.5,-30.8192074109168,-0.508743182675647,1603.78579036503,3.82919518823906,84.693768468809
0.55,40.55,-30.8482013622151,-0.50919805379884,1605.78248922517,3.83361340383339,84.6991091503358
0.55,40.6,-30.8714951248644,-0.509495961645825,1607.77919700449,3.83803127632565,84.7044394296409
0.55,40.65,-30.8892988682185,-0.509621690370341,1609.77591364885,3.84244880626732,84.7097593176144
0.55,40.7,-30.9018318756614,-0.509559904225591,1611.77263910436,3.84686599420925,84.7150688251841
0.55,40.75,-30.9093201660752,-0.509295135068307,1613.76937331742,3.85128284070169,84.7203679633147
0.55,40.8,-30.9119943198476,-0.508811770822354,1615.76611623467,3.85569934629422,84.7256567430077
0.55,40.85,-30.9100875133989,-0.508094044800045,1617.76286780299,3.86011551153581,84.7309351753004
0.55,40.9,-30.9038337604621,-0.50712602579416,1619.75962796955,3.86453133697474,84.7362032712657
0.55,40.95,-30.8934663543196,-0.505891608866986,1621.75639668176,3.86894682315866,84.7414610420115
0.55,41,-30.8792165024378,-0.504374506774424,1623.75317388728,3.87336197063455,84.7467084986805
0.6,37,-14.9230038957234,-2.11097147571485,1464.11082498155,3.45118488894206,82.6270341997145
0.6,37.05,-15.0534443482186,-2.06057718089735,1466.10776322552,3.45557141282386,82.632734798548
0.6,37.1,-15.283585741022,-1.96748716555625,1468.10471240911,3.45995757999111,82.6384234362958
0.6,37.15,-15.6032811084867,-1.84462052678198,1470.10167246088,3.46434339106935,82.6441001259386
0.6,37.2,-15.998049986105,-1.70614676675739,1472.09864330975,3.46872884668353,82.6497648805205
0.6,37.25,-16.4515756999677,-1.56425343245481,1474.09562488501,3.47311394745805,82.6554177131481
0.6,37.3,-16.9478679808805,-1.42764617660741,1476.09261711633,3.47749869401675,82.6610586369898
0.6,37.35,-17.4726888118587,-1.30152320402482,1478.08961993373,3.48188308698287,82.6666876652748
0.6,37.4,-18.0142197669447,-1.18830768270289,1480.08663326763,3.48626712697906,82.6723048112922
0.6,37.45,-18.5631626400552,-1.08854790637155,1482.08365704877,3.49065081462737,82.6779100883902
0.6,37.5,-19.112509537192,-1.00168327467084,1484.08069120829,3.49503415054924,82.6835035099753
0.6,37.55,-19.6571711206105,-0.926590579337612,1486.07773567767,3.49941713536549,82.6890850895116
0.6,37.6,-20.1935815861869,-0.861930950733669,1488.07479038875,3.50379976969629,82.6946548405197
0.6,37.65,-20.7193408166162,-0.806349896628183,1490.07185527375,3.50818205416121,82.7002127765762
0.6,37.7,-21.2329164634461,-0.758580886415753,1492.06893026521,3.51256398937913,82.7057589113126
0.6,37.75,-21.7334082079041,-0.717490507965695,1494.06601529604,3.51694557596831,82.7112932584146
0.6,37.8,-22.2203672005585,-0.682090626364065,1496.06311029952,3.52132681454631,82.7168158316216
0.6,37.85,-22.6936607302423,-0.651533327908419,1498.06021520926,3.52570770573005,82.7223266447254
0.6,37.9,-23.1533722880129,-0.625097912981589,1500.05732995922,3.53008825013576,82.7278257115697
0.6,37.95,-23.5997285388549,-0.602175100797681,1502.05445448371,3.53446844837897,82.7333130460494
0.6,38,-24.033046365931,-0.582251153479665,1504.05158871738,3.53884830107452,82.7387886621099
0.6,38.05,-24.4536946985915,-0.564893213755913,1506.04873259524,3.54322780883656,82.7442525737459
0.6,38.1,-24.8620671312218,-0.549736368620974,1508.04588605263,3.54760697227853,82.749704795001
0.6,38.15,-25.2585623648829,-0.536472539075809,1510.04304902523,3.55198579201312,82.7551453399671
0.6,38.2,-25.6435702875755,-0.524841094163419,1512.04022144906,3.55636426865234,82.7605742227832
0.6,38.25,-26.0174620966134,-0.514621001644932,1514.03740326049,3.56074240280744,82.765991457635
0.6,38.3,-26.3805833020625,-0.505624303313946,1516.03459439619,3.56512019508894,82.7713970587541
0.6,38.35,-26.7332487710282,-0.497690709307731,1518.03179479321,3.56949764610662,82.7767910404174
0.6,38.4,-27.0757392086895,-0.490683125847913,1520.02900438889,3.57387475646951,82.7821734169459
0.6,38.45,-27.4082986463218,-0.48448395556379,1522.02622312094,3.57825152678588,82.7875442027046
0.6,38.5,-27.7311326363115,-0.478992034321009,1524.02345092737,3.58262795766323,82.7929034121016
0.6,38.55,-28.0444069520222,-0.474120091168808,1526.02068774652,3.5870040497083,82.7982510595871
0.6,38.6,-28.3482466655621,-0.469792637827542,1528.01793351708,3.59137980352705,82.8035871596532
0.6,38.65,-28.6427355356553,-0.465944210942717,1530.01518817802,3.59575521972467,82.8089117268328
0.6,38.7,-28.9279156855754,-0.462517904335279,1532.01245166868,3.60013029890554,82.814224775699
0.6,38.75,-29.2037875905542,-0.459464140014625,1534.0097239287,3.60450504167327,82.8195263208648
0.6,38.8,-29.4703104270846,-0.456739636156406,1536.00700489803,3.60887944863067,82.8248163769818
0.6,38.85,-29.7274028638912,-0.45430653793012,1538.00429451695,3.61325352037972,82.8300949587402
0.6,38.9,-29.9749443959771,-0.452131683301559,1540.00159272605,3.61762725752163,82.8353620808676
0.6,38.95,-30.2127773381803,-0.450185980997747,1541.99889946624,3.62200066065676,82.8406177581286
