"W_line [mm]","Freq [GHz]","dB(S(1,1)) []","dB(S(2,1)) []","im(Gamma(1:1)) []","re(Gamma(1:1)) []","re(Zo(1:1)) []"
0.5,57,-9.1492745178194,-2.07418708573553,2116.86690702289,4.83644923547495,178.040137040421
0.5,57.05,-9.50125749613181,-1.91275967431635,2118.93218069796,4.84060495079812,178.166302101494
0.5,57.1,-9.85007680179396,-1.77273697530894,2120.99746734891,4.84475991519459,178.292392789981
0.5,57.15,-10.1938297433528,-1.65109563885808,2123.06276658346,4.84891413159112,178.418408732289
0.5,57.2,-10.5311121861713,-1.54521193756668,2125.1280780116,4.85306760290514,178.544349557732
0.5,57.25,-10.860921706788,-1.45282961587774,2127.19340124558,4.85722033204474,178.670214898528
0.5,57.3,-11.1825746931294,-1.37202005792178,2129.25873589993,4.86137232190871,178.796004389783
0.5,57.35,-11.4956372597859,-1.30114095438846,2131.32408159138,4.86552357538649,178.921717669486
0.5,57.4,-11.7998687919266,-1.23879684715092,2133.38943793892,4.86967409535822,179.047354378495
0.5,57.45,-12.0951764800279,-1.18380320668681,2135.45480456375,4.87382388469472,179.172914160529
0.5,57.5,-12.3815791144763,-1.13515467380003,2137.52018108928,4.87797294625747,179.298396662158
0.5,57.55,-12.6591785083801,-1.09199751712196,2139.58556714112,4.88212128289866,179.423801532791
0.5,57.6,-12.9281371045939,-1.05360605185598,2141.65096234707,4.88626889746117,179.549128424668
0.5,57.65,-13.1886605382028,-1.01936262380114,2143.71636633711,4.89041579277858,179.67437699285
0.5,57.7,-13.4409841357236,-0.988740716670825,2145.78177874339,4.89456197167517,179.799546895206
0.5,57.75,-13.6853625213978,-0.961290747264354,2147.84719920023,4.89870743696599,179.924637792406
0.5,57.8,-13.922061663437,-0.936628146220527,2149.91262734408,4.90285219145694,180.049649347902
0.5,57.85,-14.1513528285468,-0.914423366612661,2151.97806281355,4.90699623794525,180.17458122794
0.5,57.9,-14.3735080237263,-0.894393509886155,2154.04350524936,4.91113957922281,180.299433101523
0.5,57.95,-14.5887965934949,-0.876295303966342,2156.10895429439,4.9152822181235,180.424204640415
0.5,58,-14.7974827118087,-0.859919209551859,2158.17440959334,4.9194241572942,180.548895519129
0.5,58.05,-14.9998235642461,-0.845084466815358,2160.23987079371,4.92356539947689,180.673505414913
0.5,58.1,-15.1960680604067,-0.831634925885348,2162.30533754441,4.92770594755355,180.798034007746
0.5,58.15,-15.3864559512968,-0.81943553090188,2164.37080949669,4.93184580421773,180.922480980321
0.5,58.2,-15.5712172537197,-0.808369349623616,2166.43628630384,4.93598497219537,181.046846018038
0.5,58.25,-15.7505719049596,-0.798335059068018,2168.50176762123,4.94012345420747,181.171128808995
0.5,58.3,-15.9247295876049,-0.789244813030851,2170.56725310627,4.94426125296672,181.295329043972
0.5,58.35,-16.0938896772057,-0.781022430051694,2172.63274241841,4.94839837117681,181.419446416427
0.5,58.4,-16.2582412753923,-0.773601850905967,2174.69823521913,4.95253481153234,181.543480622481
0.5,58.45,-16.4179632987066,-0.766925823387432,2176.76373117194,4.95667057671875,181.667431360909
0.5,58.5,-16.5732245991992,-0.760944779316758,2178.82922994236,4.96080566941232,181.79129833313
0.5,58.55,-16.724184097184,-0.755615874638076,2180.89473119791,4.96494009228016,181.915081243197
0.5,58.6,-16.870990909707,-0.750902168367889,2182.96023460809,4.96907384798023,182.038779797784
0.5,58.65,-17.0137844604818,-0.746771920221781,2185.02573984442,4.97320693916133,182.162393706177
0.5,58.7,-17.1526945584395,-0.743197990114116,2187.09124658035,4.97733936846313,182.285922680265
0.5,58.75,-17.2878414327365,-0.740157325527439,2189.15675449134,4.98147113851616,182.409366434526
0.5,58.8,-17.4193357121503,-0.737630525081682,2191.22226325476,4.98560225194186,182.53272468602
0.5,58.85,-17.547278336307,-0.735601468580226,2193.28777254996,4.98973271135252,182.655997154374
0.5,58.9,-17.6717603851626,-0.734057005436331,2195.35328205821,4.99386251935137,182.779183561777
0.5,58.95,-17.7928628115861,-0.732986694742226,2197.41879146272,4.99799167853256,182.902283632966
0.5,59,-17.9106560597753,-0.732382591375716,2199.4843004486,5.00212019148115,183.025297095214
0.5,59.05,-18.0251995495209,-0.732239073477356,2201.5498087029,5.00624806077315,183.148223678323
0.5,59.1,-18.1365410030082,-0.732552707397617,2203.61531591453,5.01037528897554,183.271063114612
0.5,59.15,-18.2447155868452,-0.733322146822003,2205.68082177431,5.01450187864627,183.393815138905
0.5,59.2,-18.3497448373117,-0.734548063237614,2207.74632597496,5.01862783233425,183.516479488522
0.5,59.25,-18.4516353314056,-0.736233105202484,2209.81182821103,5.02275315257942,183.639055903269
0.5,59.3,-18.5503770601565,-0.738381884002651,2211.87732817898,5.02687784191273,183.761544125423
0.5,59.35,-18.6459414539625,-0.741000983200892,2213.9428255771,5.03100190285612,183.883943899729
0.5,59.4,-18.7382790026097,-0.744098989247437,2216.00832010551,5.03512533792262,184.006254973381
0.5,59.45,-18.8273164055527,-0.747686539665506,2218.0738114662,5.0392481496163,184.128477096018
0.5,59.5,-18.9129531816551,-0.751776384242946,2220.13929936296,5.04337034043229,184.250610019711
0.5,59.55,-18.9950576630493,-0.756383453015919,2222.20478350142,5.04749191285682,184.37265349895
0.5,59.6,-19.0734622968279,-0.76152492243315,2224.270263589,5.05161286936723,184.494607290637
0.5,59.65,-19.1479581836078,-0.767220267687273,2226.33573933494,5.05573321243196,184.616471154075
0.5,59.7,-19.2182887975497,-0.7734912844639,2228.40121045026,5.0598529445106,184.738244850953
0.5,59.75,-19.2841428638537,-0.780362056866849,2230.46667664776,5.06397206805388,184.859928145342
0.5,59.8,-19.3451464249872,-0.787858839506411,2232.53213764201,5.06809058550373,184.98152080368
0.5,59.85,-19.4008542166383,-0.796009810066402,2234.59759314938,5.07220849929321,185.103022594762
0.5,59.9,-19.4507406124706,-0.804844633413883,2236.66304288796,5.07632581184663,185.22443328973
0.5,59.95,-19.494190600117,-0.814393758834571,2238.72848657759,5.08044252557948,185.345752662064
0.5,60,-19.5304915384302,-0.824687347853956,2240.79392393988,5.08455864289853,185.466980487567
0.5,60.05,-19.5588268357964,-0.835753701544264,2242.85935469814,5.08867416620176,185.588116544359
0.5,60.1,-19.5782731922553,-0.847617024718338,2244.92477857742,5.09278909787844,185.709160612865
0.5,60.15,-19.5878036572798,-0.860294333871748,2246.99019530448,5.09690344030913,185.830112475803
0.5,60.2,-19.5862994283659,-0.873791294139033,2249.05560460778,5.10101719586569,185.950971918173
0.5,60.25,-19.5725739524595,-0.888096772283756,2251.12100621749,5.1051303669113,186.071738727252
0.5,60.3,-19.5454133062318,-0.9031759414328,2253.18639986545,5.10924295580049,186.192412692575
0.5,60.35,-19.5036367285279,-0.918961903950004,2255.2517852852,5.11335496487915,186.312993605932
0.5,60.4,-19.4461801612221,-0.935346057659716,2257.31716221194,5.11746639648453,186.433481261353
0.5,60.45,-19.3722032790226,-0.952167867455213,2259.38253038253,5.12157725294531,186.553875455099
0.5,60.5,-19.2812164078861,-0.969205351992366,2261.44788953551,5.12568753658157,186.674175985651
0.5,60.55,-19.1732179414913,-0.986168428363204,2263.51323941105,5.12979724970481,186.7943826537
0.5,60.6,-19.0488260092711,-1.00269813089661,2265.57857975094,5.133906394618,186.914495262137
0.5,60.65,-18.9093817555396,-1.01837530390849,2267.64391029863,5.13801497361558,187.034513616041
0.5,60.7,-18.7569980202313,-1.03274213667372,2269.7092307992,5.1421229889835,187.15443752267
0.5,60.75,-18.5945291169196,-1.04533826942324,2271.7745409993,5.14623044299918,187.27426679145
0.5,60.8,-18.4254466321726,-1.05574983318717,2273.83984064723,5.15033733793161,187.394001233964
0.5,60.85,-18.2536224680154,-1.06366513673605,2275.90512949287,5.15444367604132,187.513640663942
0.5,60.9,-18.0830405282634,-1.06892630142212,2277.9704072877,5.15854945958041,187.633184897252
0.5,60.95,-17.9174767831171,-1.07156423478938,2280.03567378477,5.16265469079256,187.752633751887
0.5,61,-17.7601975718084,-1.07180675427579,2282.10092873871,5.16675937191308,187.871987047957
0.5,61.05,-17.6137236992808,-1.07005636342168,2284.16617190572,5.1708635051689,187.991244607677
0.5,61.1,-17.4796932926716,-1.06684268978141,2286.23140304355,5.17496709277861,188.110406255357
0.5,61.15,-17.3588342605603,-1.06276125706538,2288.29662191151,5.17907013695245,188.229471817393
0.5,61.2,-17.2510348317625,-1.05841240934859,2290.36182827045,5.18317263989239,188.348441122255
0.5,61.25,-17.1554846032232,-1.05435162729823,2292.42702188276,5.18727460379208,188.467314000477
0.5,61.3,-17.07085206679,-1.05105715478214,2294.49220251235,5.19137603083693,188.586090284648
0.5,61.35,-16.9954670928552,-1.04891541026633,2296.55736992465,5.19547692320407,188.7047698094
0.5,61.4,-16.9274850824994,-1.04822090223541,2298.62252388661,5.19957728306244,188.823352411398
0.5,61.45,-16.865019578585,-1.04918580006412,2300.68766416668,5.20367711257277,188.941837929333
0.5,61.5,-16.8062390706194,-1.05195446599779,2302.75279053479,5.2077764138876,189.060226203906
0.5,61.55,-16.749430046209,-1.05661932569304,2304.81790276239,5.21187518915131,189.178517077823
0.5,61.6,-16.6930318320335,-1.06323575544639,2306.88300062239,5.21597344050013,189.296710395781
0.5,61.65,-16.6356499815619,-1.07183478907253,2308.94808388919,5.22007117006221,189.414806004462
0.5,61.7,-16.5760547015443,-1.08243324723949,2311.01315233864,5.22416837995756,189.532803752519
0.5,61.75,-16.513169785118,-1.09504137463582,2313.07820574805,5.22826507229814,189.650703490567
0.5,61.8,-16.446056251158,-1.10966830973234,2315.1432438962,5.23236124918785,189.768505071174
0.5,61.85,-16.3738936808685,-1.12632579231469,2317.2082665633,5.23645691272255,189.88620834885
0.5,61.9,-16.2959612347954,-1.14503050439155,2319.27327353099,5.24055206499012,190.003813180038
0.5,61.95,-16.2116195644232,-1.16580538812651,2321.33826458236,5.24464670807041,190.121319423102
0.5,62,-16.1202942853848,-1.1886802189706,2323.4032395019,5.24874084403534,190.238726938319
0.5,62.05,-16.0214613145876,-1.21369164859225,2325.46819807554,5.25283447494886,190.356035587867
0.5,62.1,-15.9146341478509,-1.24088287738329,2327.53314009059,5.25692760286702,190.473245235817
0.5,62.15,-15.7993530295472,-1.27030307227387,2329.59806533577,5.26102022983797,190.590355748124
0.5,62.2,-15.6751759110585,-1.30200661187749,2331.66297360121,5.26511235790195,190.707366992611
0.5,62.25,-15.5416710888869,-1.33605221613375,2333.72786467841,5.26920398909139,190.824278838968
0.5,62.3,-15.3984114417463,-1.37250199988567,2335.79273836025,5.27329512543086,190.941091158735
0.5,62.35,-15.2449702408539,-1.41142047758534,2337.85759444097,5.27738576893712,191.057803825294
0.5,62.4,-15.0809185859421,-1.45287353817805,2339.92243271621,5.28147592161916,191.174416713863
0.5,62.45,-14.9058246225519,-1.496927404058,2341.98725298294,5.2855655854782,191.29092970148
0.5,62.5,-14.7192548292226,-1.54364758495384,2344.05205503948,5.28965476250769,191.407342666998
0.5,62.55,-14.5207778355868,-1.59309783603381,2346.1168386855,5.29374345469341,191.523655491073
0.5,62.6,-14.3099714578093,-1.6453391289261,2348.18160372201,5.29783166401339,191.639868056155
0.5,62.65,-14.0864339350607,-1.70042864435876,2350.24634995135,5.30191939243804,191.755980246478
0.5,62.7,-13.8498007441802,-1.75841879546216,2352.31107717717,5.30600664193007,191.87199194805
0.5,62.75,-13.5997688894752,-1.81935629123493,2354.37578520446,5.31009341444458,191.987903048644
0.5,62.8,-13.3361312449242,-1.88328125009842,2356.4404738395,5.31417971192908,192.103713437788
0.5,62.85,-13.0588243996388,-1.95022637373934,2358.50514288987,5.31826553632348,192.219423006757
0.5,62.9,-12.7679945417977,-2.02021619148169,2360.56979216446,5.32235088956013,192.33503164856
0.5,62.95,-12.4640871835322,-2.09326638518343,2362.63442147343,5.32643577356386,192.450539257932
0.5,63,-12.147967846141,-2.16938320408752,2364.69903062826,5.33052019025196,192.565945731328
0.55,57,-13.3948469831737,-1.13461978350123,2135.86792802803,4.81210177161584,178.897704911746
0.55,57.05,-13.7161804853915,-1.0869500330419,2137.92742807826,4.8162207917008,178.999906207861
0.55,57.1,-14.0307843292247,-1.0446683547299,2139.98691983651,4.82033928592019,179.102013697356
0.55,57.15,-14.3388519971769,-1.00731581396796,2142.04640306008,4.82445725631947,179.204027280338
0.55,57.2,-14.6406319470951,-0.974433095663364,2144.10587750781,4.82857470493623,179.305946858634
0.55,57.25,-14.9364140592504,-0.945571115977654,2146.16534294012,4.83269163380023,179.407772335782
0.55,57.3,-15.2265191493088,-0.920300298788259,2148.22479911896,4.83680804493341,179.509503617022
0.55,57.35,-15.5112908478679,-0.89821833696523,2150.28424580782,4.84092394034992,179.611140609286
0.55,57.4,-15.7910892744373,-0.87895635456927,2152.34368277175,4.84503932205611,179.712683221186
0.55,57.45,-16.066286033052,-0.862183468914698,2154.40310977728,4.84915419205062,179.814131363006
0.55,57.5,-16.3372601305451,-0.847609817878717,2156.46252659249,4.85326855232435,179.915484946693
0.55,57.55,-16.6043944693284,-0.834988166902322,2158.52193298695,4.85738240486048,180.016743885843
0.55,57.6,-16.8680725962485,-0.824114242594107,2160.58132873174,4.86149575163456,180.117908095698
0.55,57.65,-17.1286753988257,-0.814825957672697,2162.64071359942,4.86560859461444,180.21897749313
0.55,57.7,-17.3865774302015,-0.807001697765662,2164.70008736404,4.86972093576039,180.319951996634
0.55,57.75,-17.6421425136753,-0.800557837127242,2166.75944980113,4.87383277702503,180.420831526319
0.55,57.8,-17.8957182251913,-0.795445640329804,2168.81880068768,4.87794412035344,180.521616003896
0.55,57.85,-18.1476287751083,-0.791647692790555,2170.87813980215,4.88205496768311,180.62230535267
0.55,57.9,-18.3981657061072,-0.78917398655329,2172.93746692445,4.88616532094402,180.722899497532
0.55,57.95,-18.6475756893609,-0.788057770538,2174.99678183592,4.89027518205866,180.823398364945
0.55,58,-18.89604453461,-0.788351257549028,2177.05608431935,4.89438455294199,180.923801882939
0.55,58.05,-19.1436763336043,-0.790121264367223,2179.11537415896,4.89849343550155,181.024109981099
0.55,58.1,-19.3904664399837,-0.793444846607255,2181.1746511404,4.90260183163744,181.124322590556
0.55,58.15,-19.6362667755986,-0.79840497682842,2183.2339150507,4.90670974324233,181.224439643978
0.55,58.2,-19.8807417916099,-0.805086302615945,2185.29316567835,4.91081717220153,181.324461075559
0.55,58.25,-20.1233133912362,-0.813571010876631,2187.35240281319,4.91492412039298,181.424386821014
0.55,58.3,-20.3630933918068,-0.823934815261656,2189.41162624647,4.91903058968726,181.524216817563
0.55,58.35,-20.5988029101579,-0.836243075306555,2191.47083577084,4.92313658194767,181.623951003928
0.55,58.4,-20.8286797581629,-0.850547048502852,2193.5300311803,4.92724209903021,181.723589320319
0.55,58.45,-21.0503780166855,-0.866880270145439,2195.58921227024,4.93134714278361,181.823131708429
0.55,58.5,-21.2608689591013,-0.885255050660259,2197.6483788374,4.93545171504937,181.92257811142
0.55,58.55,-21.456359819599,-0.905659076647291,2199.70753067988,4.93955581766176,182.021928473919
0.55,58.6,-21.6322563581384,-0.928052100778833,2201.76666759713,4.94365945244787,182.121182742005
0.55,58.65,-21.7832052342091,-0.95236270799221,2203.82578938994,4.94776262122762,182.220340863201
0.55,58.7,-21.9032590786054,-0.978485152494402,2205.88489586043,4.95186532581379,182.319402786465
0.55,58.75,-21.9862043397438,-1.00627627373945,2207.94398681204,4.95596756801203,182.418368462182
0.55,58.8,-22.0260715155676,-1.03555252194211,2210.00306204954,4.96006934962091,182.517237842154
0.55,58.85,-22.0178042233556,-1.06608715739793,2212.06212137901,4.96417067243192,182.61601087959
0.55,58.9,-21.958002731042,-1.09760773561744,2214.12116460783,4.96827153822952,182.714687529098
0.55,58.95,-21.8455995471753,-1.12979405459862,2216.18019154468,4.97237194879112,182.813267746679
0.55,59,-21.6823010133386,-1.16227682318127,2218.23920199954,4.97647190588715,182.911751489711
0.55,59.05,-21.4726642990979,-1.19463741019371,2220.29819578366,4.98057141128108,183.010138716949
0.55,59.1,-21.2237700848214,-1.2264091494136,2222.35717270956,4.98467046672941,183.108429388508
0.55,59.15,-20.9445605879191,-1.25708079605526,2224.41613259107,4.98876907398171,183.206623465861
0.55,59.2,-20.6449917844704,-1.28610283929727,2226.47507524323,4.99286723478068,183.304720911825
0.55,59.25,-20.3351688668514,-1.31289744444035,2228.53400048238,4.99696495086211,183.402721690555
0.55,59.3,-20.0246004843485,-1.33687278780823,2230.59290812608,5.00106222395496,183.500625767536
0.55,59.35,-19.7216480495225,-1.3574424069668,2232.65179799316,5.00515905578135,183.598433109571
0.55,59.4,-19.433189782725,-1.37404986332855,2234.71066990366,5.0092554480566,183.696143684778
0.55,59.45,-19.1644803771782,-1.38619845793853,2236.76952367886,5.01335140248926,183.793757462574
0.55,59.5,-18.9191677493934,-1.39348493928083,2238.82835914126,5.01744692078109,183.891274413674
0.55,59.55,-18.6994228787053,-1.39563513785947,2240.8871761146,5.02154200462715,183.988694510076
0.55,59.6,-18.506141040458,-1.39253838379215,2242.94597442379,5.02563665571579,184.086017725057
0.55,59.65,-18.3391785928096,-1.3842766322613,2245.00475389497,5.02973087572867,184.183244033165
0.55,59.7,-18.1975967314134,-1.37114372970147,2247.06351435548,5.03382466634077,184.280373410204
0.55,59.75,-18.0798912570108,-1.3536504968081,2249.12225563382,5.03791802922046,184.377405833236
0.55,59.8,-17.9841947606023,-1.33251247641805,2251.18097755971,5.04201096602948,184.474341280561
0.55,59.85,-17.9084441596878,-1.3086192742972,2253.23967996402,5.046103478423,184.571179731721
0.55,59.9,-17.8505117742007,-1.2829871076527,2255.29836267881,5.05019556804961,184.667921167479
0.55,59.95,-17.8083018873563,-1.25669891855735,2257.35702553729,5.05428723655136,184.764565569823
0.55,60,-17.7798170210598,-1.23083854884744,2259.41566837384,5.05837848556378,184.861112921948
0.55,60.05,-17.763199191618,-1.20642645679896,2261.47429102398,5.06246931671592,184.957563208254
0.55,60.1,-17.7567515234617,-1.18436403351056,2263.53289332439,5.06655973163033,185.053916414334
0.55,60.15,-17.7589451189646,-1.16539188885927,2265.59147511287,5.07064973192316,185.15017252697
0.55,60.2,-17.7684152919626,-1.15006499474931,2267.65003622838,5.07473931920408,185.24633153412
0.55,60.25,-17.7839503750038,-1.13874492342263,2269.70857651098,5.07882849507642,185.342393424914
0.55,60.3,-17.8044754334227,-1.13160717275335,2271.76709580186,5.08291726113708,185.438358189646
0.55,60.35,-17.829032429348,-1.12866009195506,2273.82559394334,5.08700561897664,185.53422581976
0.55,60.4,-17.8567576995898,-1.12977131188794,2275.88407077883,5.09109357017934,185.629996307853
0.55,60.45,-17.8868570423713,-1.13469772700511,2277.94252615284,5.09518111632311,185.725669647654
0.55,60.5,-17.9185782389701,-1.14311572955088,2280.00095991099,5.09926825897962,185.821245834029
0.55,60.55,-17.9511804607708,-1.15464929412258,2282.0593719,5.10335499971424,185.916724862964
0.55,60.6,-17.9838997388105,-1.16889443015023,2284.11776196764,5.10744134008615,186.01210673156
0.55,60.65,-18.0159095401339,-1.18543931580853,2286.17612996278,5.11152728164828,186.107391438027
0.55,60.7,-18.0462755892676,-1.20388003056639,2288.23447573538,5.11561282594739,186.202578981674
0.55,60.75,-18.0739045501769,-1.22383220503997,2290.29279913644,5.11969797452406,186.297669362903
0.55,60.8,-18.0974872937936,-1.24493913185486,2292.35110001802,5.12378272891275,186.3926625832
0.55,60.85,-18.1154395716534,-1.26687697127157,2294.40937823325,5.12786709064178,186.487558645129
0.55,60.9,-18.1258464173275,-1.28935768346968,2296.46763363631,5.13195106123337,186.582357552321
0.55,60.95,-18.1264218439042,-1.31213026266518,2298.52586608242,5.13603464220368,186.67705930947
0.55,61,-18.1145023040831,-1.33498076473423,2300.58407542784,5.1401178350628,186.771663922326
0.55,61.05,-18.0870997587072,-1.35773152888003,2302.64226152984,5.14420064131482,186.866171397683
