"W_line [mm]","Freq [GHz]","dB(S(1,1)) []","dB(S(2,1)) []","im(Gamma(1:1)) []","re(Gamma(1:1)) []","re(Zo(1:1)) []"
0.5,57,-49.8163805476826,-0.454133267825469,2064.83430014808,5.33266871933236,50.8242954903632
0.5,57.05,-49.8663270883815,-0.454497281344288,2066.72082260963,5.33718928435962,50.8245616194174
0.5,57.1,-49.9189095251453,-0.454862835961173,2068.60744383658,5.34171011231872,50.8248362320243
0.5,57.15,-49.9741745022012,-0.455229860266513,2070.49416378535,5.34623120290131,50.8251193085737
0.5,57.2,-50.0321689461127,-0.455598283721865,2072.3809824123,5.35075255580136,50.8254108105835
0.5,57.25,-50.0929401157327,-0.455968036717592,2074.26789967373,5.35527417071513,50.8257106799237
0.5,57.3,-50.1565356594958,-0.456339050628616,2076.15491552587,5.35979604734111,50.8260188381055
0.5,57.35,-50.2230036803354,-0.456711257868204,2078.04202992487,5.36431818537995,50.826335185643
0.5,57.4,-50.2923928084861,-0.457084591939735,2079.92924282685,5.36884058453434,50.8266596014989
0.5,57.45,-50.3647522824132,-0.457458987486417,2081.81655418786,5.37336324450905,50.8269919426217
0.5,57.5,-50.4401320380862,-0.457834380338885,2083.70396396387,5.37788616501076,50.8273320435838
0.5,57.55,-50.5185828067858,-0.458210707560647,2085.5914721108,5.38240934574807,50.8276797163281
0.5,57.6,-50.6001562216067,-0.458587907491373,2087.47907858453,5.38693278643138,50.8280347500311
0.5,57.65,-50.6849049327848,-0.458965919787954,2089.36678334085,5.39145648677285,50.8283969110876
0.5,57.7,-50.7728827319429,-0.459344685463334,2091.25458633553,5.39598044648636,50.8287659432246
0.5,57.75,-50.8641446853088,-0.459724146923077,2093.14248752424,5.40050466528738,50.8291415677467
0.5,57.8,-50.9587472759137,-0.460104247999698,2095.03048686263,5.40502914289296,50.8295234839168
0.5,57.85,-51.056748554726,-0.460484933984655,2096.91858430629,5.40955387902166,50.8299113694752
0.5,57.9,-51.1582083006152,-0.460866151658104,2098.80677981073,5.41407887339345,50.8303048812949
0.5,57.95,-51.2631881889666,-0.461247849316346,2100.69507333143,5.41860412572969,50.8307036561746
0.5,58,-51.3717519686803,-0.46162997679695,2102.58346482382,5.42312963575303,50.8311073117648
0.5,58.05,-51.4839656471837,-0.462012485501653,2104.47195424328,5.42765540318738,50.8315154476249
0.5,58.1,-51.5998976829577,-0.46239532841692,2106.36054154511,5.43218142775781,50.8319276464035
0.5,58.15,-51.7196191849195,-0.462778460132279,2108.24922668459,5.43670770919052,50.8323434751369
0.5,58.2,-51.8432041178131,-0.463161836856369,2110.13800961695,5.44123424721274,50.8327624866564
0.5,58.25,-51.9707295125168,-0.463545416430795,2112.02689029735,5.44576104155271,50.8331842210953
0.5,58.3,-52.1022756798842,-0.463929158341728,2113.91586868093,5.45028809193958,50.8336082074846
0.5,58.35,-52.2379264263652,-0.464313023729349,2115.80494472275,5.45481539810338,50.8340339654257
0.5,58.4,-52.3777692691991,-0.464696975395103,2117.69411837786,5.4593429597749,50.834461006828
0.5,58.45,-52.521895648403,-0.465080977806849,2119.58338960124,5.46387077668572,50.8348888376976
0.5,58.5,-52.6704011320731,-0.46546499710187,2121.47275834784,5.46839884856805,50.8353169599638
0.5,58.55,-52.8233856106362,-0.465849001087854,2123.36222457255,5.47292717515474,50.8357448733297
0.5,58.6,-52.9809534745968,-0.466232959241801,2125.25178823023,5.47745575617917,50.8361720771316
0.5,58.65,-53.143213768957,-0.466616842706966,2127.1414492757,5.48198459137522,50.8365980721953
0.5,58.7,-53.3102803157932,-0.467000624287811,2129.03120766372,5.4865136804772,50.8370223626727
0.5,58.75,-53.4822717943516,-0.467384278443055,2130.92106334903,5.49104302321977,50.8374444578484
0.5,58.8,-53.6593117653893,-0.467767781276855,2132.81101628633,5.49557261933792,50.837863873901
0.5,58.85,-53.8415286231968,-0.468151110528112,2134.70106643026,5.50010246856684,50.8382801356085
0.5,58.9,-54.0290554546336,-0.468534245558032,2136.59121373543,5.50463257064196,50.8386927779858
0.5,58.95,-54.2220297793938,-0.468917167335899,2138.48145815643,5.50916292529878,50.8391013478444
0.5,59,-54.4205931393336,-0.46929985842315,2140.3717996478,5.51369353227288,50.8395054052648
0.5,59.05,-54.6248904967338,-0.469682302955806,2142.26223816403,5.51822439129984,50.8399045249732
0.5,59.1,-54.8350693914446,-0.470064486625269,2144.15277365959,5.5227555021152,50.840298297616
0.5,59.15,-55.0512787945013,-0.470446396657561,2146.04340608893,5.52728686445433,50.8406863309248
0.5,59.2,-55.2736675804157,-0.470828021791038,2147.93413540643,5.53181847805246,50.8410682507695
0.5,59.25,-55.5023825212507,-0.471209352252626,2149.82496156646,5.53635034264458,50.841443702093
0.5,59.3,-55.7375656819291,-0.471590379732615,2151.71588452335,5.54088245796536,50.8418123497272
0.5,59.35,-55.9793510670477,-0.471971097358103,2153.6069042314,5.54541482374913,50.8421738790879
0.5,59.4,-56.2278603336591,-0.472351499665068,2155.49802064489,5.54994743972979,50.8425279967487
0.5,59.45,-56.4831973408801,-0.472731582569154,2157.38923371805,5.55448030564076,50.8428744308945
0.5,59.5,-56.7454412546214,-0.473111343335239,2159.28054340509,5.55901342121494,50.8432129316557
0.5,59.55,-57.0146378633081,-0.473490780545762,2161.17194966018,5.56354678618463,50.8435432713269
0.5,59.6,-57.2907886878153,-0.473869894067935,2163.06345243748,5.56808040028147,50.8438652444723
0.5,59.65,-57.5738373868846,-0.47424868501982,2164.95505169112,5.5726142632364,50.8441786679217
0.5,59.7,-57.8636528710863,-0.474627155735332,2166.84674737518,5.57714837477959,50.8444833806636
0.5,59.75,-58.1600084508804,-0.475005309728272,2168.73853944374,5.58168273464035,50.8447792436383
0.5,59.8,-58.4625562706678,-0.475383151655311,2170.63042785084,5.58621734254716,50.8450661394384
0.5,59.85,-58.7707962438504,-0.475760687278106,2172.5224125505,5.59075219822752,50.8453439719224
0.5,59.9,-59.0840387415027,-0.47613792342448,2174.41449349671,5.59528730140794,50.8456126657479
0.5,59.95,-59.4013604578072,-0.476514867948786,2176.30667064344,5.59982265181389,50.8458721658309
0.5,60,-59.7215532651885,-0.476891529691439,2178.19894394464,5.60435824916968,50.8461224367389
0.5,60.05,-60.0430666002989,-0.477267918437704,2180.09131335424,5.6088940931985,50.8463634620239
0.5,60.1,-60.3639451395038,-0.477644044875744,2181.98377882613,5.61343018362229,50.8465952435028
0.5,60.15,-60.6817653946498,-0.478019920554017,2183.8763403142,5.61796652016169,50.8468178004928
0.5,60.2,-60.9935775184552,-0.478395557837991,2185.76899777231,5.62250310253604,50.8470311690071
0.5,60.25,-61.2958620538662,-0.47877096986629,2187.6617511543,5.62703993046325,50.8472354009202
0.5,60.3,-61.584515297954,-0.479146170506275,2189.55460041399,5.63157700365977,50.8474305631067
0.5,60.35,-61.8548805706462,-0.479521174309102,2191.44754550519,5.63611432184059,50.8476167365623
0.5,60.4,-62.101844467983,-0.479895996464297,2193.34058638169,5.64065188471908,50.8477940155114
0.5,60.45,-62.3200149342351,-0.480270652753901,2195.23372299724,5.64518969200703,50.8479625065081
0.5,60.5,-62.5039893219931,-0.480645159506216,2197.12695530561,5.64972774341453,50.8481223275359
0.5,60.55,-62.6487041934606,-0.481019533549175,2199.02028326052,5.65426603864995,50.8482736071105
0.5,60.6,-62.7498359555838,-0.48139379216342,2200.91370681571,5.65880457741988,50.8484164833919
0.5,60.65,-62.8041982235333,-0.481767953035078,2202.80722592487,5.66334335942906,50.8485511033078
0.5,60.7,-62.8100673170582,-0.482142034208307,2204.70084054169,5.66788238438034,50.848677621695
0.5,60.75,-62.7673705467562,-0.482516054037652,2206.59455061987,5.67242165197464,50.8487962004599
0.5,60.8,-62.6776961561178,-0.482890031140228,2208.48835611305,5.67696116191084,50.8489070077633
0.5,60.85,-62.544122674425,-0.48326398434778,2210.3822569749,5.68150091388579,50.8490102172298
0.5,60.9,-62.3709051545577,-0.483637932658713,2212.27625315905,5.68604090759422,50.849106007187
0.5,60.95,-62.163082022183,-0.48401189519003,2214.17034461914,5.6905811427287,50.8491945599339
0.5,61,-61.9260717564368,-0.484385891129309,2216.06453130878,5.69512161897958,50.8492760610418
0.5,61.05,-61.6653156541268,-0.484759939686736,2217.95881318159,5.69966233603493,50.8493506986887
0.5,61.1,-61.3860001830546,-0.48513406004722,2219.85319019116,5.70420329358052,50.8494186630267
0.5,61.15,-61.0928693611511,-0.48550827132264,2221.7476622911,5.70874449129971,50.8494801455857
0.5,61.2,-60.7901203751276,-0.485882592504311,2223.64222943498,5.71328592887345,50.8495353387108
0.5,61.25,-60.4813661869787,-0.486257042415619,2225.53689157638,5.71782760598021,50.8495844350366
0.5,61.3,-60.169646052696,-0.486631639664984,2227.43164866887,5.72236952229591,50.8496276269949
0.5,61.35,-59.8574663502576,-0.487006402599109,2229.32650066601,5.72691167749389,50.8496651063585
0.5,61.4,-59.5468576236816,-0.487381349256611,2231.22144752136,5.73145407124485,50.849697063819
0.5,61.45,-59.239437702079,-0.487756497322057,2233.11648918849,5.73599670321681,50.8497236885977
0.5,61.5,-58.9364742714582,-0.488131864080473,2235.01162562092,5.74053957307502,50.8497451680898
0.5,61.55,-58.6389430233953,-0.488507466372331,2236.90685677221,5.74508268048196,50.84976168754
0.5,61.6,-58.3475794559966,-0.488883320549149,2238.8021825959,5.74962602509724,50.8497734297489
0.5,61.65,-58.0629236823197,-0.489259442429646,2240.69760304553,5.7541696065776,50.8497805748092
0.5,61.7,-57.7853583743387,-0.489635847256608,2242.59311807464,5.7587134245768,50.8497832998696
0.5,61.75,-57.5151403902649,-0.490012549654409,2244.48872763675,5.76325747874564,50.849781778926
0.5,61.8,-57.2524268224049,-0.490389563587341,2246.3844316854,5.76780176873183,50.8497761826387
0.5,61.85,-56.9972962513308,-0.490766902318734,2248.28023017412,5.77234629417999,50.8497666781729
0.5,61.9,-56.7497659611477,-0.491144578370951,2250.17612305645,5.77689105473162,50.8497534290637
0.5,61.95,-56.5098057996143,-0.491522603486294,2252.07211028592,5.78143605002496,50.8497365951008
0.5,62,-56.2773492800764,-0.491900988588892,2253.96819181607,5.78598127969506,50.849716332235
0.5,62.05,-56.0523024336379,-0.4922797437476,2255.86436760042,5.79052674337362,50.8496927925029
0.5,62.1,-55.8345508371511,-0.49265887813998,2257.76063759252,5.79507244068902,50.8496661239691
0.5,62.15,-55.6239651688886,-0.493038400017412,2259.65700174591,5.79961837126622,50.8496364706845
0.5,62.2,-55.420405580219,-0.493418316671397,2261.55346001413,5.80416453472675,50.8496039726604
0.5,62.25,-55.2237251180011,-0.493798634401059,2263.45001235074,5.80871093068863,50.8495687658558
0.5,62.3,-55.0337723878699,-0.494179358481985,2265.34665870927,5.81325755876632,50.8495309821771
0.5,62.35,-54.8503936119632,-0.494560493136334,2267.24339904329,5.81780441857069,50.8494907494903
0.5,62.4,-54.673434204758,-0.494942041504402,2269.14023330637,5.822351509709,50.8494481916426
0.5,62.45,-54.5027399664389,-0.495324005617581,2271.03716145206,5.82689883178476,50.8494034284944
0.5,62.5,-54.3381579736201,-0.495706386372809,2272.93418343395,5.83144638439777,50.8493565759591
0.5,62.55,-54.1795372314418,-0.496089183508556,2274.83129920562,5.83599416714403,50.8493077460509
0.5,62.6,-54.0267291383432,-0.496472395582398,2276.72850872065,5.84054217961572,50.8492570469394
0.5,62.65,-53.8795878045886,-0.496856019950192,2278.62581193264,5.84509042140111,50.8492045830099
0.5,62.7,-53.7379702574044,-0.497240052746941,2280.5232087952,5.84963889208454,50.8491504549288
0.5,62.75,-53.6017365589802,-0.497624488869342,2282.42069926195,5.85418759124639,50.8490947597142
0.5,62.8,-53.4707498582797,-0.498009321960114,2284.3182832865,5.85873651846298,50.8490375908096
0.5,62.85,-53.3448763933338,-0.498394544394061,2286.21596082249,5.8632856733066,50.848979038161
0.5,62.9,-53.2239854572589,-0.498780147266024,2288.11373182357,5.86783505534536,50.8489191882973
0.5,62.95,-53.1079493384706,-0.499166120380615,2290.01159624339,5.87238466414326,50.848858124412
0.5,63,-52.9966432433399,-0.49955245224386,2291.90955403561,5.87693449926003,50.8487959264469
0.55,57,-45.4648520236141,-0.456662367874229,2075.54659812158,5.30855519420296,48.2186262992768
0.55,57.05,-45.5240471565549,-0.457050354274016,2077.44197510692,5.31308235018854,48.219152832312
0.55,57.1,-45.5866027799656,-0.457438293535885,2079.33745017694,5.31760977090443,48.2196804628179
0.55,57.15,-45.6525848304507,-0.457826178436902,2081.23302328356,5.3221374558917,48.2202091892689
0.55,57.2,-45.7220602742689,-0.458214002235986,2083.12869437865,5.32666540469435,48.2207390101471
0.55,57.25,-45.7950972508277,-0.458601758673639,2085.02446341398,5.33119361685918,48.2212699239421
0.55,57.3,-45.871765233964,-0.458989441971059,2086.92033034125,5.33572209193578,48.221801929151
0.55,57.35,-45.9521352121073,-0.459377046828571,2088.81629511211,5.34025082947644,48.2223350242782
0.55,57.4,-46.0362798884753,-0.459764568423389,2090.71235767811,5.34477982903605,48.2228692078358
0.55,57.45,-46.124273902522,-0.460152002406773,2092.60851799074,5.34930909017213,48.2234044783429
0.55,57.5,-46.2161940739396,-0.460539344900539,2094.50477600141,5.35383861244465,48.2239408343261
0.55,57.55,-46.3121196706107,-0.460926592492945,2096.40113166148,5.35836839541604,48.2244782743192
0.55,57.6,-46.4121327020243,-0.461313742233967,2098.29758492222,5.36289843865112,48.2250167968632
0.55,57.65,-46.5163182398056,-0.461700791630021,2100.19413573483,5.36742874171698,48.2255564005065
0.55,57.7,-46.6247647671666,-0.462087738638059,2102.09078405046,5.371959304183,48.2260970838044
0.55,57.75,-46.7375645592742,-0.462474581659124,2103.98752982018,5.37649012562071,48.2266388453193
0.55,57.8,-46.8548140967462,-0.462861319531367,2105.88437299501,5.38102120560375,48.2271816836208
0.55,57.85,-46.976614514736,-0.463247951522512,2107.78131352587,5.38555254370784,48.2277255972855
0.55,57.9,-47.1030720903552,-0.463634477321812,2109.67835136366,5.39008413951067,48.2282705848969
0.55,57.95,-47.234298771507,-0.464020897031512,2111.57548645918,5.39461599259185,48.2288166450456
0.55,58,-47.3704127505825,-0.464407211157823,2113.47271876318,5.39914810253285,48.2293637763289
0.55,58.05,-47.5115390868884,-0.464793420601439,2115.37004822637,5.40368046891696,48.2299119773512
0.55,58.1,-47.6578103821563,-0.465179526647578,2117.26747479936,5.40821309132918,48.2304612467234
0.55,58.15,-47.8093675140149,-0.46556553095564,2119.16499843272,5.41274596935617,48.2310115830636
0.55,58.2,-47.9663604329042,-0.465951435548411,2121.06261907696,5.41727910258622,48.2315629849964
0.55,58.25,-48.1289490285723,-0.466337242800898,2122.96033668254,5.42181249060916,48.2321154511531
0.55,58.3,-48.2973040730193,-0.466722955428779,2124.85815119984,5.42634613301627,48.2326689801719
0.55,58.35,-48.4716082475497,-0.467108576476481,2126.7560625792,5.43088002940031,48.2332235706972
0.55,58.4,-48.6520572624392,-0.467494109304955,2128.6540707709,5.43541417935532,48.2337792213806
0.55,58.45,-48.8388610786289,-0.46787955757908,2130.55217572515,5.4399485824767,48.2343359308798
0.55,58.5,-49.032245241783,-0.468264925254812,2132.45037739214,5.44448323836104,48.2348936978592
0.55,58.55,-49.2324523399732,-0.468650216566015,2134.34867572197,5.44901814660612,48.2354525209897
0.55,58.6,-49.4397435971137,-0.469035436011026,2136.2470706647,5.4535533068108,48.2360123989487
0.55,58.65,-49.6544006149955,-0.46942058833899,2138.14556217035,5.45808871857504,48.2365733304198
0.55,58.7,-49.8767272772162,-0.469805678535936,2140.04415018886,5.46262438149972,48.2371353140934
0.55,58.75,-50.1070518282955,-0.470190711810651,2141.94283467015,5.46716029518668,48.2376983486658
0.55,58.8,-50.3457291405091,-0.470575693580355,2143.84161556408,5.47169645923862,48.23826243284
0.55,58.85,-50.5931431790524,-0.470960629456192,2145.74049282043,5.47623287325903,48.2388275653249
0.55,58.9,-50.8497096724349,-0.471345525228551,2147.63946638899,5.48076953685216,48.2393937448361
0.55,58.95,-51.115878988582,-0.471730386852241,2149.53853621944,5.4853064496229,48.2399609700949
0.55,59,-51.3921392066296,-0.472115220431539,2151.43770226146,5.48984361117681,48.2405292398293
0.55,59.05,-51.6790193578324,-0.472500032205105,2153.33696446467,5.49438102111997,48.2410985527731
0.55,59.1,-51.9770927833802,-0.472884828530814,2155.23632277863,5.49891867905896,48.2416689076663
0.55,59.15,-52.286980517826,-0.473269615870479,2157.13577715286,5.50345658460083,48.2422403032549
0.55,59.2,-52.6093545476758,-0.47365440077453,2159.03532753686,5.50799473735297,48.2428127382912
0.55,59.25,-52.9449407056252,-0.474039189866617,2160.93497388006,5.51253313692312,48.2433862115332
0.55,59.3,-53.2945208271918,-0.474423989828164,2162.83471613184,5.51707178291926,48.2439607217451
0.55,59.35,-53.6589335958441,-0.474808807382922,2164.73455424158,5.52161067494957,48.244536267697
0.55,59.4,-54.0390732016748,-0.475193649281484,2166.63448815857,5.52614981262238,48.2451128481648
0.55,59.45,-54.4358844866225,-0.475578522285809,2168.53451783208,5.5306891955461,48.2456904619304
0.55,59.5,-54.8503525699957,-0.475963433153759,2170.43464321136,5.53522882332916,48.2462691077815
0.55,59.55,-55.2834839272685,-0.476348388623666,2172.3348642456,5.53976869557995,48.2468487845117
0.55,59.6,-55.7362743631394,-0.476733395398939,2174.23518088393,5.54430881190677,48.2474294909202
0.55,59.65,-56.2096570299818,-0.477118460132715,2176.13559307549,5.54884917191777,48.2480112258122
0.55,59.7,-56.7044202497834,-0.477503589412583,2178.03610076935,5.55338977522088,48.2485939879985
0.55,59.75,-57.2210799527087,-0.477888789745399,2179.93670391456,5.55793062142378,48.2491777762955
0.55,59.8,-57.7596845549034,-0.478274067542168,2181.83740246011,5.56247171013379,48.2497625895253
0.55,59.85,-58.3195207629982,-0.478659429103057,2183.73819635499,5.56701304095787,48.2503484265159
0.55,59.9,-58.8986776958885,-0.479044880602497,2185.63908554813,5.57155461350254,48.2509352861006
0.55,59.95,-59.4934170011436,-0.479430428074442,2187.54006998843,5.5760964273738,48.2515231671183
0.55,60,-60.0972976117678,-0.479816077397759,2189.44114962477,5.58063848217712,48.2521120684135
0.55,60.05,-60.7000372810062,-0.480201834281753,2191.34232440598,5.58518077751733,48.2527019888363
0.55,60.1,-61.2862010745796,-0.480587704251896,2193.24359428088,5.5897233129986,48.2532929272421
0.55,60.15,-61.8340490072294,-0.480973692635692,2195.14495919824,5.59426608822438,48.2538848824919
0.55,60.2,-62.3152790732838,-0.481359804548787,2197.04641910681,5.59880910279732,48.254477853452
0.55,60.25,-62.6968169381886,-0.481746044881208,2198.9479739553,5.60335235631923,48.2550718389942
0.55,60.3,-62.9456995474309,-0.482132418283892,2200.8496236924,5.60789584839105,48.2556668379957
0.55,60.35,-63.03673148959,-0.482518929155401,2202.75136826677,5.61243957861273,48.2562628493389
0.55,60.4,-62.9601100141263,-0.48290558162888,2204.65320762706,5.61698354658323,48.2568598719116
0.55,60.45,-62.7247923823862,-0.483292379559278,2206.55514172185,5.62152775190046,48.2574579046067
0.55,60.5,-62.3554153998941,-0.48367932651084,2208.45717049973,5.62607219416116,48.2580569463227
0.55,60.55,-61.8847775674142,-0.484066425744853,2210.35929390926,5.63061687296096,48.2586569959631
0.55,60.6,-61.346100575147,-0.484453680207694,2212.26151189896,5.63516178789421,48.2592580524364
0.55,60.65,-60.7679899400855,-0.484841092519212,2214.16382441734,5.63970693855398,48.2598601146568
0.55,60.7,-60.1725173463438,-0.485228664961366,2216.06623141289,5.64425232453203,48.2604631815431
0.55,60.75,-59.5754089066916,-0.485616399467246,2217.96873283405,5.64879794541869,48.2610672520195
0.55,60.8,-58.9871753572476,-0.486004297610413,2219.87132862927,5.65334380080286,48.2616723250152
0.55,60.85,-58.4144260462879,-0.48639236059459,2221.77401874695,5.65788989027191,48.2622783994645
0.55,60.9,-57.861018866939,-0.486780589243738,2223.6768031355,5.66243621341169,48.2628854743068
0.55,60.95,-57.3289479898042,-0.487168983992504,2225.57968174329,5.66698276980641,48.2634935484863
0.55,61,-56.8189842453226,-0.487557544877054,2227.48265451866,5.67152955903861,48.2641026209524
