"W_line [mm]","Freq [GHz]","dB(S(1,1)) []","dB(S(2,1)) []","im(Gamma(1)) []","re(Gamma(1)) []","re(Zo(1)) []"
0.5,57,-38.234907079955,-0.579762252447671,2242.00359478104,5.27312159097194,82.2378891329244
0.5,57.05,-37.8449166939451,-0.588257945099283,2244.00942150284,5.27748093538946,82.2412637993673
0.5,57.1,-37.4440717104839,-0.597183752220883,2246.01525835672,5.28184001250006,82.2446318405427
0.5,57.15,-37.0328267881793,-0.606649693760923,2248.02110529966,5.28619882272816,82.2479932680715
0.5,57.2,-36.6118776545314,-0.616779933598559,2250.02696228883,5.29055736649719,82.2513480935717
0.5,57.25,-36.1822220157357,-0.627711401309875,2252.03282928158,5.29491564422966,82.2546963286586
0.5,57.3,-35.7452313917549,-0.639589849536071,2254.03870623541,5.29927365634716,82.2580379849444
0.5,57.35,-35.3027334111336,-0.65256185773705,2256.044593108,5.30363140327029,82.2613730740385
0.5,57.4,-34.857102184815,-0.666760855697842,2258.0504898572,5.30798888541875,82.2647016075467
0.5,57.45,-34.411351287392,-0.682285015710203,2260.05639644102,5.31234610321129,82.2680235970718
0.5,57.5,-33.9692193245702,-0.699165283325133,2262.06231281765,5.31670305706571,82.2713390542127
0.5,57.55,-33.535232032343,-0.717323577700729,2264.06823894544,5.3210597473989,82.2746479905652
0.5,57.6,-33.1147179373031,-0.736525101277228,2266.07417478291,5.32541617462679,82.2779504177209
0.5,57.65,-32.7137485322559,-0.756335079233151,2268.08012028872,5.3297723391644,82.2812463472678
0.5,57.7,-32.3389719477005,-0.776097750704048,2270.08607542174,5.33412824142582,82.2845357907898
0.5,57.75,-31.9973158423622,-0.794959768315785,2272.09204014096,5.33848388182418,82.2878187598666
0.5,57.8,-31.6955551324218,-0.811954612535901,2274.09801440556,5.34283926077172,82.2910952660739
0.5,57.85,-31.439774197773,-0.826144612114813,2276.10399817488,5.34719437867973,82.2943653209828
0.5,57.9,-31.2347948372391,-0.836787767975373,2278.10999140842,5.35154923595859,82.2976289361601
0.5,57.95,-31.0836750636032,-0.843475108640599,2280.11599406582,5.35590383301775,82.3008861231678
0.5,58,-30.9873905284162,-0.846189313491382,2282.12200610691,5.36025817026572,82.3041368935633
0.5,58.05,-30.9447783410078,-0.84526822209196,2284.12802749167,5.36461224811015,82.307381258899
0.5,58.1,-30.9527591836643,-0.841296949700592,2286.13405818023,5.36896606695769,82.3106192307226
0.5,58.15,-31.0067829434008,-0.834974595267948,2288.14009813288,5.37331962721413,82.3138508205765
0.5,58.2,-31.1013947138444,-0.826997534742304,2290.14614731009,5.37767292928433,82.3170760399978
0.5,58.25,-31.2308078950783,-0.81798146678289,2292.15220567246,5.38202597357224,82.3202949005187
0.5,58.3,-31.3893950069924,-0.808424250692591,2294.15827318075,5.38637876048087,82.3235074136656
0.5,58.35,-31.5720472489918,-0.798699862898412,2296.1643497959,5.39073129041235,82.3267135909594
0.5,58.4,-31.7743925715898,-0.789070828793488,2298.17043547896,5.3950835637679,82.3299134439155
0.5,58.45,-31.9928884967686,-0.779708630564856,2300.17653019119,5.39943558094781,82.3331069840434
0.5,58.5,-32.2248182569945,-0.770715294970038,2302.18263389395,5.40378734235148,82.3362942228468
0.5,58.55,-32.468220447796,-0.762142638567623,2304.18874654879,5.4081388483774,82.3394751718233
0.5,58.6,-32.721778162104,-0.75400786269391,2306.1948681174,5.41249009942316,82.3426498424647
0.5,58.65,-32.984687442938,-0.746305427643575,2308.20099856162,5.41684109588545,82.3458182462561
0.5,58.7,-33.2565191877488,-0.73901569588744,2310.20713784344,5.42119183816005,82.3489803946767
0.5,58.75,-33.5370843052035,-0.732111002292112,2312.21328592501,5.42554232664184,82.3521362991992
0.5,58.8,-33.8263090206918,-0.725559784024062,2314.21944276862,5.42989256172482,82.3552859712897
0.5,58.85,-34.1241253784841,-0.719329301512235,2316.22560833671,5.43424254380207,82.3584294224078
0.5,58.9,-34.4303807084963,-0.713387365006657,2318.23178259187,5.4385922732658,82.3615666640061
0.5,58.95,-34.7447686952483,-0.707703375543118,2320.23796549684,5.44294175050731,82.3646977075307
0.5,59,-35.0667834487997,-0.702248903252491,2322.24415701451,5.44729097591702,82.3678225644205
0.5,59.05,-35.3956965628958,-0.696997960315026,2324.25035710791,5.45163994988446,82.3709412461077
0.5,59.1,-35.730555646912,-0.691927077566589,2326.25656574021,5.45598867279825,82.374053764017
0.5,59.15,-36.0702014267846,-0.687015259137944,2328.26278287474,5.46033714504616,82.3771601295661
0.5,59.2,-36.4132994355446,-0.682243865135724,2330.26900847498,5.46468536701504,82.3802603541652
0.5,59.25,-36.758381711355,-0.677596455459394,2332.27524250453,5.46903333909088,82.3833544492173
0.5,59.3,-37.103893846277,-0.67305861624384,2334.28148492714,5.47338106165878,82.3864424261177
0.5,59.35,-37.4482431330715,-0.668617782538649,2336.28773570673,5.47772853510296,82.3895242962542
0.5,59.4,-37.7898443113397,-0.664263065540699,2338.29399480732,5.48207575980676,82.3926000710068
0.5,59.45,-38.1271603527697,-0.659985089180502,2340.30026219311,5.48642273615264,82.3956697617477
0.5,59.5,-38.4587366890024,-0.6557758385597,2342.30653782841,5.49076946452221,82.3987333798413
0.5,59.55,-38.7832281518751,-0.651628521256672,2344.3128216777,5.49511594529616,82.401790936644
0.5,59.6,-39.0994185910553,-0.647537441590168,2346.31911370557,5.49946217885435,82.4048424435039
0.5,59.65,-39.4062336320629,-0.643497887372738,2348.32541387677,5.50380816557575,82.4078879117612
0.5,59.7,-39.7027473480084,-0.639506028371349,2350.33172215619,5.50815390583847,82.4109273527477
0.5,59.75,-39.9881837721696,-0.635558825536367,2352.33803850884,5.51249940001973,82.413960777787
0.5,59.8,-40.261914215446,-0.631653950005103,2354.34436289988,5.51684464849591,82.4169881981941
0.5,59.85,-40.5234513115736,-0.627789710893642,2356.35069529462,5.52118965164252,82.4200096252756
0.5,59.9,-40.7724406263816,-0.623964990935203,2358.35703565847,5.5255344098342,82.4230250703293
0.5,59.95,-41.0086505597235,-0.620179189088259,2360.36338395702,5.52987892344473,82.4260345446446
0.5,60,-41.2319611564218,-0.616432169311909,2362.36974015595,5.53422319284705,82.4290380595018
0.5,60.05,-41.442352335375,-0.612724214782866,2364.37610422111,5.53856721841321,82.4320356261727
0.5,60.1,-41.6398919487877,-0.60905598690372,2366.38247611848,5.54291100051444,82.4350272559198
0.5,60.15,-41.8247239980332,-0.605428488523354,2368.38885581415,5.54725453952108,82.4380129599969
0.5,60.2,-41.9970572588296,-0.601843030856182,2370.39524327436,5.55159783580264,82.4409927496484
0.5,60.25,-42.15715450526,-0.59830120364699,2372.40163846549,5.55594088972778,82.4439666361098
0.5,60.3,-42.3053224684693,-0.594804848182019,2374.40804135404,5.5602837016643,82.4469346306071
0.5,60.35,-42.4419026204483,-0.591356032795351,2376.41445190663,5.56462627197917,82.449896744357
0.5,60.4,-42.5672628351963,-0.587957030562498,2378.42087009005,5.56896860103849,82.452852988567
0.5,60.45,-42.6817899479338,-0.58461029891106,2380.42729587117,5.57331068920753,82.4558033744348
0.5,60.5,-42.7858832072725,-0.581318460911824,2382.43372921703,5.57765253685072,82.4587479131486
0.5,60.55,-42.8799485947876,-0.578084288043148,2384.44017009477,5.58199414433165,82.4616866158872
0.5,60.6,-42.9643939707709,-0.574910684247489,2386.44661847169,5.58633551201306,82.4646194938193
0.5,60.65,-43.0396249935489,-0.571800671121669,2388.45307431518,5.59067664025687,82.467546558104
0.5,60.7,-43.1060417521306,-0.568757374102588,2390.45953759279,5.59501752942415,82.4704678198906
0.5,60.75,-43.1640360475626,-0.565784009527702,2392.46600827219,5.59935817987514,82.4733832903183
0.5,60.8,-43.2139892566993,-0.562883872465075,2394.47248632115,5.60369859196927,82.4762929805165
0.5,60.85,-43.2562707126163,-0.560060325221569,2396.4789717076,5.60803876606509,82.4791969016041
0.5,60.9,-43.2912365381437,-0.557316786449634,2398.48546439958,5.61237870252038,82.4820950646903
0.5,60.95,-43.3192288725018,-0.554656720783953,2400.49196436526,5.61671840169206,82.4849874808737
0.5,61,-43.3405754354233,-0.552083628948414,2402.49847157293,5.62105786393623,82.487874161243
0.5,61.05,-43.3555893780912,-0.549601038282361,2404.504985991,5.62539708960816,82.4907551168762
0.5,61.1,-43.3645693754391,-0.547212493642286,2406.511507588,5.62973607906234,82.493630358841
0.5,61.15,-43.3677999196377,-0.544921548641745,2408.51803633261,5.63407483265238,82.4964998981945
0.5,61.2,-43.3655517797507,-0.542731757198044,2410.5245721936,5.63841335073111,82.4993637459835
0.5,61.25,-43.3580825974654,-0.540646665359335,2412.53111513987,5.64275163365055,82.5022219132439
0.5,61.3,-43.3456375934125,-0.538669803390433,2414.53766514046,5.64708968176188,82.5050744110009
0.5,61.35,-43.3284503628167,-0.536804678099643,2416.54422216451,5.6514274954155,82.5079212502692
0.5,61.4,-43.3067437430566,-0.535054765392514,2418.55078618128,5.65576507496097,82.5107624420525
0.5,61.45,-43.2807307391361,-0.53342350304171,2420.55735716016,5.66010242074707,82.5135979973436
0.5,61.5,-43.250615496098,-0.53191428366487,2422.56393507065,5.66443953312174,82.5164279271244
0.5,61.55,-43.2165943100449,-0.530530447905077,2424.57051988238,5.66877641243216,82.5192522423658
0.5,61.6,-43.178856671706,-0.529275277810499,2426.57711156509,5.67311305902465,82.5220709540276
0.5,61.65,-43.1375863384148,-0.52815199041195,2428.58371008865,5.67744947324481,82.5248840730586
0.5,61.7,-43.0929624319641,-0.527163731498613,2430.59031542301,5.68178565543735,82.5276916103963
0.5,61.75,-43.0451605611014,-0.526313569593816,2432.59692753828,5.68612160594626,82.5304935769668
0.5,61.8,-42.9943539684379,-0.525604490133815,2434.60354640468,5.6904573251147,82.5332899836853
0.5,61.85,-42.9407147022689,-0.525039389853736,2436.61017199251,5.69479281328502,82.5360808414554
0.5,61.9,-42.8844148142562,-0.524621071385658,2438.61680427223,5.69912807079883,82.5388661611692
0.5,61.95,-42.8256275840949,-0.524352238074492,2440.62344321438,5.70346309799692,82.5416459537076
0.5,62,-42.7645287721708,-0.524235489017886,2442.63008878964,5.70779789521928,82.5444202299397
0.5,62.05,-42.7012979007885,-0.524273314336798,2444.63674096878,5.71213246280514,82.5471890007232
0.5,62.1,-42.6361195638012,-0.524468090683545,2446.64339972271,5.71646680109294,82.5499522769041
0.5,62.15,-42.5691847633493,-0.524822076994419,2448.65006502243,5.72080091042034,82.5527100693167
0.5,62.2,-42.5006922709047,-0.525337410493807,2450.65673683907,5.72513479112421,82.5554623887838
0.5,62.25,-42.4308500078531,-0.526016102956681,2452.66341514385,5.72946844354068,82.558209246116
0.5,62.3,-42.359876438404,-0.526860037236205,2454.67009990812,5.73380186800505,82.5609506521124
0.5,62.35,-42.2880019646403,-0.527870964062733,2456.67679110334,5.73813506485189,82.5636866175601
0.5,62.4,-42.2154703099769,-0.529050499120159,2458.68348870107,5.74246803441498,82.5664171532342
0.5,62.45,-42.1425398731619,-0.530400120405085,2460.69019267298,5.74680077702735,82.569142269898
0.5,62.5,-42.0694850302182,-0.531921165873637,2462.69690299086,5.75113329302124,82.5718619783026
0.5,62.55,-41.9965973564148,-0.533614831380199,2464.70361962661,5.75546558272813,82.574576289187
0.5,62.6,-41.9241867345456,-0.535482168911561,2466.71034255223,5.75979764647876,82.5772852132782
0.5,62.65,-41.8525823095942,-0.537524085119307,2468.71707173982,5.76412948460308,82.5799887612909
0.5,62.7,-41.7821332434883,-0.539741340152345,2470.72380716161,5.7684610974303,82.5826869439278
0.5,62.75,-41.7132092173639,-0.542134546790793,2472.73054878992,5.77279248528888,82.5853797718791
0.5,62.8,-41.6462006229721,-0.544704169881427,2474.73729659718,5.7771236485065,82.5880672558228
0.5,62.85,-41.5815183800571,-0.547450526074086,2476.74405055594,5.78145458741012,82.5907494064245
0.5,62.9,-41.5195933133337,-0.55037378385749,2478.75081063883,5.78578530232592,82.5934262343374
0.5,62.95,-41.460875021813,-0.553473963892026,2480.75757681861,5.79011579357935,82.5960977502024
0.5,63,-41.4058301754673,-0.556750939636084,2482.76434906814,5.79444606149511,82.5987639646478
0.55,57,-38.4695076535539,-0.624802194024871,2244.10176613738,5.26027327204194,79.9183050605763
0.55,57.05,-38.2797237258666,-0.627761286002327,2246.10761692443,5.26461435977329,79.9204396636673
0.55,57.1,-38.2008115704809,-0.630879051269334,2248.11347642054,5.26895520849035,79.9225685120238
0.55,57.15,-38.2238885854114,-0.634115960452852,2250.11934459069,5.2732958185614,79.9246916194476
0.55,57.2,-38.3270091145567,-0.637432964995799,2252.12522140003,5.27763619035389,79.9268089997199
0.55,57.25,-38.4811594358636,-0.640791615154248,2254.13110681382,5.28197632423448,79.9289206666009
0.55,57.3,-38.6570035954291,-0.644154180340614,2256.13700079748,5.28631622056897,79.9310266338299
0.55,57.35,-38.8297031900254,-0.647483771815316,2258.14290331653,5.29065587972235,79.9331269151254
0.55,57.4,-38.9810242025023,-0.650744467691713,2260.14881433667,5.29499530205876,79.935221524185
0.55,57.45,-39.0993468922254,-0.653901440169391,2262.15473382369,5.29933448794153,79.937310474685
0.55,57.5,-39.1785736620713,-0.65692108484816,2264.16066174354,5.30367343773312,79.9393937802809
0.55,57.55,-39.2167076353343,-0.659771151898838,2266.16659806229,5.30801215179517,79.9414714546069
0.55,57.6,-39.2145284299842,-0.66242087877667,2268.17254274616,5.31235063048845,79.9435435112762
0.55,57.65,-39.1745330744976,-0.664841124058325,2270.17849576147,5.31668887417291,79.9456099638805
0.55,57.7,-39.1001663618313,-0.667004501864621,2272.18445707471,5.3210268832076,79.9476708259906
0.55,57.75,-38.9953020582148,-0.668885516198381,2274.19042665247,5.32536465795078,79.9497261111557
0.55,57.8,-38.8639180262826,-0.670460694381285,2276.19640446148,5.3297021987598,79.9517758329039
0.55,57.85,-38.7099105603126,-0.671708718617134,2278.20239046861,5.33403950599115,79.9538200047416
0.55,57.9,-38.5370029904088,-0.672610554543212,2280.20838464083,5.3383765800005,79.9558586401542
0.55,57.95,-38.3487146005797,-0.673149575459905,2282.21438694528,5.34271342114262,79.9578917526051
0.55,58,-38.1483655211409,-0.673311680754851,2284.22039734919,5.34705002977142,79.9599193555367
0.55,58.05,-37.9391007338154,-0.673085406866155,2286.22641581995,5.35138640623994,79.9619414623694
0.55,58.1,-37.7239217317627,-0.672462028965584,2288.23244232504,5.35572255090037,79.9639580865023
0.55,58.15,-37.5057180837443,-0.671435651392262,2290.23847683209,5.360058464104,79.9659692413127
0.55,58.2,-37.2872936097707,-0.670003284738695,2292.24451930887,5.36439414620126,79.9679749401563
0.55,58.25,-37.0713835027701,-0.668164907390405,2294.25056972324,5.36872959754172,79.9699751963672
0.55,58.3,-36.8606598816496,-0.665923509256637,2296.2566280432,5.37306481847404,79.9719700232574
0.55,58.35,-36.6577242201441,-0.66328511541136,2298.26269423689,5.37739980934605,79.9739594341175
0.55,58.4,-36.4650860748492,-0.660258787398379,2300.26876827255,5.38173457050466,79.9759434422161
0.55,58.45,-36.2851286656361,-0.656856600050816,2302.27485011856,5.38606910229593,79.9779220607998
0.55,58.5,-36.1200631775514,-0.653093591839603,2304.28093974341,5.39040340506502,79.9798953030936
0.55,58.55,-35.9718750816462,-0.648987687004058,2306.28703711572,5.39473747915624,79.9818631823004
0.55,58.6,-35.842267130568,-0.644559588033658,2308.29314220423,5.399071324913,79.9838257116011
0.55,58.65,-35.7326047097203,-0.639832637465139,2310.29925497781,5.40340494267783,79.9857829041548
0.55,58.7,-35.6438696334415,-0.634832648431465,2312.30537540543,5.40773833279239,79.9877347730983
0.55,58.75,-35.5766280533385,-0.629587703944288,2314.31150345619,5.41207149559748,79.9896813315466
0.55,58.8,-35.5310168340199,-0.62412792550069,2316.31763909932,5.41640443143297,79.9916225925924
0.55,58.85,-35.5067506993513,-0.618485212266071,2318.32378230415,5.4207371406379,79.9935585693065
0.55,58.9,-35.5031500036957,-0.612692952782293,2320.32993304015,5.4250696235504,79.9954892747373
0.55,58.95,-35.5191865917845,-0.606785711863739,2322.3360912769,5.42940188050775,79.9974147219113
0.55,59,-35.5535433166324,-0.600798896051849,2324.34225698408,5.43373391184634,79.9993349238325
0.55,59.05,-35.604681689945,-0.59476840167609,2326.34843013151,5.43806571790168,80.0012498934829
0.55,59.1,-35.6709119412222,-0.588730250189965,2328.35461068912,5.44239729900842,80.0031596438222
0.55,59.15,-35.7504603548976,-0.582720215989182,2330.36079862695,5.44672865550032,80.0050641877876
0.55,59.2,-35.8415298935029,-0.576773452349827,2332.36699391516,5.45105978771028,80.0069635382943
0.55,59.25,-35.942351501657,-0.570924121425553,2334.37319652403,5.45539069597032,80.008857708235
0.55,59.3,-36.0512248523776,-0.565205034395682,2336.37940642394,5.4597213806116,80.0107467104799
0.55,59.35,-36.1665484544076,-0.559647307847723,2338.38562358541,5.46405184196442,80.0126305578771
0.55,59.4,-36.2868398907387,-0.554280042300574,2340.39184797904,5.46838208035818,80.0145092632521
0.55,59.45,-36.4107474886601,-0.549130028428981,2342.39807957557,5.47271209612146,80.016382839408
0.55,59.5,-36.5370549694435,-0.544221486041892,2344.40431834584,5.47704188958195,80.0182512991254
0.55,59.55,-36.6646806572541,-0.539575840211826,2346.41056426081,5.48137146106648,80.0201146551625
0.55,59.6,-36.792672713542,-0.535211538169481,2348.41681729154,5.48570081090105,80.021972920255
0.55,59.65,-36.9202016682506,-0.531143909693914,2350.4230774092,5.49002993941077,80.0238261071159
0.55,59.7,-37.0465512915036,-0.527385072774514,2352.4293445851,5.49435884691991,80.025674228436
0.55,59.75,-37.1711086224069,-0.523943885329744,2354.43561879063,5.4986875337519,80.0275172968831
0.55,59.8,-37.2933537652244,-0.520825942774095,2356.44189999729,5.50301600022931,80.0293553251028
0.55,59.85,-37.4128498872321,-0.518033620262608,2358.4481881767,5.50734424667387,80.0311883257178
0.55,59.9,-37.5292337097605,-0.515566157543049,2360.4544833006,5.51167227340647,80.0330163113285
0.55,59.95,-37.6422066727908,-0.513419783537433,2362.46078534081,5.51600008074716,80.0348392945122
0.55,60,-37.7515268701775,-0.511587877079434,2364.46709426927,5.52032766901516,80.0366572878241
0.55,60.05,-37.8570017924857,-0.510061159669415,2366.47341005804,5.52465503852884,80.0384703037963
0.55,60.1,-37.9584818728716,-0.508827915684983,2368.47973267927,5.52898218960576,80.0402783549383
0.55,60.15,-38.0558548041488,-0.507874235206171,2370.48606210522,5.53330912256263,80.042081453737
0.55,60.2,-38.1490405785598,-0.507184274478989,2372.49239830827,5.53763583771539,80.0438796126566
0.55,60.25,-38.2379871928655,-0.506740529041921,2374.49874126089,5.54196233537909,80.0456728441383
0.55,60.3,-38.3226669578751,-0.506524114664998,2376.50509093564,5.54628861586802,80.0474611606009
0.55,60.35,-38.4030733516981,-0.506515051485154,2378.51144730523,5.55061467949563,80.0492445744402
0.55,60.4,-38.4792183585055,-0.506692547046603,2380.51781034243,5.55494052657459,80.0510230980293
0.55,60.45,-38.5511302384908,-0.507035274351732,2382.52418002014,5.55926615741675,80.0527967437185
0.55,60.5,-38.6188516793454,-0.507521641476744,2384.53055631135,5.56359157233315,80.0545655238353
0.55,60.55,-38.6824382844505,-0.508130049787773,2386.53693918915,5.56791677163406,80.0563294506844
0.55,60.6,-38.7419573578271,-0.508839138289641,2388.54332862675,5.57224175562895,80.0580885365475
0.55,60.65,-38.797486950469,-0.509628012134439,2390.54972459744,5.5765665246265,80.0598427936838
0.55,60.7,-38.8491151369059,-0.510476453797249,2392.55612707463,5.58089107893462,80.0615922343293
0.55,60.75,-38.8969394946159,-0.511365115879858,2394.56253603181,5.58521541886044,80.0633368706975
0.55,60.8,-38.9410667622133,-0.512275694921521,2396.56895144259,5.58953954471032,80.0650767149787
0.55,60.85,-38.9816126551548,-0.513191085972483,2398.57537328067,5.59386345678983,80.0668117793405
0.55,60.9,-39.0187018200469,-0.514095518016813,2400.58180151985,5.59818715540383,80.0685420759275
0.55,60.95,-39.0524679105006,-0.514974670614361,2402.58823613404,5.60251064085638,80.0702676168615
0.55,61,-39.0830537688879,-0.515815772367131,2404.59467709722,5.60683391345081,80.0719884142415
