"W_line [mm]","Freq [GHz]","dB(S(1,1)) []","dB(S(2,1)) []","im(Gamma(1)) []","re(Gamma(1)) []","re(Zo(1)) []"
0.5,57,-17.891915082758,-0.71047622378112,2188.05954182249,5.00511165612227,124.282504448254
0.5,57.05,-17.9973512780565,-0.709426948383196,2190.07491768989,5.00929164851439,124.309700708293
0.5,57.1,-18.0927408204539,-0.709108627871969,2192.09031715383,5.01347116395582,124.336877829763
0.5,57.15,-18.1788876556456,-0.709508270536923,2194.10574008269,5.01765020359592,124.364035811697
0.5,57.2,-18.2564950185027,-0.710613793647794,2196.12118634538,5.02182876858159,124.391174653284
0.5,57.25,-18.3261773433455,-0.712414047329436,2198.13665581139,5.02600686005727,124.418294353864
0.5,57.3,-18.3884723097803,-0.714898815079084,2200.15214835074,5.03018447916492,124.445394912928
0.5,57.35,-18.4438528427607,-0.718058782627429,2202.16766383401,5.03436162704407,124.472476330119
0.5,57.4,-18.4927391206672,-0.721885464132459,2204.18320213232,5.03853830483176,124.499538605228
0.5,57.45,-18.5355108236758,-0.726371071163353,2206.19876311735,5.04271451366259,124.526581738194
0.5,57.5,-18.5725200063476,-0.731508305363948,2208.2143466613,5.04689025466868,124.553605729105
0.5,57.55,-18.6041051243724,-0.737290049826674,2210.22995263693,5.05106552897969,124.580610578194
0.5,57.6,-18.6306069002403,-0.743708926776807,2212.24558091751,5.05524033772284,124.607596285839
0.5,57.65,-18.6523868841499,-0.75075667988077,2214.26123137687,5.05941468202286,124.634562852563
0.5,57.7,-18.6698497533474,-0.758423328127045,2216.27690388936,5.06358856300203,124.661510279032
0.5,57.75,-18.6834705783693,-0.766696024728107,2218.29259832988,5.06776198178016,124.688438566054
0.5,57.8,-18.6938284233827,-0.775557539169556,2220.30831457383,5.07193493947462,124.71534771458
0.5,57.85,-18.7016476455911,-0.784984264405114,2222.32405249715,5.07610743720028,124.742237725699
0.5,57.9,-18.7078479376055,-0.794943636527283,2224.33981197631,5.08027947606959,124.769108600641
0.5,57.95,-18.7136032068242,-0.805390845374844,2226.35559288829,5.08445105719252,124.795960340774
0.5,58,-18.720407308654,-0.816264719075378,2228.3713951106,5.08862218167657,124.822792947604
0.5,58.05,-18.730140723806,-0.827482695873455,2230.38721852125,5.09279285062679,124.849606422771
0.5,58.1,-18.7451256165268,-0.838934871648233,2232.40306299879,5.09696306514577,124.876400768054
0.5,58.15,-18.7681466422433,-0.850477257744666,2234.41892842226,5.10113282633365,124.903175985366
0.5,58.2,-18.802401793703,-0.861924634119695,2236.43481467124,5.1053021352881,124.92993207675
0.5,58.25,-18.8513347150742,-0.873043770630611,2238.45072162577,5.10947099310432,124.956669044387
0.5,58.3,-18.9182956717653,-0.88354833213498,2240.46664916645,5.11363940087509,124.983386890586
0.5,58.35,-19.0059974875379,-0.893097451689203,2242.48259717436,5.11780735969071,125.010085617789
0.5,58.4,-19.1157920854342,-0.9013006265499,2244.49856553107,5.12197487063901,125.036765228565
0.5,58.45,-19.2468969366626,-0.907731991356055,2246.51455411867,5.12614193480541,125.063425725617
0.5,58.5,-19.3958172333469,-0.911956708204289,2248.53056281974,5.13030855327284,125.090067111771
0.5,58.55,-19.5562619340344,-0.913570649666532,2250.54659151736,5.13447472712179,125.116689389983
0.5,58.6,-19.7197542269497,-0.912251375144059,2252.5626400951,5.13864045743031,125.143292563335
0.5,58.65,-19.8768793078358,-0.907813868889974,2254.57870843702,5.14280574527398,125.169876635034
0.5,58.7,-20.018817318124,-0.90025991450963,2256.59479642768,5.14697059172595,125.19644160841
0.5,58.75,-20.1386678060433,-0.889807596774023,2258.61090395212,5.15113499785692,125.22298748692
0.5,58.8,-20.23218393877,-0.876889527567049,2260.62703089586,5.15529896473514,125.249514274141
0.5,58.85,-20.2978165797763,-0.862115625966928,2262.64317714491,5.15946249342643,125.276021973772
0.5,58.9,-20.3362338365828,-0.846206463129026,2264.65934258577,5.16362558499414,125.302510589634
0.5,58.95,-20.349599307665,-0.829911968812441,2266.6755271054,5.1677882404992,125.328980125667
0.5,59,-20.3408588708758,-0.813933683961687,2268.69173059126,5.17195046100011,125.355430585932
0.5,59.05,-20.3131792962523,-0.798865592621004,2270.70795293126,5.17611224755291,125.381861974606
0.5,59.1,-20.2695791882437,-0.785161089956483,2272.72419401382,5.18027360121122,125.408274295984
0.5,59.15,-20.2127293867039,-0.773125630660219,2274.74045372778,5.18443452302623,125.434667554479
0.5,59.2,-20.144875857132,-0.762929054578902,2276.75673196251,5.18859501404668,125.461041754618
0.5,59.25,-20.067838540287,-0.754629508384288,2278.77302860779,5.19275507531888,125.487396901044
0.5,59.3,-19.9830502972827,-0.748201582631248,2280.7893435539,5.19691470788675,125.513732998514
0.5,59.35,-19.8916122226197,-0.743563393206573,2282.80567669159,5.20107391279173,125.540050051897
0.5,59.4,-19.794351461054,-0.740599659671528,2284.82202791204,5.20523269107288,125.566348066176
0.5,59.45,-19.6918744549247,-0.739179695181369,2286.83839710691,5.2093910437668,125.592627046444
0.5,59.5,-19.5846127205429,-0.739170422089561,2288.85478416832,5.21354897190771,125.618886997906
0.5,59.55,-19.4728605701138,-0.740445141021066,2290.87118898884,5.21770647652739,125.645127925876
0.5,59.6,-19.3568053401247,-0.742888986521872,2292.88761146149,5.22186355865519,125.671349835777
0.5,59.65,-19.2365511503109,-0.746401972115801,2294.90405147976,5.22602021931808,125.697552733141
0.5,59.7,-19.112137316729,-0.750900389089845,2296.92050893755,5.23017645954059,125.723736623606
0.5,59.75,-18.9835524673671,-0.756317155012493,2298.93698372927,5.23433228034486,125.749901512919
0.5,59.8,-18.8507452644944,-0.762601550611072,2300.95347574971,5.23848768275062,125.77604740693
0.5,59.85,-18.7136324791763,-0.769718653781703,2302.96998489415,5.24264266777519,125.802174311595
0.5,59.9,-18.5721050156289,-0.777648680393115,2304.98651105831,5.24679723643348,125.828282232977
0.5,59.95,-18.4260323562521,-0.78638637012612,2307.00305413831,5.25095138973803,125.854371177237
0.5,60,-18.2752657942645,-0.795940506649021,2309.01961403077,5.25510512869896,125.880441150643
0.5,60.05,-18.1196407382404,-0.806333629651584,2311.03619063269,5.25925845432399,125.906492159563
0.5,60.1,-17.9589783085718,-0.817601977105958,2313.05278384155,5.26341136761848,125.932524210467
0.5,60.15,-17.7930863967761,-0.82979568606678,2315.06939355523,5.26756386958536,125.958537309924
0.5,60.2,-17.6217603217661,-0.842979276807566,2317.08601967206,5.27171596122522,125.984531464603
0.5,60.25,-17.4447831903336,-0.857232446370644,2319.1026620908,5.27586764353621,126.010506681272
0.5,60.3,-17.2619260503037,-0.872651202583964,2321.11932071062,5.28001891751416,126.036462966798
0.5,60.35,-17.072947912779,-0.889349377661698,2323.13599543114,5.28416978415248,126.062400328143
0.5,60.4,-16.8775957137085,-0.907460571433856,2325.15268615239,5.28832024444222,126.088318772366
0.5,60.45,-16.6756042842668,-0.927140588116465,2327.16939277483,5.29247029937205,126.114218306624
0.5,60.5,-16.466696404154,-0.94857044765617,2329.18611519932,5.29661994992829,126.140098938166
0.5,60.55,-16.2505830223195,-0.971960073586297,2331.20285332718,5.30076919709488,126.165960674337
0.5,60.6,-16.0269637465972,-0.99755278471167,2333.2196070601,5.30491804185338,126.191803522575
0.5,60.65,-15.7955277286541,-1.02563074863052,2335.23637630022,5.30906648518303,126.21762749041
0.5,60.7,-15.5559551054756,-1.05652159199885,2337.25316095007,5.31321452806067,126.243432585465
0.5,60.75,-15.3079192060529,-1.09060640637103,2339.26996091262,5.31736217146082,126.269218815453
0.5,60.8,-15.0510897956882,-1.12832943989688,2341.28677609123,5.32150941635562,126.29498618818
0.5,60.85,-14.785137715239,-1.1702098237684,2343.30360638966,5.32565626371489,126.32073471154
0.5,60.9,-14.5097413849686,-1.21685574597722,2345.32045171209,5.32980271450608,126.346464393515
0.5,60.95,-14.2245957903828,-1.26898154812181,2347.33731196312,5.33394876969432,126.372175242178
0.5,61,-13.9294247601974,-1.32742827174048,2349.35418704772,5.33809443024237,126.397867265688
0.5,61.05,-13.6239975956084,-1.39318819532271,2351.37107687129,5.3422396971107,126.423540472292
0.5,61.1,-13.3081514271196,-1.46743383727955,2353.38798133961,5.34638457125742,126.449194870322
0.5,61.15,-12.9818210702324,-1.55155167240038,2355.40490035887,5.3505290536383,126.474830468197
0.5,61.2,-12.6450786272452,-1.64718027403754,2357.42183383565,5.35467314520681,126.500447274419
0.5,61.25,-12.2981856249322,-1.75625149488458,2359.43878167694,5.35881684691408,126.526045297576
0.5,61.3,-11.9416610367898,-1.88103119084484,2361.45574379009,5.36296015970894,126.55162454634
0.5,61.35,-11.5763689953652,-2.02415211754881,2363.47272008288,5.36710308453787,126.577185029463
0.5,61.4,-11.2036301153616,-2.18862472959996,2365.48971046346,5.37124562234509,126.602726755782
0.5,61.45,-10.8253596827862,-2.37779968084277,2367.50671484036,5.37538777407247,126.628249734213
0.5,61.5,-10.4442337805623,-2.59523587262488,2369.52373312252,5.37952954065959,126.653753973755
0.5,61.55,-10.0638795878966,-2.84439608767047,2371.54076521924,5.38367092304372,126.679239483486
0.5,61.6,-9.68907710825192,-3.12804542855666,2373.55781104023,5.38781192215985,126.704706272564
0.5,61.65,-9.32594492151456,-3.4471692324291,2375.57487049555,5.39195253894065,126.730154350225
0.5,61.7,-8.98206171330603,-3.79918278467417,2377.59194349567,5.39609277431652,126.755583725784
0.5,61.75,-8.66645097429204,-4.17526028459728,2379.60902995143,5.40023262921557,126.780994408633
0.5,61.8,-8.38933734484102,-4.5569669983242,2381.62612977402,5.40437210456362,126.80638640824
0.5,61.85,-8.16158706638129,-4.91335570242239,2383.64324287505,5.4085112012842,126.831759734151
0.5,61.9,-7.99379437575791,-5.20136504768971,2385.66036916647,5.41264992029859,126.857114395987
0.5,61.95,-7.89508304628664,-5.37344371094162,2387.67750856062,5.41678826252578,126.882450403442
0.5,62,-7.87183599758475,-5.39338738249571,2389.6946609702,5.42092622888248,126.907767766287
0.5,62.05,-7.92667694928644,-5.25297582383348,2391.71182630828,5.42506382028316,126.933066494365
0.5,62.1,-8.05801941799687,-4.97662899487012,2393.72900448831,5.42920103764001,126.958346597593
0.5,62.15,-8.26033620627682,-4.60981618317479,2395.74619542409,5.43333788186297,126.983608085959
0.5,62.2,-8.52505694763566,-4.20101033506272,2397.76339902979,5.43747435385971,127.008850969524
0.5,62.25,-8.84180665038885,-3.78900951484086,2399.78061521995,5.44161045453567,127.03407525842
0.5,62.3,-9.19964909074557,-3.39898648240335,2401.79784390946,5.44574618479403,127.059280962848
0.5,62.35,-9.5880865306629,-3.04419120880321,2403.81508501357,5.44988154553572,127.084468093081
0.5,62.4,-9.99771079159241,-2.72951260586609,2405.8323384479,5.45401653765944,127.10963665946
0.5,62.45,-10.4205215005693,-2.45478756531494,2407.84960412841,5.45815116206166,127.134786672396
0.5,62.5,-10.8499914592239,-2.21719830308659,2409.86688197144,5.46228541963659,127.159918142365
0.5,62.55,-11.2809727137352,-2.0127905439641,2411.88417189365,5.46641931127624,127.185031079915
0.5,62.6,-11.7095219124392,-1.83734553766277,2413.90147381209,5.47055283787039,127.210125495657
0.5,62.65,-12.1326994020042,-1.6868344410101,2415.91878764413,5.4746860003066,127.23520140027
0.5,62.7,-12.5483743071185,-1.55762381458357,2417.9361133075,5.47881879947023,127.260258804499
0.5,62.75,-12.9550515442069,-1.44654229508317,2419.95345072028,5.48295123624446,127.285297719153
0.5,62.8,-13.3517263964741,-1.35087522165801,2421.97079980089,5.48708331151031,127.310318155107
0.5,62.85,-13.7377665236235,-1.26832567029764,2423.98816046811,5.49121502614671,127.335320123298
0.5,62.9,-14.112818533239,-1.19696300686192,2426.00553264106,5.49534638103063,127.360303634729
0.5,62.95,-14.4767352668097,-1.13516991193732,2428.02291623918,5.49947737703729,127.385268700463
0.5,63,-14.8295199185258,-1.08159309329883,2430.04031118227,5.50360801504074,127.410215331627
0.55,57,-20.6652754900245,-0.696218175880615,2195.84888004063,4.94010628269159,124.791738869656
0.55,57.05,-20.6555112367119,-0.687830133801956,2197.86576048512,4.94424670250603,124.816522407307
0.55,57.1,-20.6571314380814,-0.6799889300928,2199.88265493564,4.94838676278954,124.841282303329
0.55,57.15,-20.6714614345794,-0.672688156825313,2201.89956329332,4.95252646449803,124.866018580733
0.55,57.2,-20.6996591327167,-0.665920973081696,2203.91648545975,4.95666580858467,124.890731262542
0.55,57.25,-20.7426131922303,-0.659680124187321,2205.93342133695,4.96080479599991,124.915420371793
0.55,57.3,-20.8008373272254,-0.653957962251817,2207.9503708274,4.96494342769148,124.940085931529
0.55,57.35,-20.8743721542122,-0.64874646798168,2209.96733383403,4.9690817046044,124.964727964794
0.55,57.4,-20.9627081318219,-0.644037273727392,2211.98431026019,4.973219627681,124.989346494632
0.55,57.45,-21.0647430697641,-0.639821687727948,2214.00130000969,4.97735719786087,125.013941544078
0.55,57.5,-21.1787848390622,-0.636090719516491,2216.01830298677,4.98149441608095,125.038513136156
0.55,57.55,-21.3026044004974,-0.632835106452288,2218.03531909611,4.98563128327547,125.063061293864
0.55,57.6,-21.4335370261584,-0.630045341346609,2220.05234824283,4.989767800376,125.087586040173
0.55,57.65,-21.5686221921747,-0.627711701153348,2222.06939033247,4.9939039683114,125.11208739801
0.55,57.7,-21.7047667844234,-0.625824276699255,2224.08644527101,4.99803978800789,125.136565390247
0.55,57.75,-21.838913280615,-0.624373003433829,2226.10351296484,5.00217526038902,125.161020039689
0.55,57.8,-21.9681949428778,-0.623347693184926,2228.1205933208,5.0063103863757,125.185451369049
0.55,57.85,-22.0900633907863,-0.622738066913333,2230.13768624615,5.01044516688616,125.209859400929
0.55,57.9,-22.2023791957644,-0.622533788467792,2232.15479164856,5.01457960283601,125.234244157791
0.55,57.95,-22.3034620526297,-0.622724499351514,2234.17190943613,5.01871369513822,125.258605661921
0.55,58,-22.3921024639009,-0.623299854521872,2236.18903951737,5.02284744470312,125.282943935385
0.55,58.05,-22.4675409019213,-0.624249559257333,2238.20618180121,5.02698085243843,125.307258999972
0.55,58.1,-22.5294227334781,-0.625563407139227,2240.22333619701,5.03111391924923,125.331550877124
0.55,58.15,-22.5777378551112,-0.627231319211448,2242.24050261452,5.03524664603803,125.355819587844
0.55,58.2,-22.6127533349855,-0.629243384398416,2244.25768096391,5.03937903370468,125.380065152573
0.55,58.25,-22.6349458622189,-0.631589901280878,2246.27487115576,5.04351108314647,125.404287591034
0.55,58.3,-22.6449389379947,-0.63426142135081,2248.29207310105,5.0476427952581,125.428486922015
0.55,58.35,-22.6434478835396,-0.637248793890821,2250.30928671118,5.05177417093166,125.452663163085
0.55,58.4,-22.6312341358775,-0.640543212650658,2252.32651189794,5.05590521105668,125.476816330191
0.55,58.45,-22.6090690726198,-0.644136264523831,2254.34374857353,5.0600359165201,125.500946437104
0.55,58.5,-22.5777067708721,-0.648019980461754,2256.36099665053,5.06416628820632,125.525053494619
0.55,58.55,-22.5378646176743,-0.652186888901441,2258.37825604194,5.06829632699715,125.5491375094
0.55,58.6,-22.4902104748145,-0.656630072026555,2260.39552666116,5.07242603377188,125.573198482265
0.55,58.65,-22.4353550781508,-0.661343225231213,2262.41280842195,5.07655540940721,125.59723640559
0.55,58.7,-22.3738484484868,-0.666320720212308,2264.43010123849,5.08068445477734,125.621251259319
0.55,58.75,-22.306179250842,-0.671557672180396,2266.44740502536,5.08481317075391,125.645243004752
0.55,58.8,-22.2327762214605,-0.677050011752553,2268.46471969749,5.08894155820605,125.669211575023
0.55,58.85,-22.1540109614039,-0.682794562174905,2270.48204517023,5.09306961800036,125.693156861761
0.55,58.9,-22.0702015576416,-0.688789122619259,2272.4993813593,5.09719735100093,125.717078704127
0.55,58.95,-21.9816166306487,-0.695032558409762,2274.51672818081,5.10132475806933,125.740976930296
0.55,59,-21.8884795202425,-0.701524899164504,2276.53408555125,5.10545184006464,125.764851783342
0.55,59.05,-21.7909724102459,-0.708267445986395,2278.55145338748,5.10957859784344,125.788706924667
0.55,59.1,-21.6892402605737,-0.715262889011202,2280.56883160675,5.11370503225984,125.812562973961
0.55,59.15,-21.5833944659642,-0.722515436823052,2282.58622012668,5.11783114416543,125.836420832413
0.55,59.2,-21.4735161972778,-0.730030959483764,2284.60361886527,5.12195693440936,125.860213282608
0.55,59.25,-21.3596594071181,-0.737817147199293,2286.62102774089,5.1260824038383,125.883969529784
0.55,59.3,-21.2418534991208,-0.745883686971164,2288.63844667226,5.13020755329645,125.907705131125
0.55,59.35,-21.1201056717294,-0.754242459963034,2290.65587557852,5.13433238362557,125.931420578465
0.55,59.4,-20.9944029543122,-0.762907762763429,2292.67331437912,5.13845689566495,125.955115069936
0.55,59.45,-20.8647139573769,-0.771896556258806,2294.69076299391,5.14258109025146,125.978788050047
0.55,59.5,-20.7309903603934,-0.781228746463013,2296.70822134309,5.14670496821951,126.002439195667
0.55,59.55,-20.593168161073,-0.79092750239998,2298.72568934724,5.1508285304011,126.026068321342
0.55,59.6,-20.4511687094233,-0.801019617030453,2300.74316692728,5.1549517776258,126.04967532016
0.55,59.65,-20.3048995488954,-0.811535918280468,2302.7606540045,5.15907471072076,126.073260131126
0.55,59.7,-20.1542550857616,-0.822511738505317,2304.77815050054,5.16319733051074,126.096822721097
0.55,59.75,-19.999117106722,-0.833987452252123,2306.79565633741,5.16731963781807,126.120363074465
0.55,59.8,-19.8393551638138,-0.846009094020791,2308.81317143746,5.17144163346269,126.143881187049
0.55,59.85,-19.6748268451239,-0.858629069932916,2310.83069572339,5.17556331826217,126.167377062346
0.55,59.9,-19.505377949723,-0.871906979881256,2312.84822911827,5.17968469303166,126.190850709155
0.55,59.95,-19.3308425857814,-0.885910569946341,2314.86577154551,5.18380575858397,126.214302140031
0.55,60,-19.1510432121484,-0.900716838750145,2316.88332292885,5.18792651572952,126.237731370238
0.55,60.05,-18.9657906459845,-0.916413326111798,2318.9008831924,5.19204696527637,126.261138417044
0.55,60.1,-18.7748840625552,-0.93309961804863,2320.91845226061,5.19616710803022,126.284523299218
0.55,60.15,-18.5781110183734,-0.950889109029021,2322.93603005825,5.20028694479442,126.307886036673
0.55,60.2,-18.375247535911,-0.969911070667733,2324.95361651047,5.20440647636999,126.331226650206
0.55,60.25,-18.1660582976694,-0.990313086026281,2326.97121154273,5.20852570355559,126.354545161309
0.55,60.3,-17.9502970102147,-1.01226392063174,2328.98881508084,5.21264462714755,126.377841592024
0.55,60.35,-17.7277070158325,-1.03595691555089,2331.00642705095,5.2167632479399,126.401115964832
0.55,60.4,-17.4980222519892,-1.06161400460923,2333.02404737952,5.22088156672434,126.424368302574
0.55,60.45,-17.2609686884776,-1.08949047726416,2335.04167599338,5.22499958429024,126.447598628381
0.55,60.5,-17.0162664111442,-1.11988063060349,2337.05931281966,5.22911730142468,126.470806965628
0.55,60.55,-16.7636325722454,-1.15312447780595,2339.07695778586,5.23323471891245,126.493993337888
0.55,60.6,-16.5027854943958,-1.18961570456698,2341.09461081976,5.23735183753603,126.517157768905
0.55,60.65,-16.2334503023214,-1.22981108615572,2343.11227184949,5.24146865807563,126.540300282563
0.55,60.7,-15.9553665699304,-1.27424158962576,2345.12994080353,5.24558518130918,126.563420902871
0.55,60.75,-15.668298616426,-1.32352537683168,2347.14761761064,5.24970140801233,126.586519653939
0.55,60.8,-15.3720492721921,-1.37838287417397,2349.16530219994,5.25381733895846,126.609596559968
0.55,60.85,-15.0664781712333,-1.43965394966826,2351.18299450084,5.2579329749187,126.632651645236
0.55,60.9,-14.7515259190906,-1.5083169779878,2353.2006944431,5.26204831666192,126.65568493409
0.55,60.95,-14.4272458359993,-1.58550908065335,2355.21840195678,5.26616336495476,126.678696450937
0.55,61,-14.0938453764552,-1.67254593819095,2357.23611697225,5.27027812056159,126.701686220235
0.55,61.05,-13.7517397480895,-1.77093801877041,2359.25383942023,5.27439258424459,126.724654266489
