"W_line [mm]","Freq [GHz]","dB(S(1,1)) []","dB(S(2,1)) []","im(Gamma(1)) []","re(Gamma(1)) []","re(Zo(1)) []"
0.5,37,-11.6309670575665,-2.55841728441153,1461.20568218608,3.47184560141171,95.337858569481
0.5,37.05,-11.9729320457895,-2.38477373896488,1463.19951219858,3.47627802741075,95.3466711459726
0.5,37.1,-12.3342468666596,-2.21775033828467,1465.19336146677,3.48071010726584,95.3554727794625
0.5,37.15,-12.7095236401768,-2.06044987879842,1467.18722989911,3.48514184131712,95.3642634678144
0.5,37.2,-13.0941342425579,-1.914815789032,1469.1811174044,3.48957322990656,95.3730432090117
0.5,37.25,-13.4842109461588,-1.78178810133786,1471.17502389183,3.49400427337779,95.3818120011569
0.5,37.3,-13.8765951854783,-1.66152310038794,1473.16894927091,3.49843497207615,95.3905698424711
0.5,37.35,-14.2687585142927,-1.55362026661169,1475.16289345154,3.5028653263486,95.3993167312924
0.5,37.4,-14.6587130091397,-1.45732274624903,1477.15685634397,3.50729533654365,95.408052666076
0.5,37.45,-15.0449221807106,-1.37167682215338,1479.15083785878,3.51172500301138,95.416777645393
0.5,37.5,-15.4262186565888,-1.29564871858479,1481.14483790693,3.51615432610336,95.4254916679295
0.5,37.55,-15.8017315680556,-1.22820393849302,1483.13885639971,3.52058330617259,95.4341947324861
0.5,37.6,-16.170824466176,-1.16835691312787,1485.13289324878,3.52501194357352,95.4428868379769
0.5,37.65,-16.5330433828738,-1.11519881264453,1487.12694836614,3.52944023866193,95.4515679834289
0.5,37.7,-16.8880740464803,-1.06791025104262,1489.12102166415,3.53386819179497,95.4602381679812
0.5,37.75,-17.2357070311567,-1.02576414056257,1491.1151130555,3.53829580333107,95.4688973908841
0.5,37.8,-17.575809606769,-0.988122536573662,1493.10922245323,3.54272307362995,95.4775456514984
0.5,37.85,-17.9083031566101,-0.954430139102402,1495.10334977075,3.54715000305252,95.4861829492947
0.5,37.9,-18.2331451810822,-0.924206218342906,1497.09749492178,3.55157659196091,95.4948092838528
0.5,37.95,-18.5503150690758,-0.897036081653182,1499.0916578204,3.55600284071843,95.5034246548605
0.5,38,-18.8598029751719,-0.872562749644574,1501.08583838104,3.56042874968948,95.5120290621131
0.5,38.05,-19.1616012798927,-0.850479208858907,1503.08003651846,3.5648543192396,95.5206225055129
0.5,38.1,-19.455698227708,-0.83052141539664,1505.07425214777,3.56927954973537,95.5292049850679
0.5,38.15,-19.7420734320241,-0.812462104418766,1507.0684851844,3.57370444154446,95.5377765008916
0.5,38.2,-20.020695008146,-0.796105390245254,1509.06273554415,3.57812899503551,95.5463370532018
0.5,38.25,-20.2915181451785,-0.781282103557365,1511.05700314312,3.58255321057819,95.5548866423205
0.5,38.3,-20.5544849575187,-0.767845794162479,1513.05128789778,3.5869770885431,95.5634252686722
0.5,38.35,-20.8095254680882,-0.755669322006009,1515.04558972491,3.59140062930181,95.5719529327842
0.5,38.4,-21.0565595715879,-0.7446419604613,1517.03990854165,3.59582383322681,95.5804696352851
0.5,38.45,-21.2954998106135,-0.734666941108475,1519.03424426543,3.60024670069147,95.5889753769044
0.5,38.5,-21.526254775182,-0.725659376182349,1521.02859681407,3.60466923207004,95.5974701584719
0.5,38.55,-21.7487329126154,-0.717544502399614,1523.02296610567,3.60909142773763,95.6059539809168
0.5,38.6,-21.9628465157283,-0.710256197260669,1525.01735205869,3.61351328807019,95.6144268452668
0.5,38.65,-22.1685156484358,-0.703735725786878,1527.0117545919,3.61793481344447,95.6228887526479
0.5,38.7,-22.3656717737226,-0.697930681827203,1529.00617362441,3.62235600423804,95.6313397042832
0.5,38.75,-22.5542608719153,-0.69279409349811,1531.00060907566,3.62677686082923,95.6397797014925
0.5,38.8,-22.7342458774256,-0.688283667024645,1532.9950608654,3.63119738359716,95.6482087456914
0.5,38.85,-22.9056083169221,-0.684361147282067,1534.98952891371,3.63561757292168,95.6566268383907
0.5,38.9,-23.0683490961966,-0.680991776766759,1536.984013141,3.6400374291834,95.6650339811956
0.5,38.95,-23.2224884501534,-0.678143837625631,1538.97851346801,3.64445695276363,95.6734301758054
0.5,39,-23.3680651331743,-0.675788263817761,1540.97302981577,3.6488761440444,95.6818154240121
0.5,39.05,-23.5051349790757,-0.673898312536321,1542.96756210566,3.65329500340844,95.6901897277005
0.5,39.1,-23.6337689961279,-0.672449285742743,1544.96211025937,3.65771353123918,95.6985530888468
0.5,39.15,-23.7540511806669,-0.671418294109801,1546.95667419891,3.6621317279207,95.7069055095184
0.5,39.2,-23.8660762326935,-0.67078405688121,1548.9512538466,3.66654959383778,95.7152469918732
0.5,39.25,-23.969947340766,-0.670526732169604,1550.94584912508,3.67096712937582,95.7235775381585
0.5,39.3,-24.065774175289,-0.670627773065359,1552.9404599573,3.67538433492092,95.7318971507109
0.5,39.35,-24.1536711936138,-0.671069805641953,1554.93508626654,3.67980121085979,95.7402058319553
0.5,39.4,-24.2337563218773,-0.671836525542665,1556.92972797638,3.68421775757978,95.7485035844042
0.5,39.45,-24.306150041298,-0.672912610336718,1558.92438501071,3.68863397546889,95.7567904106572
0.5,39.5,-24.3709748738346,-0.6742836452569,1560.91905729373,3.69304986491574,95.7650663134001
0.5,39.55,-24.4283552356679,-0.675936060287535,1562.91374474996,3.69746542630956,95.7733312954048
0.5,39.6,-24.478417607794,-0.677857076873324,1564.90844730422,3.70188066004022,95.781585359528
0.5,39.65,-24.5212909610887,-0.680034662774061,1566.90316488164,3.70629556649819,95.7898285087108
0.5,39.7,-24.557107367864,-0.682457493806074,1568.89789740766,3.71071014607456,95.7980607459782
0.5,39.75,-24.5860027320941,-0.685114921394024,1570.89264480801,3.71512439916103,95.8062820744382
0.5,39.8,-24.6081175748902,-0.687996945012006,1572.88740700875,3.71953832614992,95.8144924972814
0.5,39.85,-24.6235978191811,-0.691094188725064,1574.88218393623,3.72395192743416,95.8226920177803
0.5,39.9,-24.6325955267474,-0.694397881154726,1576.87697551709,3.72836520340727,95.8308806392884
0.5,39.95,-24.6352695507825,-0.697899838288335,1578.87178167829,3.73277815446342,95.8390583652401
0.5,40,-24.6317860772246,-0.701592448634037,1580.86660234708,3.73719078099737,95.8472251991495
0.5,40.05,-24.6223190376452,-0.705468660293565,1582.86143745101,3.74160308340449,95.8553811446102
0.5,40.1,-24.6070503850815,-0.709521969585327,1584.85628691794,3.74601506208079,95.8635262052946
0.5,40.15,-24.5861702316169,-0.713746410902023,1586.85115067601,3.75042671742289,95.8716603849529
0.5,40.2,-24.5598768526261,-0.718136547531572,1588.84602865366,3.75483804982804,95.8797836874133
0.5,40.25,-24.5283765673676,-0.722687463208447,1590.84092077964,3.75924905969412,95.8878961165804
0.5,40.3,-24.4918835090846,-0.727394754195687,1592.83582698297,3.76365974741965,95.8959976764353
0.5,40.35,-24.4506193000457,-0.732254521726321,1594.83074719297,3.76807011340378,95.904088371035
0.5,40.4,-24.4048126481481,-0.737263364657696,1596.82568133927,3.77248015804632,95.9121682045112
0.5,40.45,-24.3546988819686,-0.742418372213702,1598.82062935178,3.77688988174774,95.9202371810704
0.5,40.5,-24.3005194406227,-0.747717116708305,1600.81559116068,3.78129928490917,95.9282953049929
0.5,40.55,-24.2425213336468,-0.753157646160058,1602.81056669647,3.78570836793238,95.9363425806322
0.5,40.6,-24.180956584492,-0.758738476721281,1604.80555588991,3.79011713121987,95.9443790124147
0.5,40.65,-24.1160816692521,-0.764458584857842,1606.80055867207,3.79452557517478,95.9524046048389
0.5,40.7,-24.0481569600719,-0.770317399226143,1608.7955749743,3.79893370020098,95.9604193624749
0.5,40.75,-23.9774461803974,-0.776314792203339,1610.79060472822,3.80334150670303,95.9684232899638
0.5,40.8,-23.9042158769424,-0.782451071034974,1612.78564786575,3.80774899508621,95.976416392017
0.5,40.85,-23.8287349110311,-0.788726968571487,1614.78070431908,3.81215616575653,95.984398673416
0.5,40.9,-23.7512739698931,-0.795143633571393,1616.7757740207,3.81656301912073,95.9923701390114
0.5,40.95,-23.6721050966052,-0.801702620554543,1618.77085690335,3.82096955558631,96.0003307937226
0.5,41,-23.5915012357072,-0.808405879194009,1620.76595290008,3.82537577556154,96.0082806425372
0.55,37,-14.1777531296093,-1.53357308221279,1460.53924455576,3.4442002641013,94.7546143981031
0.55,37.05,-14.632584895523,-1.40367754236889,1462.53456961362,3.44860568435202,94.7637256404698
0.55,37.1,-15.0845444799858,-1.29715360848588,1464.52991183753,3.45301074151735,94.772824134943
0.55,37.15,-15.5310525582595,-1.20897915168645,1466.52527113164,3.45741543608576,94.7819098847749
0.55,37.2,-15.9702611586581,-1.1351297437112,1468.52064740051,3.46181976854693,94.7909828933348
0.55,37.25,-16.4008910438812,-1.07252386095771,1470.51604054918,3.46622373939174,94.8000431641081
0.55,37.3,-16.8220974029725,-1.01884065716,1472.51145048307,3.47062734911224,94.8090907006952
0.55,37.35,-17.2333621843506,-0.972336380777007,1474.50687710809,3.47503059820156,94.8181255068109
0.55,37.4,-17.6344095523946,-0.931694251909417,1476.50232033052,3.47943348715391,94.8271475862835
0.55,37.45,-18.025140474678,-0.895910791344836,1478.49778005711,3.48383601646448,94.8361569430537
0.55,37.5,-18.4055826586126,-0.864212484842521,1480.49325619502,3.48823818662948,94.8451535811734
0.55,37.55,-18.7758525547613,-0.835995443475149,1482.48874865183,3.49263999814602,94.8541375048058
0.55,37.6,-19.136126715,-0.810781822724479,1484.48425733556,3.4970414515121,94.8631087182233
0.55,37.65,-19.4866203336142,-0.788188256140288,1486.47978215463,3.50144254722659,94.8720672258075
0.55,37.7,-19.8275712666035,-0.767902859875351,1488.47532301789,3.50584328578917,94.881013032048
0.55,37.75,-20.1592282090927,-0.749668358890924,1490.47087983461,3.51024366770029,94.8899461415413
0.55,37.8,-20.4818420178718,-0.733269605899309,1492.46645251447,3.51464369346116,94.8988665589904
0.55,37.85,-20.7956594065547,-0.71852427318987,1494.46204096758,3.51904336357368,94.9077742892035
0.55,37.9,-21.100918426694,-0.705275853709735,1496.45764510444,3.52344267854044,94.9166693370934
0.55,37.95,-21.3978452906066,-0.69338835646822,1498.45326483597,3.52784163886467,94.9255517076764
0.55,38,-21.6866522001834,-0.682742255334068,1500.44890007351,3.53224024505021,94.9344214060718
0.55,38.05,-21.9675359283498,-0.673231372611172,1502.4445507288,3.53663849760148,94.9432784375007
0.55,38.1,-22.2406769622593,-0.664760465304894,1504.44021671398,3.54103639702346,94.9521228072852
0.55,38.15,-22.5062390645099,-0.657243343640608,1506.43589794161,3.54543394382165,94.9609545208478
0.55,38.2,-22.7643691443492,-0.65060139565811,1508.43159432464,3.54983113850206,94.9697735837101
0.55,38.25,-23.0151973577574,-0.644762423735926,1510.42730577642,3.55422798157114,94.9785800014927
0.55,38.3,-23.2588373755935,-0.639659722262144,1512.42303221073,3.55862447353582,94.9873737799133
0.55,38.35,-23.4953867742476,-0.635231342843867,1514.4187735417,3.56302061490343,94.9961549247871
0.55,38.4,-23.7249275146691,-0.631419506171358,1516.4145296839,3.56741640618173,95.0049234420248
0.55,38.45,-23.9475264841461,-0.628170129150697,1518.41030055226,3.5718118478788,95.0136793376327
0.55,38.5,-24.1632360814778,-0.62543244305968,1520.40608606214,3.57620694050314,95.0224226177113
0.55,38.55,-24.3720948307282,-0.623158683888573,1522.40188612926,3.58060168456354,95.0311532884548
0.55,38.6,-24.5741280119782,-0.621303840148952,1524.39770066976,3.58499608056911,95.0398713561499
0.55,38.65,-24.7693482996981,-0.619825446595623,1526.39352960013,3.58939012902928,95.0485768271757
0.55,38.7,-24.9577564007908,-0.618683414747501,1528.38937283728,3.59378383045374,95.0572697080021
0.55,38.75,-25.1393416851918,-0.617839892988053,1530.38523029851,3.59817718535244,95.0659500051895
0.55,38.8,-25.3140828023122,-0.617259150505104,1532.38110190147,3.60257019423558,95.0746177253879
0.55,38.85,-25.4819482767116,-0.616907480490318,1534.37698756422,3.60696285761359,95.083272875336
0.55,38.9,-25.6428970763026,-0.616753118933465,1536.3728872052,3.61135517599712,95.0919154618603
0.55,38.95,-25.7968791462385,-0.616766176070885,1538.36880074322,3.61574714989702,95.1005454918749
0.55,39,-25.9438359015191,-0.616918578123137,1540.36472809746,3.62013877982432,95.1091629723801
0.55,39.05,-26.083700671391,-0.617184017416033,1542.3606691875,3.62453006629024,95.1177679104617
0.55,39.1,-26.2163990889214,-0.617537909346417,1544.35662393328,3.62892100980616,95.1263603132906
0.55,39.15,-26.3418494198212,-0.61795735494867,1546.35259225512,3.63331161088362,95.1349401881216
0.55,39.2,-26.4599628258103,-0.61842110805452,1548.3485740737,3.6377018700343,95.143507542293
0.55,39.25,-26.5706435596924,-0.618909546229145,1550.34456931008,3.64209178777002,95.1520623832255
0.55,39.3,-26.6737890919873,-0.619404644819874,1552.34057788568,3.64648136460274,95.1606047184219
0.55,39.35,-26.7692901726067,-0.619889953577169,1554.33659972231,3.65087060104453,95.1691345554656
0.55,39.4,-26.8570308358022,-0.620350575406812,1556.33263474211,3.65525949760759,95.1776519020209
0.55,39.45,-26.9368883626196,-0.620773146891823,1558.32868286762,3.6596480548042,95.1861567658311
0.55,39.5,-27.0087332224812,-0.621145820286367,1560.32474402171,3.66403627314679,95.1946491547186
0.55,39.55,-27.072429024412,-0.621458246734503,1562.32081812764,3.66842415314786,95.2031290765839
0.55,39.6,-27.1278325188699,-0.621701560506754,1564.316905109,3.67281169532,95.2115965394049
0.55,39.65,-27.1747937031382,-0.621868364078677,1566.31300488977,3.67719890017593,95.2200515512359
0.55,39.7,-27.2131560966595,-0.621952713899842,1568.30911739426,3.68158576822844,95.2284941202073
0.55,39.75,-27.2427572672721,-0.621950106719892,1570.30524254714,3.68597229999039,95.2369242545246
0.55,39.8,-27.2634297045711,-0.621857466351725,1572.30138027346,3.69035849597478,95.2453419624679
0.55,39.85,-27.2750021518176,-0.621673130761338,1574.29753049858,3.69474435669465,95.2537472523908
0.55,39.9,-27.2773015218564,-0.621396839380028,1576.29369314823,3.69912988266317,95.2621401327201
0.55,39.95,-27.2701555338979,-0.621029720538121,1578.2898681485,3.70351507439357,95.2705206119549
0.55,40,-27.2533962147878,-0.620574278920734,1580.28605542582,3.70789993239919,95.278888698666
0.55,40.05,-27.2268644080829,-0.620034382945506,1582.28225490695,3.71228445719346,95.287244401495
0.55,40.1,-27.1904154239369,-0.619415251960451,1584.27846651902,3.71666864928991,95.2955877291539
0.55,40.15,-27.1439259392022,-0.618723443156915,1586.27469018948,3.72105250920218,95.3039186904241
0.55,40.2,-27.0873022168638,-0.617966838088808,1588.27092584613,3.72543603744399,95.3122372941559
0.55,40.25,-27.0204896537792,-0.617154628684626,1590.26717341712,3.7298192345292,95.3205435492679
0.55,40.3,-26.943483583344,-0.616297302633908,1592.26343283093,3.73420210097177,95.3288374647462
0.55,40.35,-26.8563411542544,-0.615406628024417,1594.25970401637,3.73858463728579,95.3371190496435
0.55,40.4,-26.7591939794476,-0.614495637101037,1596.2559869026,3.74296684398547,95.3453883130789
0.55,40.45,-26.6522611051646,-0.613578609012102,1598.25228141911,3.74734872158517,95.353645264237
0.55,40.5,-26.5358616974217,-0.612671051403902,1600.24858749571,3.75173027059936,95.3618899123672
0.55,40.55,-26.4104266948198,-0.611789680719283,1602.24490506255,3.75611149154271,95.3701222667829
0.55,40.6,-26.2765085496266,-0.610952401052329,1604.24123405012,3.76049238493002,95.3783423368613
0.55,40.65,-26.134788093819,-0.610178281407418,1606.23757438923,3.76487295127626,95.3865501320423
0.55,40.7,-25.9860775452376,-0.60948753120839,1608.23392601101,3.76925319109658,95.3947456618282
0.55,40.75,-25.831318731984,-0.608901473901814,1610.23028884692,3.77363310490634,95.4029289357828
0.55,40.8,-25.6715757767844,-0.608442518497642,1612.22666282874,3.77801269322107,95.4110999635307
0.55,40.85,-25.5080217546629,-0.608134128891201,1614.2230478886,3.78239195655653,95.4192587547572
0.55,40.9,-25.3419192117687,-0.608000790812454,1616.21944395891,3.7867708954287,95.4274053192069
0.55,40.95,-25.1745948899267,-0.608067976251855,1618.21585097243,3.7911495103538,95.4355396666837
0.55,41,-25.007409503233,-0.608362105217503,1620.21226886222,3.79552780184829,95.44366180705
0.6,37,-17.4196445057853,-0.975249814870892,1460.22613985384,3.37573769349653,93.7231775008861
0.6,37.05,-17.8546334734022,-0.934366378056926,1462.22267643836,3.38008577608401,93.7321053136474
0.6,37.1,-18.2897661470276,-0.896713861664703,1464.21922736929,3.38443351485829,93.7410187910705
0.6,37.15,-18.7213410507841,-0.862093499825287,1466.21579255322,3.38878091031197,93.7499179436463
0.6,37.2,-19.1465751755383,-0.83031389359876,1468.21237189721,3.39312796294352,93.7588027819669
0.6,37.25,-19.5634299676883,-0.801191229296584,1470.20896530879,3.39747467325705,93.7676733167244
0.6,37.3,-19.970455993722,-0.774549418557889,1472.20557269592,3.40182104176219,93.7765295587103
0.6,37.35,-20.3666614072221,-0.750220168474728,1474.20219396706,3.40616706897386,93.7853715188145
0.6,37.4,-20.7514043741644,-0.72804298994882,1476.19882903109,3.41051275541209,93.7941992080239
0.6,37.45,-21.1243071662904,-0.707865152201033,1478.19547779737,3.41485810160181,93.8030126374222
0.6,37.5,-21.485188704458,-0.689541590978001,1480.19214017571,3.41920310807273,93.8118118181879
0.6,37.55,-21.8340122318634,-0.672934777539602,1482.18881607637,3.42354777535908,93.8205967615947
0.6,37.6,-22.1708450908626,-0.657914554993078,1484.18550541006,3.42789210399947,93.8293674790094
0.6,37.65,-22.4958280208688,-0.644357947988105,1486.18220808795,3.43223609453671,93.8381239818915
0.6,37.7,-22.8091518592774,-0.632148951221163,1488.17892402165,3.43657974751761,93.8468662817922
0.6,37.75,-23.1110399521444,-0.621178301633215,1490.1756531232,3.44092306349284,93.8555943903537
0.6,37.8,-23.4017349438483,-0.611343238633872,1492.17239530512,3.44526604301671,93.8643083193077
0.6,37.85,-23.6814889120159,-0.60254725615773,1494.16915048034,3.44960868664702,93.8730080804753
0.6,37.9,-23.9505560512228,-0.594699849860814,1496.16591856225,3.45395099494488,93.8816936857654
0.6,37.95,-24.2091872952956,-0.587716262301561,1498.16269946468,3.45829296847455,93.8903651471742
0.6,38,-24.4576264127376,-0.581517228524336,1500.15949310188,3.46263460780324,93.8990224767842
0.6,38.05,-24.6961072213522,-0.576028724075139,1502.15629938856,3.46697591350098,93.9076656867634
0.6,38.1,-24.9248516537163,-0.571181717128839,1504.15311823985,3.47131688614043,93.9162947893644
0.6,38.15,-25.1440684706134,-0.566911926094269,1506.14994957132,3.47565752629671,93.9249097969234
0.6,38.2,-25.353952469508,-0.563159583785967,1508.14679329896,3.47999783454723,93.9335107218595
0.6,38.25,-25.5546840732431,-0.559869209007423,1510.14364933921,3.48433781147158,93.9420975766737
0.6,38.3,-25.7464292131747,-0.556989386178062,1512.14051760891,3.48867745765129,93.9506703739485
0.6,38.35,-25.9293394430407,-0.554472553452124,1514.13739802535,3.4930167736697,93.9592291263463
0.6,38.4,-26.1035522366464,-0.552274799619762,1516.13429050624,3.49735576011184,93.9677738466092
0.6,38.45,-26.2691914351423,-0.550355669946548,1518.13119496971,3.50169441756421,93.976304547558
0.6,38.5,-26.4263678192328,-0.548677980994356,1520.1281113343,3.50603274661465,93.9848212420912
0.6,38.55,-26.575179788769,-0.54720764437235,1522.125039519,3.51037074785221,93.9933239431844
0.6,38.6,-26.7157141373938,-0.545913499289064,1524.12197944319,3.51470842186695,94.0018126638893
0.6,38.65,-26.8480469136175,-0.544767153713312,1526.11893102667,3.51904576924981,94.0102874173332
0.6,38.7,-26.972244362212,-0.543742833901167,1528.11589418967,3.52338279059245,94.0187482167179
0.6,38.75,-27.0883639413653,-0.54281724200662,1530.11286885283,3.52771948648713,94.0271950753189
0.6,38.8,-27.1964554117986,-0.541969421463389,1532.10985493719,3.53205585752652,94.035628006485
0.6,38.85,-27.296561994183,-0.541180629803256,1534.1068523642,3.53639190430356,94.0440470236369
0.6,38.9,-27.3887215908004,-0.540434218561021,1536.10386105573,3.54072762741133,94.0524521402672
0.6,38.95,-27.4729680665884,-0.539715519906805,1538.10088093406,3.54506302744292,94.0608433699387
