"W_line [mm]","Freq [GHz]","dB(S(1,1)) []","dB(S(2,1)) []","im(Gamma(1:1)) []","re(Gamma(1:1)) []","re(Zo(1:1)) []"
0.5,37,-47.2013665986593,-0.313592854861104,1318.76759530484,3.49309694408895,50.8868108216739
0.5,37.05,-47.107170433626,-0.313951455263103,1320.61090070759,3.49748766445699,50.8870012520551
0.5,37.1,-47.0168031920532,-0.314303840953115,1322.45432881134,3.50187849329081,50.8871935230383
0.5,37.15,-46.9301956869027,-0.314650568325157,1324.29787950822,3.50626943209619,50.8873876139796
0.5,37.2,-46.8472807213615,-0.314992163926103,1326.14155269073,3.5106604823637,50.8875835044016
0.5,37.25,-46.7679930660175,-0.315329124839003,1327.9853482518,3.51505164556906,50.887781173993
0.5,37.3,-46.6922694450042,-0.315661919104652,1329.82926608475,3.51944292317345,50.8879806026071
0.5,37.35,-46.6200485299151,-0.315990986180375,1331.67330608327,3.52383431662387,50.8881817702606
0.5,37.4,-46.5512709403829,-0.316316737435021,1333.51746814149,3.52822582735345,50.8883846571328
0.5,37.45,-46.4858792503066,-0.316639556679092,1335.36175215391,3.5326174567818,50.8885892435643
0.5,37.5,-46.4238179987924,-0.316959800728991,1337.20615801544,3.53700920631529,50.8887955100562
0.5,37.55,-46.3650337049572,-0.317277800004208,1339.05068562142,3.54140107734742,50.8890034372685
0.5,37.6,-46.3094748858184,-0.317593859156427,1340.89533486755,3.54579307125909,50.8892130060194
0.5,37.65,-46.2570920765672,-0.317908257729314,1342.74010564997,3.55018518941895,50.8894241972843
0.5,37.7,-46.2078378525937,-0.318221250847962,1344.58499786521,3.55457743318367,50.8896369921943
0.5,37.75,-46.1616668526954,-0.318533069936699,1346.43001141021,3.55896980389823,50.8898513720357
0.5,37.8,-46.1185358029639,-0.318843923464214,1348.27514618233,3.56336230289628,50.8900673182483
0.5,37.85,-46.0784035409018,-0.3191539977147,1350.12040207934,3.56775493150038,50.8902848124249
0.5,37.9,-46.0412310393765,-0.319463457583952,1351.9657789994,3.57214769102229,50.89050383631
0.5,37.95,-46.0069814300674,-0.319772447399097,1353.8112768411,3.57654058276332,50.8907243717987
0.5,38,-45.9756200261081,-0.320081091760881,1355.65689550344,3.5809336080145,50.8909464009357
0.5,38.05,-45.9471143436706,-0.320389496407199,1357.50263488584,3.58532676805698,50.8911699059144
0.5,38.1,-45.921434122274,-0.320697749096751,1359.34849488813,3.58972006416221,50.8913948690756
0.5,38.15,-45.8985513436377,-0.321005920511592,1361.19447541055,3.59411349759228,50.8916212729068
0.5,38.2,-45.8784402489304,-0.321314065177366,1363.04057635377,3.59850706960015,50.8918491000409
0.5,38.25,-45.8610773542945,-0.321622222400005,1364.88679761888,3.60290078142991,50.8920783332551
0.5,38.3,-45.8464414645514,-0.321930417217776,1366.73313910737,3.60729463431708,50.8923089554703
0.5,38.35,-45.8345136850161,-0.322238661367361,1368.57960072116,3.61168862948882,50.8925409497498
0.5,38.4,-45.8252774313695,-0.322546954262892,1370.4261823626,3.61608276816422,50.8927742992982
0.5,38.45,-45.8187184375539,-0.322855283986677,1372.27288393445,3.62047705155455,50.8930089874606
0.5,38.5,-45.8148247616749,-0.323163628290465,1374.11970533991,3.62487148086347,50.8932449977217
0.5,38.55,-45.8135867899044,-0.323471955606077,1375.96664648257,3.62926605728733,50.8934823137043
0.5,38.6,-45.8149972383941,-0.323780226064204,1377.81370726649,3.63366078201535,50.893720919169
0.5,38.65,-45.8190511532166,-0.324088392520231,1379.66088759611,3.63805565622993,50.8939607980126
0.5,38.7,-45.8257459083665,-0.324396401585912,1381.50818737632,3.6424506811068,50.8942019342676
0.5,38.75,-45.8350812018577,-0.32470419466573,1383.35560651244,3.64684585781535,50.8944443121009
0.5,38.8,-45.8470590499655,-0.325011708996807,1385.20314491021,3.65124118751875,50.8946879158131
0.5,38.85,-45.8616837796699,-0.325318878691178,1387.05080247579,3.65563667137426,50.8949327298372
0.5,38.9,-45.8789620193658,-0.325625635779357,1388.89857911578,3.66003231053343,50.895178738738
0.5,38.95,-45.8989026879136,-0.325931911253964,1390.74647473721,3.66442810614231,50.8954259272109
0.5,39,-45.921516982116,-0.326237636112351,1392.59448924754,3.66882405934164,50.895674280081
0.5,39.05,-45.9468183627153,-0.326542742397054,1394.44262255465,3.67322017126713,50.8959237823024
0.5,39.1,-45.9748225390197,-0.32684716423296,1396.29087456685,3.67761644304961,50.8961744189567
0.5,39.15,-46.0055474522772,-0.327150838860064,1398.13924519291,3.68201287581527,50.8964261752529
0.5,39.2,-46.0390132579355,-0.327453707660686,1399.987734342,3.68640947068586,50.8966790365256
0.5,39.25,-46.0752423069369,-0.327755717180027,1401.83634192374,3.69080622877887,50.8969329882347
0.5,39.3,-46.1142591262223,-0.328056820138963,1403.68506784817,3.69520315120776,50.8971880159641
0.5,39.35,-46.1560903986335,-0.328356976437955,1405.53391202579,3.69960023908213,50.8974441054211
0.5,39.4,-46.2007649424299,-0.328656154150939,1407.38287436751,3.70399749350796,50.8977012424354
0.5,39.45,-46.2483136906607,-0.328954330508139,1409.23195478468,3.70839491558772,50.8979594129578
0.5,39.5,-46.2987696706606,-0.329251492866621,1411.08115318909,3.71279250642065,50.8982186030601
0.5,39.55,-46.352167983969,-0.329547639667541,1412.93046949297,3.71719026710286,50.8984787989334
0.5,39.6,-46.4085457870077,-0.329842781378991,1414.77990360898,3.72158819872759,50.8987399868878
0.5,39.65,-46.4679422728861,-0.330136941423215,1416.62945545021,3.72598630238533,50.8990021533512
0.5,39.7,-46.5303986547457,-0.330430157087297,1418.47912493021,3.73038457916403,50.8992652848684
0.5,39.75,-46.5959581510974,-0.330722480416025,1420.32891196296,3.73478303014927,50.8995293681006
0.5,39.8,-46.6646659736498,-0.331013979085948,1422.17881646285,3.73918165642443,50.899794389824
0.5,39.85,-46.7365693181797,-0.331304737259488,1424.02883834475,3.74358045907087,50.9000603369294
0.5,39.9,-46.8117173590454,-0.331594856418044,1425.87897752394,3.74797943916807,50.9003271964212
0.5,39.95,-46.8901612480009,-0.331884456172931,1427.72923391616,3.75237859779381,50.9005949554163
0.5,40,-46.9719541180303,-0.332173675053184,1429.57960743757,3.75677793602437,50.9008636011436
0.5,40.05,-47.057151092982,-0.332462671269012,1431.43009800479,3.76117745493462,50.901133120943
0.5,40.1,-47.1458093038541,-0.332751623449952,1433.28070553486,3.76557715559825,50.9014035022647
0.5,40.15,-47.23798791265,-0.333040731356562,1435.13142994527,3.76997703908786,50.901674732668
0.5,40.2,-47.3337481448036,-0.33333021656468,1436.98227115397,3.77437710647516,50.9019467998209
0.5,40.25,-47.4331533312513,-0.333620323121113,1438.83322907931,3.77877735883111,50.9022196914992
0.5,40.3,-47.5362689613175,-0.333911318169787,1440.68430364012,3.78317779722606,50.9024933955854
0.5,40.35,-47.6431627476736,-0.334203492547313,1442.53549475566,3.7875784227299,50.9027679000683
0.5,40.4,-47.75390470473,-0.334497161346956,1444.38680234561,3.79197923641222,50.9030431930417
0.5,40.45,-47.8685672419308,-0.334792664449989,1446.23822633013,3.79638023934243,50.9033192627041
0.5,40.5,-47.9872252735393,-0.335090367023523,1448.0897666298,3.80078143258991,50.9035960973577
0.5,40.55,-48.1099563466336,-0.335390659983772,1449.94142316563,3.80518281722414,50.9038736854074
0.5,40.6,-48.2368407891738,-0.335693960423883,1451.79319585911,3.80958439431488,50.9041520153603
0.5,40.65,-48.3679618801627,-0.336000712005384,1453.64508463214,3.81398616493222,50.904431075825
0.5,40.7,-48.5034060441014,-0.336311385312382,1455.49708940708,3.81838813014679,50.9047108555105
0.5,40.75,-48.6432630721383,-0.336626478167656,1457.34921010673,3.82279029102986,50.9049913432255
0.5,40.8,-48.7876263725399,-0.336946515909794,1459.20144665433,3.82719264865346,50.9052725278778
0.5,40.85,-48.936593253367,-0.337272051630622,1461.05379897356,3.83159520409051,50.9055543984735
0.5,40.9,-49.0902652405345,-0.33760366637214,1462.90626698855,3.83599795841497,50.9058369441162
0.5,40.95,-49.2487484347698,-0.337941969282256,1464.75885062387,3.84040091270192,50.9061201540062
0.5,41,-49.4121539113742,-0.338287597728671,1466.61154980455,3.8448040680277,50.9064040174397
0.55,37,-50.1667567546948,-0.310637394400226,1327.61028521375,3.48903814208512,48.2667447780627
0.55,37.05,-50.0323158069461,-0.311007571122836,1329.46479482947,3.4934475347817,48.2672416011555
0.55,37.1,-49.9026656100425,-0.311370649375306,1331.31942307404,3.49785711492213,48.2677393616559
0.55,37.15,-49.7777058341039,-0.311727275167708,1333.17416986395,3.50226688389764,48.2682380441243
0.55,37.2,-49.6573398234147,-0.312078063642829,1335.02903511598,3.50667684308185,48.2687376333169
0.55,37.25,-49.541474337705,-0.312423599342566,1336.88401874717,3.51108699383116,48.2692381141824
0.55,37.3,-49.4300193221094,-0.312764436515483,1338.73912067484,3.51549733748507,48.2697394718594
0.55,37.35,-49.3228877032166,-0.31310109946461,1340.59434081657,3.51990787536658,48.270241691673
0.55,37.4,-49.2199952088207,-0.313434082934453,1342.44967909024,3.52431860878255,48.270744759132
0.55,37.45,-49.1212602091651,-0.313763852536291,1344.30513541399,3.52872953902399,48.271248659926
0.55,37.5,-49.0266035776306,-0.314090845210616,1346.16070970625,3.5331406673665,48.2717533799225
0.55,37.55,-48.9359485689663,-0.314415469725738,1348.01640188573,3.53755199507051,48.2722589051644
0.55,37.6,-48.8492207132997,-0.314738107211395,1349.87221187143,3.5419635233817,48.2727652218671
0.55,37.65,-48.7663477242847,-0.315059111726301,1351.72813958262,3.54637525353129,48.2732723164157
0.55,37.7,-48.6872594198636,-0.315378810858441,1353.58418493887,3.55078718673637,48.2737801753626
0.55,37.75,-48.6118876542275,-0.315697506357017,1355.44034786004,3.55519932420026,48.2742887854247
0.55,37.8,-48.5401662596586,-0.31601547479482,1357.29662826628,3.55961166711277,48.2747981334814
0.55,37.85,-48.4720309970348,-0.3163329682599,1359.15302607803,3.56402421665058,48.2753082065714
0.55,37.9,-48.4074195138644,-0.316650215075271,1361.00954121601,3.56843697397751,48.2758189918908
0.55,37.95,-48.346271308804,-0.316967420545529,1362.86617360127,3.57284994024486,48.2763304767906
0.55,38,-48.2885277016914,-0.317284767729115,1364.72292315513,3.57726311659169,48.2768426487743
0.55,38.05,-48.2341318081998,-0.317602418235006,1366.57978979921,3.58167650414513,48.2773554954957
0.55,38.1,-48.1830285182924,-0.317920513042674,1368.43677345545,3.58609010402067,48.2778690047566
0.55,38.15,-48.1351644777195,-0.31823917334401,1370.29387404606,3.5905039173225,48.2783831645044
0.55,38.2,-48.0904880718664,-0.318558501406067,1372.15109149358,3.59491794514371,48.2788979628305
0.55,38.25,-48.0489494113191,-0.318878581453345,1374.00842572085,3.59933218856668,48.2794133879676
0.55,38.3,-48.0105003185656,-0.319199480568399,1375.865876651,3.60374664866327,48.2799294282878
0.55,38.35,-47.9750943153098,-0.319521249609604,1377.72344420749,3.60816132649519,48.2804460723006
0.55,38.4,-47.9426866099147,-0.319843924144796,1379.58112831407,3.61257622311417,48.280963308651
0.55,38.45,-47.9132340845429,-0.320167525399597,1381.43892889482,3.61699133956234,48.2814811261172
0.55,38.5,-47.8866952815973,-0.320492061219246,1383.2968458741,3.62140667687242,48.2819995136091
0.55,38.55,-47.8630303891079,-0.320817527042662,1385.15487917662,3.62582223606803,48.282518460166
0.55,38.6,-47.8422012247395,-0.321143906887625,1387.01302872737,3.63023801816392,48.2830379549548
0.55,38.65,-47.8241712181292,-0.321471174345797,1388.87129445169,3.63465402416626,48.2835579872685
0.55,38.7,-47.8089053912885,-0.321799293586451,1390.7296762752,3.63907025507288,48.2840785465241
0.55,38.75,-47.7963703368308,-0.322128220367688,1392.58817412387,3.64348671187351,48.2845996222606
0.55,38.8,-47.7865341938029,-0.322457903054002,1394.44678792396,3.64790339555004,48.2851212041379
0.55,38.85,-47.7793666209238,-0.322788283638951,1396.30551760208,3.65232030707678,48.2856432819347
0.55,38.9,-47.7748387670428,-0.323119298771852,1398.16436308514,3.65673744742067,48.2861658455466
0.55,38.95,-47.7729232386483,-0.323450880787254,1400.02332430038,3.66115481754156,48.2866888849849
0.55,39,-47.7735940642657,-0.323782958736092,1401.88240117536,3.6655724183924,48.2872123903748
0.55,39.05,-47.7768266555926,-0.32411545941733,1403.74159363797,3.66999025091951,48.2877363519538
0.55,39.1,-47.7825977652261,-0.324448308408958,1405.60090161642,3.67440831606279,48.2882607600701
0.55,39.15,-47.7908854408404,-0.324781431097182,1407.46032503926,3.67882661475596,48.2887856051812
0.55,39.2,-47.8016689756759,-0.325114753702696,1409.31986383535,3.68324514792677,48.289310877852
0.55,39.25,-47.8149288552021,-0.325448204302855,1411.17951793389,3.68766391649722,48.2898365687541
0.55,39.3,-47.8306466998133,-0.325781713848644,1413.0392872644,3.69208292138379,48.2903626686633
0.55,39.35,-47.8488052034173,-0.326115217175312,1414.89917175676,3.69650216349766,48.2908891684592
0.55,39.4,-47.86938806777,-0.32644865400548,1416.75917134114,3.70092164374489,48.2914160591229
0.55,39.45,-47.8923799324057,-0.326781969943713,1418.61928594807,3.70534136302668,48.2919433317365
0.55,39.5,-47.9177663000064,-0.327115117461294,1420.47951550841,3.70976132223953,48.2924709774808
0.55,39.55,-47.9455334570453,-0.327448056870174,1422.33985995335,3.71418152227545,48.2929989876346
0.55,39.6,-47.9756683895333,-0.327780757284944,1424.20031921442,3.7186019640222,48.2935273535734
0.55,39.65,-48.0081586936877,-0.328113197571689,1426.06089322349,3.72302264836343,48.2940560667675
0.55,39.7,-48.0429924813312,-0.328445367282643,1427.92158191276,3.72744357617893,48.2945851187817
0.55,39.75,-48.0801582798246,-0.328777267575488,1429.78238521477,3.73186474834479,48.295114501273
0.55,39.8,-48.1196449263193,-0.329108912116231,1431.6433030624,3.73628616573359,48.29564420599
0.55,39.85,-48.1614414561118,-0.329440327964502,1433.50433538888,3.7407078292146,48.2961742247717
0.55,39.9,-48.205536984868,-0.32977155644019,1435.36548212777,3.74512973965398,48.2967045495462
0.55,39.95,-48.2519205844775,-0.330102653970313,1437.22674321296,3.74955189791491,48.2972351723292
0.55,40,-48.3005811522859,-0.330433692914997,1439.08811857872,3.75397430485783,48.2977660852233
0.55,40.05,-48.3515072734468,-0.330764762371508,1440.94960815963,3.75839696134058,48.2982972804169
0.55,40.1,-48.4046870761251,-0.33109596895522,1442.81121189061,3.76281986821858,48.2988287501826
0.55,40.15,-48.4601080792785,-0.331427437556412,1444.67292970697,3.76724302634503,48.2993604868766
0.55,40.2,-48.5177570327379,-0.331759312071892,1446.5347615443,3.77166643657103,48.2998924829373
0.55,40.25,-48.5776197493057,-0.332091756110284,1448.3967073386,3.77609009974579,48.3004247308846
0.55,40.3,-48.6396809285926,-0.332424953670017,1450.25876702618,3.78051401671678,48.3009572233184
0.55,40.35,-48.7039239723173,-0.332759109788874,1452.1209405437,3.7849381883299,48.3014899529178
0.55,40.4,-48.770330790802,-0.33309445116416,1453.98322782818,3.78936261542962,48.3020229124403
0.55,40.45,-48.8388816004136,-0.333431226742391,1455.84562881699,3.79378729885916,48.3025560947204
0.55,40.5,-48.9095547117203,-0.33376970827755,1457.70814344782,3.79821223946065,48.3030894926688
0.55,40.55,-48.9823263081637,-0.334110190856927,1459.57077165876,3.80263743807526,48.3036230992717
0.55,40.6,-49.0571702150879,-0.33445299339352,1461.43351338821,3.80706289554336,48.3041569075893
0.55,40.65,-49.1340576590149,-0.334798459084127,1463.29636857494,3.81148861270469,48.3046909107555
0.55,40.7,-49.2129570171253,-0.335146955832199,1465.15933715806,3.81591459039847,48.3052251019764
0.55,40.75,-49.2938335569791,-0.335498876634494,1467.02241907705,3.82034082946359,48.3057594745297
0.55,40.8,-49.3766491666153,-0.335854639930769,1468.88561427173,3.82476733073871,48.306294021764
0.55,40.85,-49.4613620752846,-0.336214689915596,1470.74892268228,3.82919409506243,48.3068287370975
0.55,40.9,-49.5479265652195,-0.336579496811572,1472.61234424922,3.83362112327341,48.3073636140172
0.55,40.95,-49.6362926750127,-0.336949557103109,1474.47587891345,3.83804841621053,48.3078986460786
0.55,41,-49.7264058953813,-0.337325393730126,1476.33952661621,3.84247597471299,48.308433826904
0.6,37,-45.6060418670701,-0.309733869293938,1333.29730664643,3.57355196281619,45.4096881114187
0.6,37.05,-45.5256347341607,-0.310097730059289,1335.15879501074,3.57802919693858,45.4099612087978
0.6,37.1,-45.4479867873557,-0.31045633658041,1337.02040039831,3.58250661900916,45.4102377449263
0.6,37.15,-45.3730703629413,-0.310810274900328,1338.88212274374,3.58698422995518,45.4105176992691
0.6,37.2,-45.3008575019019,-0.311160100784344,1340.74396198176,3.59146203070655,45.4108010514527
0.6,37.25,-45.2313199728462,-0.311506340001845,1342.60591804723,3.59594002219551,45.4110877812631
0.6,37.3,-45.164429299976,-0.311849488649084,1344.46799087514,3.60041820535634,45.4113778686443
0.6,37.35,-45.1001567956509,-0.312190013512001,1346.33018040063,3.60489658112504,45.4116712936968
0.6,37.4,-45.0384735970933,-0.312528352468078,1348.19248655896,3.60937515043905,45.4119680366756
0.6,37.45,-44.979350706778,-0.312864914926186,1350.05490928556,3.61385391423695,45.4122680779891
0.6,37.5,-44.9227590360474,-0.313200082303403,1351.91744851597,3.61833287345814,45.4125713981972
0.6,37.55,-44.8686694514966,-0.313534208537689,1353.7801041859,3.62281202904257,45.4128779780097
0.6,37.6,-44.8170528236762,-0.313867620635338,1355.64287623121,3.62729138193046,45.413187798285
0.6,37.65,-44.7678800776704,-0.31420061925202,1357.5057645879,3.63177093306195,45.4135008400284
0.6,37.7,-44.7211222451142,-0.314533479306349,1359.36876919212,3.63625068337688,45.4138170843907
0.6,37.75,-44.6767505172299,-0.314866450624725,1361.2318899802,3.64073063381446,45.4141365126665
0.6,37.8,-44.6347362984725,-0.315199758616306,1363.0951268886,3.645210785313,45.4144591062932
0.6,37.85,-44.595051260393,-0.315533604976924,1364.95847985397,3.64969113880963,45.4147848468491
0.6,37.9,-44.5576673953437,-0.315868168420704,1366.8219488131,3.65417169524002,45.415113716052
0.6,37.95,-44.5225570696692,-0.3162036054382,1368.68553370295,3.65865245553809,45.4154456957582
0.6,38,-44.4896930760439,-0.316540051079832,1370.54923446066,3.66313342063573,45.4157807679606
0.6,38.05,-44.4590486846408,-0.316877619763348,1372.41305102352,3.66761459146255,45.4161189147876
0.6,38.1,-44.430597692831,-0.317216406104153,1374.27698332902,3.67209596894558,45.4164601185019
0.6,38.15,-44.404314473139,-0.317556485767218,1376.14103131479,3.67657755400901,45.4168043614985
0.6,38.2,-44.3801740191954,-0.317897916339361,1378.00519491866,3.68105934757392,45.4171516263043
0.6,38.25,-44.3581519894505,-0.318240738220663,1379.86947407864,3.68554135055803,45.417501895576
0.6,38.3,-44.33822474843,-0.318584975533791,1381.7338687329,3.69002356387539,45.4178551520991
0.6,38.35,-44.3203694053341,-0.318930637050009,1383.59837881981,3.69450598843616,45.4182113787869
0.6,38.4,-44.3045638497976,-0.319277717130623,1385.46300427792,3.69898862514632,45.4185705586786
0.6,38.45,-44.2907867846456,-0.319626196682685,1387.32774504597,3.70347147490742,45.4189326749387
0.6,38.5,-44.2790177554953,-0.319976044127702,1389.19260106288,3.70795453861635,45.4192977108554
0.6,38.55,-44.2692371770685,-0.320327216382158,1391.05757226776,3.71243781716502,45.4196656498394
0.6,38.6,-44.261426356091,-0.320679659848639,1392.92265859993,3.71692131144016,45.4200364754227
0.6,38.65,-44.25556751067,-0.321033311416368,1394.78785999888,3.72140502232306,45.4204101712577
0.6,38.7,-44.2516437860476,-0.32138809946994,1396.65317640431,3.72588895068927,45.4207867211155
0.6,38.75,-44.2496392666399,-0.321743944905083,1398.51860775612,3.73037309740844,45.4211661088852
0.6,38.8,-44.2495389842789,-0.322100762150252,1400.38415399441,3.73485746334398,45.4215483185724
0.6,38.85,-44.2513289225798,-0.322458460192898,1402.24981505947,3.73934204935288,45.4219333342986
0.6,38.9,-44.2549960173645,-0.3228169436092,1404.11559089181,3.74382685628544,45.4223211402992
0.6,38.95,-44.2605281530743,-0.323176113596136,1405.98148143212,3.74831188498502,45.4227117209233
