"W_line [mm]","Freq [GHz]","dB(S(1,1)) []","dB(S(2,1)) []","im(Gamma(1:1)) []","re(Gamma(1:1)) []","re(Zo(1:1)) []"
0.5,57,-14.8712864899161,-0.86974812321404,2118.59721705874,4.83870754810313,188.142742812492
0.5,57.05,-15.1353640365799,-0.852079736788136,2120.67197343126,4.8428576853207,188.295270337094
0.5,57.1,-15.3890521181055,-0.836023972561519,2122.74672827308,4.84700696790351,188.447694152363
0.5,57.15,-15.6328302609503,-0.821480894698551,2124.82148116504,4.85115539956032,188.600013705678
0.5,57.2,-15.8671926722987,-0.808353445365075,2126.89623169075,4.85530298398754,188.752228448794
0.5,57.25,-16.0926360899408,-0.796547665043587,2128.97097943655,4.85944972486918,188.904337837824
0.5,57.3,-16.3096511566794,-0.78597288486659,2131.04572399149,4.86359562587687,189.056341333226
0.5,57.35,-16.5187163722027,-0.776541892840674,2133.12046494738,4.86774069066988,189.208238399786
0.5,57.4,-16.7202939214137,-0.768171075968213,2135.19520189871,4.87188492289505,189.360028506606
0.5,57.45,-16.9148268611301,-0.760780540357649,2137.26993444265,4.87602832618683,189.511711127084
0.5,57.5,-17.1027372825835,-0.754294211452065,2139.34466217907,4.88017090416727,189.663285738904
0.5,57.55,-17.2844251673503,-0.748639916503874,2141.41938471049,4.884312660446,189.814751824017
0.5,57.6,-17.46026772837,-0.743749451385365,2143.49410164207,4.88845359862026,189.966108868626
0.5,57.65,-17.6306190823564,-0.739558633755019,2145.56881258164,4.89259372227488,190.117356363172
0.5,57.7,-17.7958101402567,-0.736007344501054,2147.6435171396,4.89673303498225,190.268493802318
0.5,57.75,-17.9561486321815,-0.733039559260246,2149.71821492902,4.90087154030238,190.419520684932
0.5,57.8,-18.1119192051863,-0.730603371663415,2151.79290556552,4.90500924178285,190.570436514075
0.5,57.85,-18.2633835484662,-0.728651009790799,2153.86758866733,4.90914614295885,190.72124079698
0.5,57.9,-18.4107805124239,-0.72713884713174,2155.94226385523,4.91328224735314,190.871933045042
0.5,57.95,-18.5543261968201,-0.726027409133101,2158.01693075258,4.91741755847609,191.022512773799
0.5,58,-18.6942139896386,-0.72528137618904,2160.09158898526,4.92155207982567,191.172979502915
0.5,58.05,-18.8306145430308,-0.724869583668817,2162.1662381817,4.92568581488744,191.323332756169
0.5,58.1,-18.9636756762231,-0.724765019296794,2164.24087797284,4.92981876713457,191.473572061434
0.5,58.15,-19.0935221979694,-0.724944817885652,2166.31550799212,4.93395094002787,191.623696950666
0.5,58.2,-19.2202556432901,-0.725390253075635,2168.39012787549,4.93808233701573,191.773706959882
0.5,58.25,-19.3439539211416,-0.726086725344025,2170.46473726137,4.94221296153417,191.92360162915
0.5,58.3,-19.4646708715173,-0.727023745113715,2172.53933579063,4.94634281700689,192.07338050257
0.5,58.35,-19.5824357325066,-0.728194909300969,2174.61392310661,4.95047190684516,192.22304312826
0.5,58.4,-19.6972525202422,-0.729597869093007,2176.6884988551,4.95460023444795,192.372589058335
0.5,58.45,-19.8090993276514,-0.731234286128599,2178.76306268431,4.95872780320185,192.522017848899
0.5,58.5,-19.9179275517107,-0.733109773561899,2180.83761424485,4.96285461648116,192.671329060022
0.5,58.55,-20.023661063713,-0.735233817715317,2182.91215318976,4.96698067764782,192.820522255726
0.5,58.6,-20.1261953431202,-0.737619675165935,2184.98667917445,4.97110599005146,192.96959700397
0.5,58.65,-20.2253966031353,-0.740284239159662,2187.06119185672,4.97523055702942,193.118552876634
0.5,58.7,-20.3211009454081,-0.743247868209234,2189.13569089673,4.97935438190674,193.267389449501
0.5,58.75,-20.4131135924877,-0.746534168613362,2191.210175957,4.9834774679962,193.416106302241
0.5,58.8,-20.5012082599004,-0.750169721449322,2193.28464670238,4.98759981859827,193.564703018397
0.5,58.85,-20.5851267451098,-0.754183743365788,2195.35910280006,4.99172143700122,193.713179185367
0.5,58.9,-20.6645788280064,-0.758607669275678,2197.43354391954,4.99584232648104,193.861534394388
0.5,58.95,-20.7392425966865,-0.763474643879041,2199.50796973263,4.99996249030151,194.00976824052
0.5,59,-20.8087653325095,-0.768818907914822,2201.58237991343,5.0040819317142,194.15788032263
0.5,59.05,-20.872765108841,-0.774675064261217,2203.6567741383,5.00820065395847,194.305870243377
0.5,59.1,-20.9308332771001,-0.781077208627545,2205.73115208591,5.0123186602615,194.453737609193
0.5,59.15,-20.9825380298654,-0.788057909806196,2207.80551343715,5.01643595383833,194.601482030271
0.5,59.2,-21.0274292414587,-0.795647025538827,2209.87985787516,5.02055253789182,194.749103120545
0.5,59.25,-21.0650447887722,-0.803870342328247,2211.95418508532,5.02466841561269,194.89660049768
0.5,59.3,-21.0949185459466,-0.812748031415764,2214.02849475524,5.02878359017959,195.043973783056
0.5,59.35,-21.1165902226219,-0.82229291916986,2216.10278657471,5.03289806475901,195.191222601757
0.5,59.4,-21.1296171739674,-0.832508578951952,2218.17706023575,5.03701184250542,195.338346582564
0.5,59.45,-21.1335882495623,-0.843387263948522,2220.25131543252,5.04112492656117,195.485345357967
0.5,59.5,-21.128139666937,-0.854907717476413,2222.3255518614,5.04523732005661,195.632218564212
0.5,59.55,-21.1129727958295,-0.867032920076978,2224.39976922089,5.04934902611003,195.778965841506
0.5,59.6,-21.0878736251741,-0.879707862732821,2226.47396721168,5.05346004782775,195.925586835017
0.5,59.65,-21.0527335634537,-0.892857474394009,2228.54814553657,5.05757038830407,196.072081201894
0.5,59.7,-21.0075711035293,-0.906384881441701,2230.62230390049,5.06168005062134,196.218448490469
0.5,59.75,-20.9525537758133,-0.920170238412657,2232.6964420105,5.06578903784997,196.364688538196
0.5,59.8,-20.8880197283859,-0.934070444366611,2234.77055957573,5.06989735304843,196.510800889463
0.5,59.85,-20.8144982157698,-0.947920147333516,2236.84465630744,5.07400499926329,196.65678522077
0.5,59.9,-20.7327282497111,-0.961534536821318,2238.91873191895,5.07811197952925,196.802641198781
0.5,59.95,-20.6436746561355,-0.974714521950852,2240.99278612566,5.08221829686914,196.948368492159
0.5,60,-20.5485407707824,-0.987254970684176,2243.06681864501,5.08632395429395,197.093966772685
0.5,60.05,-20.4487769554645,-0.998956707748195,2245.14082919651,5.09042895480285,197.239435715485
0.5,60.1,-20.3460839744146,-1.00964287565482,2247.21481750168,5.09453330138324,197.384774999081
0.5,60.15,-20.2424099647235,-1.01917996598299,2249.28878328409,5.09863699701071,197.5299843054
0.5,60.2,-20.1399391765237,-1.02750321110894,2251.36272626932,5.10274004464914,197.675063319772
0.5,60.25,-20.0410697393013,-1.03464496855748,2253.43664618492,5.10684244725067,197.820011730916
0.5,60.3,-19.9483763098969,-1.04076316138319,2255.51054276048,5.11094420775576,197.964829230929
0.5,60.35,-19.8645514601685,-1.04616484726589,2257.58441572753,5.11504532909315,198.109515515268
0.5,60.4,-19.7923170038555,-1.05131797191808,2259.6582648196,5.11914581417998,198.254070282738
0.5,60.45,-19.7342932311227,-1.05684314637457,2261.73208977216,5.12324566592174,198.398493235474
0.5,60.5,-19.6928106566106,-1.06347808594514,2263.80589032262,5.12734488721233,198.542784078928
0.5,60.55,-19.6696465451505,-1.072011348974,2265.87966621036,5.13144348093405,198.686942521847
0.5,60.6,-19.6656695865992,-1.08318953282,2267.95341717666,5.13554144995769,198.830968276265
0.5,60.65,-19.6803850627929,-1.09761161302124,2270.02714296471,5.13963879714248,198.974861057481
0.5,60.7,-19.711396546225,-1.11563206716901,2272.10084331964,5.14373552533618,199.118620584043
0.5,60.75,-19.7538468941712,-1.13729644001631,2274.17451798843,5.14783163737506,199.262246577735
0.5,60.8,-19.7999758011699,-1.16232655983591,2276.24816671998,5.15192713608395,199.40573876356
0.5,60.85,-19.8390223832627,-1.19015928342538,2278.32178926504,5.15602202427627,199.549096869722
0.5,60.9,-19.8577634991404,-1.22002785119536,2280.39538537625,5.16011630475404,199.692320627611
0.5,60.95,-19.8419222661207,-1.25106489005538,2282.46895480806,5.16420998030793,199.835409771788
0.5,61,-19.7784133352287,-1.28240419073836,2284.54249731681,5.16830305371724,199.978364039966
0.5,61.05,-19.6579331661898,-1.31326370705398,2286.61601266065,5.17239552775002,200.121183172999
0.5,61.1,-19.4770044973629,-1.34300101732325,2288.68950059953,5.17648740516297,200.26386691486
0.5,61.15,-19.238618878384,-1.37114078142024,2290.76296089526,5.18057868870159,200.406415012628
0.5,61.2,-18.9512114672534,-1.39737918457732,2292.83639331141,5.18466938110014,200.548827216473
0.5,61.25,-18.6264760588564,-1.42157258153239,2294.90979761336,5.18875948508168,200.691103279639
0.5,61.3,-18.2769339303029,-1.44371735927578,2296.98317356827,5.19284900335811,200.833242958426
0.5,61.35,-17.9140174620102,-1.46392657580877,2299.05652094507,5.19693793863017,200.975246012177
0.5,61.4,-17.5469811844489,-1.48240713824117,2301.12983951444,5.20102629358753,201.117112203263
0.5,61.45,-17.1825631754236,-1.49943969716632,2303.20312904884,5.20511407090874,201.258841297062
0.5,61.5,-16.8251434185554,-1.51536226377439,2305.27638932244,5.20920127326133,201.400433061947
0.5,61.55,-16.4771441186775,-1.53055780729988,2307.34962011116,5.21328790330179,201.541887269272
0.5,61.6,-16.139491959006,-1.54544567978439,2309.42282119263,5.21737396367562,201.683203693351
0.5,61.65,-15.8120433693517,-1.56047654090076,2311.4959923462,5.22145945701737,201.824382111446
0.5,61.7,-15.4939326636169,-1.57613043053584,2313.56913335293,5.22554438595065,201.96542230375
0.5,61.75,-15.1838368383097,-1.59291769833392,2315.64224399556,5.22962875308816,202.106324053373
0.5,61.8,-14.8801666683372,-1.61138260800714,2317.71532405851,5.23371256103175,202.247087146324
0.5,61.85,-14.5811989435276,-1.6321095684462,2319.78837332789,5.23779581237242,202.387711371494
0.5,61.9,-14.2851646268932,-1.65573209463058,2321.86139159145,5.24187850969034,202.528196520647
0.5,61.95,-13.9903055603381,-1.6829447685417,2323.93437863862,5.24596065555492,202.668542388398
0.5,62,-13.6949097267325,-1.71451865872098,2326.00733426045,5.25004225252484,202.808748772198
0.5,62.05,-13.3973327209102,-1.75132087542538,2328.08025824966,5.25412330314801,202.948815472323
0.5,62.1,-13.0960112368252,-1.79433919740329,2330.15315040055,5.25820380996171,203.088742291853
0.5,62.15,-12.7894730804685,-1.84471301764077,2332.22601050908,5.26228377549251,203.228529036662
0.5,62.2,-12.4763474268729,-1.90377222802709,2334.2988383728,5.26636320225641,203.368175515398
0.5,62.25,-12.1553787010181,-1.97308609664411,2336.37163379084,5.27044209275877,203.507681539469
0.5,62.3,-11.8254475388253,-2.05452466268764,2338.44439656395,5.27452044949442,203.64704692303
0.5,62.35,-11.4856027617521,-2.15033560538189,2340.51712649444,5.27859827494764,203.786271482964
0.5,62.4,-11.1351091822708,-2.26323973994556,2342.5898233862,5.28267557159222,203.925355038871
0.5,62.45,-10.773517354265,-2.39654781326137,2344.66248704468,5.2867523418915,204.064297413047
0.5,62.5,-10.4007630579283,-2.55429915658062,2346.73511727688,5.29082858829835,204.203098430475
0.5,62.55,-10.017306201864,-2.74141698335673,2348.80771389135,5.29490431325526,204.341757918806
0.5,62.6,-9.6243204804534,-2.96386151217547,2350.88027669816,5.29897951919436,204.480275708346
0.5,62.65,-9.22394549256005,-3.22873209802004,2352.95280550893,5.30305420853741,204.618651632038
0.5,62.7,-8.81960998088489,-3.54420604780953,2355.02530013678,5.30712838369589,204.75688552545
0.5,62.75,-8.41642454956319,-3.91907178405252,2357.09776039634,5.311202047071,204.89497722676
0.5,62.8,-8.02161865435124,-4.36135935181154,2359.17018610374,5.31527520105369,205.032926576739
0.5,62.85,-7.64495248311395,-4.87511292992168,2361.24257707661,5.31934784802471,205.170733418736
0.5,62.9,-7.29896537119686,-5.45368564560989,2363.31493313404,5.32341999035462,205.308397598667
0.5,62.95,-6.99883916098112,-6.06762153091549,2365.38725409663,5.32749163040384,205.445918964994
0.5,63,-6.76160110452194,-6.64780432722626,2367.45953978642,5.33156277052268,205.583297368718
0.55,57,-19.8698594991975,-0.791523276371051,2138.69187668747,4.81421886705367,191.128972031662
0.55,57.05,-20.298172590581,-0.786026868719115,2140.75929073726,4.81832387562965,191.253142631938
0.55,57.1,-20.715749599593,-0.782580947387328,2142.82668106775,4.82242831467549,191.377179603762
0.55,57.15,-21.1182523053126,-0.781128381852046,2144.89404744167,4.82653218672781,191.501082790352
0.55,57.2,-21.5023466461756,-0.781621859062789,2146.96138962355,4.83063549431269,191.62485203757
0.55,57.25,-21.8654907362875,-0.784022835055521,2149.0287073797,4.83473823994569,191.748487193905
0.55,57.3,-22.2057676745451,-0.788300010082202,2151.09600047823,4.8388404261319,191.871988110458
0.55,57.35,-22.5217619487065,-0.794427450290902,2153.16326868899,4.84294205536594,191.995354640929
0.55,57.4,-22.8124744949686,-0.802382476075978,2155.23051178363,4.84704313013201,192.118586641595
0.55,57.45,-23.077270518201,-0.812143426570544,2157.29772953552,4.85114365290393,192.241683971301
0.55,57.5,-23.3158547549903,-0.823687394176329,2159.36492171978,4.85524362614513,192.364646491441
0.55,57.55,-23.5282703539145,-0.836988005092025,2161.43208811327,4.85934305230875,192.487474065942
0.55,57.6,-23.7149197995245,-0.852013303626211,2163.49922849454,4.86344193383762,192.610166561252
0.55,57.65,-23.8766095310412,-0.86872378122851,2165.56634264389,4.8675402731643,192.73272384632
0.55,57.7,-24.0146247066018,-0.887070576660719,2167.63343034329,4.87163807271112,192.855145792585
0.55,57.75,-24.1308481060013,-0.906993862102078,2169.70049137641,4.87573533489021,192.977432273959
0.55,57.8,-24.2279495647238,-0.928421421413755,2171.7675255286,4.87983206210354,193.099583166809
0.55,57.85,-24.3096932767016,-0.951267421187849,2173.83453258687,4.88392825674294,193.221598349946
0.55,57.9,-24.3814455339284,-0.975431372323535,2175.90151233992,4.88802392119014,193.343477704609
0.55,57.95,-24.4510203637312,-1.00079727936632,2177.96846457806,4.8921190578168,193.465221114447
0.55,58,-24.5300600139532,-1.02723297634479,2180.03538909326,4.89621366898453,193.586828465507
0.55,58.05,-24.6360656875872,-1.05458965097237,2182.10228567913,4.90030775704496,193.708299646218
0.55,58.1,-24.7941598640531,-1.08270156350082,2184.16915413088,4.90440132433974,193.829634547376
0.55,58.15,-25.0319363583955,-1.11138597189158,2186.23599424536,4.90849437320056,193.950833062129
0.55,58.2,-25.3383395149505,-1.14044328100665,2188.302805821,4.91258690594922,194.071895085962
0.55,58.25,-25.530055518485,-1.16965743992142,2190.36958865782,4.91667892489767,194.192820516683
0.55,58.3,-25.2242566174986,-1.19879661794304,2192.43634255744,4.92077043234798,194.313609254407
0.55,58.35,-24.4461519017122,-1.22761419619924,2194.50306732305,4.92486143059242,194.434261201543
0.55,58.4,-23.666146194265,-1.25585011747204,2196.56976275939,4.92895192191352,194.554776262776
0.55,58.45,-23.0796489929935,-1.28323264204492,2198.63642867277,4.93304190858403,194.675154345058
0.55,58.5,-22.6480295360658,-1.30948056152756,2200.70306487104,4.93713139286702,194.795395357587
0.55,58.55,-22.3067785533695,-1.33430592585329,2202.7696711636,4.94122037701586,194.915499211798
0.55,58.6,-22.014660068891,-1.35741734104009,2204.83624736135,4.9453088632743,195.035465821345
0.55,58.65,-21.7495160812909,-1.3785238972935,2206.90279327674,4.94939685387647,195.155295102089
0.55,58.7,-21.5000809157894,-1.39733978946711,2208.96930872371,4.95348435104692,195.274986972081
0.55,58.75,-21.2609434366214,-1.41358969620981,2211.0357935177,4.95757135700069,195.394541351549
0.55,58.8,-21.0298999630963,-1.42701499246916,2213.10224747566,4.96165787394328,195.513958162885
0.55,58.85,-20.8066036214573,-1.43738088536929,2215.168670416,4.96574390407071,195.63323733063
0.55,58.9,-20.5918746152851,-1.44448458969077,2217.23506215861,4.96982944956959,195.75237878146
0.55,58.95,-20.3873489922971,-1.44816470080795,2219.30142252486,4.9739145126171,195.871382444168
0.55,59,-20.195305192121,-1.4483119847357,2221.36775133757,4.97799909538105,195.990248249659
0.55,59.05,-20.0185862194726,-1.44488189063742,2223.43404842098,4.98208320001992,196.108976130925
0.55,59.1,-19.8605727599194,-1.43790920103439,2225.50031360082,4.98616682868285,196.227566023042
0.55,59.15,-19.7251796226143,-1.42752536122752,2227.5665467042,4.99024998350975,196.346017863146
0.55,59.2,-19.6168540075629,-1.41397914778555,2229.63274755968,4.99433266663125,196.464331590426
0.55,59.25,-19.5405532085496,-1.39766139090769,2231.69891599724,4.99841488016881,196.58250714611
0.55,59.3,-19.5016726407209,-1.3791343463079,2233.76505184824,5.00249662623468,196.700544473446
0.55,59.35,-19.5058821367616,-1.35916581635409,2235.83115494544,5.00657790693202,196.818443517694
0.55,59.4,-19.5588080612798,-1.33876690485757,2237.89722512302,5.01065872435488,196.936204226111
0.55,59.45,-19.6654698322888,-1.31922982840895,2239.96326221649,5.01473908058832,197.053826547934
0.55,59.5,-19.8293433038213,-1.30215780193538,2242.02926606277,5.01881897770872,197.17131043437
0.55,59.55,-20.0508905541944,-1.28947199985223,2244.09523650012,5.02289841778774,197.288655838585
0.55,59.6,-20.3254012311529,-1.28337096705371,2246.1611733682,5.02697740286758,197.405862715683
0.55,59.65,-20.6401266303776,-1.28620767973058,2248.22707650792,5.03105593500512,197.5229310227
0.55,59.7,-20.9711400257226,-1.30024504981576,2250.29294576163,5.03513401624871,197.639860718586
0.55,59.75,-21.2813548916499,-1.3272643110057,2252.35878097296,5.03921164862374,197.756651764196
0.55,59.8,-21.5225340297204,-1.36804791788848,2254.42458198686,5.0432888341524,197.873304122271
0.55,59.85,-21.6444491343234,-1.42184477806214,2256.49034864962,5.04736557484823,197.989817757432
0.55,59.9,-21.6107323031428,-1.48602249027408,2258.55608080882,5.05144187271598,198.10619263616
0.55,59.95,-21.4135191316498,-1.55614414679916,2260.62177831333,5.05551772975169,198.222428726789
0.55,60,-21.0760606406539,-1.62659481025564,2262.68744101332,5.05959314794267,198.338525999488
0.55,60.05,-20.6412845907233,-1.69163215935569,2264.75306876025,5.06366812926755,198.454484426248
0.55,60.1,-20.1555424479537,-1.74649621317678,2266.81866140685,5.06774267569634,198.570303980776
0.55,60.15,-19.6572736910663,-1.78817220614888,2268.8842188071,5.07181678919041,198.685984639042
0.55,60.2,-19.1731003264916,-1.81559611307166,2270.94974081626,5.07589047170257,198.801526378024
0.55,60.25,-18.7187925378104,-1.82936799807333,2273.01522729083,5.07996372517706,198.916929177048
0.55,60.3,-18.302010979648,-1.83120702941888,2275.08067808857,5.08403655154965,199.032193017035
0.55,60.35,-17.925049355848,-1.82338566242678,2277.14609306846,5.0881089527476,199.14731788066
0.55,60.4,-17.5869563675335,-1.80828617748098,2279.21147209071,5.09218093068973,199.262303752332
0.55,60.45,-17.2849900574805,-1.78812087639546,2281.27681501675,5.09625248728645,199.377150618187
0.55,60.5,-17.0155457685729,-1.76479424727045,2283.34212170924,5.10032362443978,199.491858466068
0.55,60.55,-16.7747182068361,-1.73986325495687,2285.40739203202,5.10439434404341,199.606427285521
0.55,60.6,-16.5586253139683,-1.71455425388714,2287.47262585016,5.10846464798269,199.720857067776
0.55,60.65,-16.363583137901,-1.68980636872173,2289.53782302989,5.1125345381347,199.835147805738
0.55,60.7,-16.1861901709868,-1.66632281074075,2291.60298343866,5.11660401636826,199.949299493973
0.55,60.75,-16.0233581720619,-1.64462031315737,2293.66810694505,5.120673084544,200.063312128699
0.55,60.8,-15.872312405127,-1.62507240310094,2295.73319341886,5.12474174451432,200.177185707771
0.55,60.85,-15.730575276614,-1.60794533192565,2297.79824273101,5.1288099981235,200.290920230671
0.55,60.9,-15.5959417668982,-1.59342701941636,2299.8632547536,5.13287784720769,200.404515698492
0.55,60.95,-15.4664516038264,-1.58164999547861,2301.92822935989,5.13694529359493,200.517972113934
0.55,61,-15.3403610153434,-1.57270947780041,2303.99316642424,5.14101233910523,200.631289481284
0.55,61.05,-15.2161156166828,-1.56667765981339,2306.05806582218,5.14507898555056,200.744467806407
