"W_line [mm]","Freq [GHz]","dB(S(1,1)) []","dB(S(2,1)) []","im(Gamma(1)) []","re(Gamma(1)) []","re(Zo(1)) []"
0.5,57,-39.6143856981246,-0.517935875414724,2268.52560199206,5.41074012514727,63.8972754092472
0.5,57.05,-39.0798666251281,-0.519384077162349,2270.51606497324,5.41511375343675,63.8997069487965
0.5,57.1,-38.5357712593191,-0.521192915872992,2272.50652894079,5.41948720306461,63.9021378626705
0.5,57.15,-37.9802095663147,-0.523423519158898,2274.49699389372,5.42386047422503,63.9045681507285
0.5,57.2,-37.4110393486048,-0.526155082740092,2276.48745983105,5.42823356711182,63.9069978128394
0.5,57.25,-36.8258177076451,-0.529491341087726,2278.47792675179,5.43260648191841,63.9094268488813
0.5,57.3,-36.221745449714,-0.533569792466963,2280.46839465496,5.43697921883784,63.9118552587417
0.5,57.35,-35.595605523921,-0.538575033985335,2282.45886353957,5.44135177806279,63.9142830423174
0.5,57.4,-34.9436994201517,-0.544758302219754,2284.44933340466,5.44572415978552,63.9167101995145
0.5,57.45,-34.2617915235072,-0.552466470065372,2286.43980424925,5.45009636419796,63.9191367302483
0.5,57.5,-33.5450841527167,-0.56218550826394,2288.43027607236,5.45446839149164,63.9215626344435
0.5,57.55,-32.7882725688876,-0.574605913360832,2290.42074887303,5.4588402418577,63.9239879120339
0.5,57.6,-31.9857846617493,-0.590720472390977,2292.41122265028,5.46321191548693,63.9264125629625
0.5,57.65,-31.1324256107143,-0.611965507490663,2294.40169740316,5.46758341256974,63.9288365871814
0.5,57.7,-30.224886339564,-0.640405397068531,2296.39217313069,5.47195473329615,63.931259984652
0.5,57.75,-29.2650474990444,-0.678902342302123,2298.38264983192,5.47632587785583,63.9336827553447
0.5,57.8,-28.2668417883061,-0.73100669647336,2300.37312750589,5.48069684643807,63.936104899239
0.5,57.85,-27.2693828424206,-0.799716669481708,2302.36360615164,5.48506763923178,63.9385264163234
0.5,57.9,-26.3578201762523,-0.883183347647989,2304.35408576823,5.48943825642553,63.9409473065956
0.5,57.95,-25.6818017759617,-0.966045853692955,2306.3445663547,5.49380869820748,63.9433675700621
0.5,58,-25.4319146066018,-1.01537972949032,2308.33504791009,5.49817896476547,63.9457872067386
0.5,58.05,-25.7341424483286,-1.00336987223441,2310.32553043348,5.50254905628693,63.9482062166497
0.5,58.1,-26.5441390009447,-0.939881892332677,2312.31601392391,5.50691897295895,63.9506245998287
0.5,58.15,-27.6880288973017,-0.859231332917365,2314.30649838044,5.51128871496826,63.9530423563183
0.5,58.2,-28.9886887711846,-0.786139645643358,2316.29698380213,5.51565828250121,63.9554594861695
0.5,58.25,-30.3303961682053,-0.728452397670149,2318.28747018806,5.5200276757438,63.9578759894426
0.5,58.3,-31.6546447922962,-0.68531602526331,2320.27795753728,5.52439689488166,63.9602918662066
0.5,58.35,-32.9376818628641,-0.653555300024672,2322.26844584886,5.52876594010008,63.9627071165392
0.5,58.4,-34.1732294283722,-0.630133938208721,2324.25893512188,5.53313481158396,63.9651217405271
0.5,58.45,-35.3626983907411,-0.612718367012544,2326.24942535541,5.53750350951787,63.9675357382656
0.5,58.5,-36.5102062802859,-0.599636876523757,2328.23991654852,5.54187203408601,63.9699491098588
0.5,58.55,-37.6200959659764,-0.589716568939859,2330.2304087003,5.54624038547223,63.9723618554195
0.5,58.6,-38.6956336150005,-0.582134691198393,2332.22090180982,5.55060856386001,63.9747739750691
0.5,58.65,-39.7382113686378,-0.57630887870791,2334.21139587618,5.5549765694325,63.9771854689378
0.5,58.7,-40.7467316888837,-0.571821482053469,2336.20189089845,5.55934440237249,63.9795963371645
0.5,58.75,-41.7170466064731,-0.568368540847227,2338.19238687573,5.5637120628624,63.9820065798964
0.5,58.8,-42.6414638102962,-0.56572547623089,2340.1828838071,5.56807955108431,63.9844161972896
0.5,58.85,-43.5084659157187,-0.563723882183188,2342.17338169166,5.57244686721997,63.9868251895086
0.5,58.9,-44.3029285227464,-0.5622356600245,2344.16388052852,5.57681401145076,63.9892335567266
0.5,58.95,-45.0072126248192,-0.561162037130912,2346.15438031675,5.58118098395771,63.991641299125
0.5,59,-45.603416731054,-0.56042586558896,2348.14488105548,5.58554778492151,63.9940484168941
0.5,59.05,-46.07666258841,-0.559966149268314,2350.13538274379,5.5899144145225,63.9964549102323
0.5,59.1,-46.4186074061985,-0.559734103968651,2352.1258853808,5.5942808729407,63.9988607793468
0.5,59.15,-46.6298551145884,-0.55969028576964,2354.11638896562,5.59864716035574,64.0012660244528
0.5,59.2,-46.7201595492849,-0.559802473074752,2356.10689349736,5.60301327694694,64.0036706457742
0.5,59.25,-46.7063333396052,-0.560044086953138,2358.09739897512,5.60737922289328,64.0060746435433
0.5,59.3,-46.6088648266334,-0.560393000460062,2360.08790539804,5.61174499837338,64.0084780180005
0.5,59.35,-46.4485960147145,-0.560830632187206,2362.07841276522,5.61611060356553,64.0108807693948
0.5,59.4,-46.2443680534392,-0.561341249713027,2364.06892107579,5.62047603864768,64.0132828979832
0.5,59.45,-46.0118467615426,-0.561911429625302,2366.05943032887,5.62484130379745,64.0156844040312
0.5,59.5,-45.7632781419212,-0.562529635451171,2368.04994052358,5.62920639919211,64.0180852878124
0.5,59.55,-45.5077909796878,-0.563185885179303,2370.04045165907,5.63357132500859,64.0204855496089
0.5,59.6,-45.2519294437066,-0.563871487439217,2372.03096373445,5.6379360814235,64.0228851897106
0.5,59.65,-45.0002192846355,-0.564578830718924,2374.02147674886,5.64230066861312,64.0252842084159
0.5,59.7,-44.7556721933398,-0.565301213867321,2376.01199070144,5.64666508675337,64.0276826060312
0.5,59.75,-44.5201961658689,-0.566032708964197,2378.00250559133,5.65102933601986,64.0300803828712
0.5,59.8,-44.2949121177901,-0.566768049739656,2379.99302141766,5.65539341658786,64.0324775392584
0.5,59.85,-44.0803901834066,-0.567502540291286,2381.98353817959,5.65975732863232,64.0348740755236
0.5,59.9,-43.8768223047082,-0.568231980025369,2383.97405587626,5.66412107232784,64.0372699920057
0.5,59.95,-43.6841464663148,-0.568952601641097,2385.96457450681,5.66848464784871,64.0396652890515
0.5,60,-43.5021352056789,-0.569661019657913,2387.9550940704,5.67284805536888,64.042059967016
0.5,60.05,-43.3304581706902,-0.570354187509553,2389.94561456618,5.67721129506198,64.0444540262619
0.5,60.1,-43.1687260254268,-0.571029361633044,2391.93613599332,5.68157436710132,64.0468474671602
0.5,60.15,-43.0165210446979,-0.571684071295898,2393.92665835096,5.68593727165985,64.0492402900895
0.5,60.2,-42.8734182545535,-0.57231609315123,2395.91718163827,5.69030000891026,64.0516324954367
0.5,60.25,-42.7389998833275,-0.572923429704686,2397.90770585441,5.69466257902485,64.0540240835962
0.5,60.3,-42.6128650959883,-0.573504291030463,2399.89823099856,5.69902498217564,64.0564150549706
0.5,60.35,-42.4946364162075,-0.57405707919609,2401.88875706987,5.7033872185343,64.0588054099702
0.5,60.4,-42.3839638347069,-0.574580374953172,2403.87928406752,5.70774928827221,64.0611951490131
0.5,60.45,-42.2805273133344,-0.575072926329799,2405.86981199069,5.71211119156041,64.0635842725253
0.5,60.5,-42.1840381884742,-0.575533638823696,2407.86034083855,5.71647292856961,64.0659727809406
0.5,60.55,-42.0942398306991,-0.575961566946374,2409.85087061028,5.72083449947024,64.0683606747003
0.5,60.6,-42.0109078128265,-0.576355906910406,2411.84140130506,5.72519590443237,64.0707479542538
0.5,60.65,-41.9338497635286,-0.576715990285989,2413.83193292207,5.72955714362577,64.0731346200581
0.5,60.7,-41.862905029722,-0.577041278480957,2415.82246546051,5.73391821721991,64.0755206725776
0.5,60.75,-41.797944231999,-0.577331357921417,2417.81299891956,5.73827912538392,64.0779061122848
0.5,60.8,-41.7388687690204,-0.577585935829225,2419.80353329842,5.74263986828664,64.0802909396596
0.5,60.85,-41.6856103059892,-0.577804836508221,2421.79406859627,5.74700044609656,64.0826751551895
0.5,60.9,-41.6381302668873,-0.577987998064264,2423.78460481231,5.7513608589819,64.0850587593698
0.5,60.95,-41.5964193385284,-0.578135469495118,2425.77514194575,5.75572110711054,64.0874417527032
0.5,61,-41.5604969855667,-0.578247408095174,2427.76567999578,5.76008119065006,64.0898241356999
0.5,61.05,-41.5304109686469,-0.578324077127835,2429.75621896161,5.76444110976773,64.0922059088779
0.5,61.1,-41.5062368523469,-0.578365843724783,2431.74675884244,5.76880086463051,64.0945870727623
0.5,61.15,-41.4880774851181,-0.578373176976692,2433.73729963749,5.77316045540503,64.0969676278862
0.5,61.2,-41.4760624298596,-0.578346646184669,2435.72784134597,5.77751988225765,64.0993475747898
0.5,61.25,-41.470347320968,-0.578286919245431,2437.71838396709,5.78187914535439,64.1017269140207
0.5,61.3,-41.4711131216714,-0.578194761146754,2439.70892750007,5.78623824486099,64.1041056461343
0.5,61.35,-41.4785652542398,-0.578071032552216,2441.69947194412,5.79059718094287,64.106483771693
0.5,61.4,-41.4929325753633,-0.57791668845705,2443.69001729847,5.79495595376514,64.1088612912668
0.5,61.45,-41.514466169761,-0.577732776898526,2445.68056356235,5.7993145634926,64.1112382054329
0.5,61.5,-41.5434379370822,-0.57752043770652,2447.67111073497,5.80367301028978,64.113614514776
0.5,61.55,-41.5801389505759,-0.577280901280951,2449.66165881557,5.80803129432087,64.115990219888
0.5,61.6,-41.6248775709787,-0.577015487384465,2451.65220780339,5.81238941574978,64.1183653213681
0.5,61.65,-41.6779773057331,-0.576725603939681,2453.64275769765,5.81674737474011,64.1207398198229
0.5,61.7,-41.7397744120422,-0.576412745821294,2455.63330849759,5.82110517145516,64.123113715866
0.5,61.75,-41.810615252342,-0.576078493634267,2457.62386020245,5.82546280605792,64.1254870101184
0.5,61.8,-41.890853422375,-0.575724512470022,2459.61441281148,5.82982027871111,64.1278597032082
0.5,61.85,-41.9808466848486,-0.575352550633229,2461.60496632392,5.83417758957711,64.1302317957708
0.5,61.9,-42.0809537552128,-0.574964438332399,2463.59552073901,5.83853473881803,64.1326032884487
0.5,61.95,-42.1915309997612,-0.574562086327985,2465.586076056,5.84289172659568,64.1349741818915
0.5,62,-42.3129291193092,-0.574147484532142,2467.57663227415,5.84724855307156,64.1373444767559
0.5,62.05,-42.4454899032773,-0.573722700554848,2469.56718939271,5.85160521840689,64.1397141737058
0.5,62.1,-42.5895431482341,-0.573289878191281,2471.55774741093,5.85596172276258,64.142083273412
0.5,62.15,-42.7454038409816,-0.572851235845977,2473.54830632809,5.86031806629926,64.1444517765526
0.5,62.2,-42.9133697083767,-0.572409064889374,2475.53886614343,5.86467424917724,64.1468196838125
0.5,62.25,-43.09371923377,-0.571965727942897,2477.52942685622,5.86903027155657,64.1491869958837
0.5,62.3,-43.2867102329709,-0.571523657088902,2479.51998846574,5.87338613359697,64.1515537134651
0.5,62.35,-43.4925790711372,-0.571085352002241,2481.51055097124,5.87774183545789,64.1539198372628
0.5,62.4,-43.711540586405,-0.570653378000341,2483.501114372,5.8820973772985,64.1562853679896
0.5,62.45,-43.9437887672293,-0.570230364009236,2485.4916786673,5.88645275927764,64.1586503063653
0.5,62.5,-44.1894982094021,-0.569819000442944,2487.48224385641,5.89080798155389,64.1610146531166
0.5,62.55,-44.4488263568048,-0.569422036994363,2489.47280993861,5.89516304428553,64.1633784089771
0.5,62.6,-44.7219165085078,-0.569042280335573,2491.46337691318,5.89951794763055,64.1657415746873
0.5,62.65,-45.0089015550671,-0.568682591726327,2493.45394477941,5.90387269174665,64.1681041509945
0.5,62.7,-45.3099083898574,-0.568345884529383,2495.44451353659,5.90822727679124,64.1704661386527
0.5,62.75,-45.6250629277134,-0.568035121631942,2497.435083184,5.91258170292144,64.1728275384229
0.5,62.8,-45.9544956532714,-0.567753312772561,2499.42565372093,5.91693597029409,64.1751883510727
0.5,62.85,-46.2983476149765,-0.56750351177344,2501.41622514669,5.92129007906573,64.1775485773766
0.5,62.9,-46.6567767768713,-0.567288813678228,2503.40679746055,5.92564402939262,64.1799082181158
0.5,62.95,-47.0299646375432,-0.567112351795799,2505.39737066184,5.92999782143074,64.1822672740781
0.5,63,-47.4181230217089,-0.566977294650969,2507.38794474984,5.93435145533577,64.1846257460581
0.55,57,-36.8945977272317,-0.544237571647556,2268.47123484218,5.483888295113,61.662111069759
0.55,57.05,-36.179492878728,-0.547386808250745,2270.46176165904,5.48830049447638,61.6646706437146
0.55,57.1,-35.5313327144518,-0.551637070919999,2272.452289498,5.49271249694331,61.6672294601799
0.55,57.15,-34.9266162969454,-0.55724043506545,2274.44281835777,5.49712430272905,61.6697875194536
0.55,57.2,-34.3454962855604,-0.564535467117137,2276.4333482371,5.50153591204848,61.6723448218445
0.55,57.25,-33.7714247422754,-0.573979289723236,2278.42387913469,5.50594732511603,61.6749013676715
0.55,57.3,-33.1907324969622,-0.586189899017272,2280.41441104929,5.51035854214579,61.677457157263
0.55,57.35,-32.5923886131379,-0.601997417651545,2282.40494397964,5.51476956335137,61.680012190958
0.55,57.4,-31.9681894031355,-0.622492979752725,2284.39547792446,5.51918038894604,61.6825664691048
0.55,57.45,-31.3137250658754,-0.649035944810855,2286.38601288251,5.52359101914262,61.6851199920621
0.55,57.5,-30.6306921702657,-0.683111601867202,2288.37654885254,5.52800145415356,61.687672760198
0.55,57.55,-29.9314368682935,-0.725792845491267,2290.36708583329,5.5324116941909,61.6902247738906
0.55,57.6,-29.2467305072528,-0.776385742645759,2292.35762382351,5.53682173946627,61.692776033528
0.55,57.65,-28.6364966859573,-0.830015765065733,2294.34816282197,5.5412315901909,61.6953265395076
0.55,57.7,-28.197696618418,-0.875521424343111,2296.33870282743,5.54564124657565,61.697876292237
0.55,57.75,-28.0526966214277,-0.898083127659655,2298.32924383864,5.55005070883094,61.7004252921331
0.55,57.8,-28.3008155959427,-0.889050175563633,2300.31978585438,5.55445997716683,61.7029735396227
0.55,57.85,-28.9561023726762,-0.853589516553654,2302.31032887343,5.55886905179298,61.7055210351422
0.55,57.9,-29.9371009153623,-0.805587658336864,2304.30087289455,5.56327793291863,61.7080677791376
0.55,57.95,-31.1214092083402,-0.757298631226551,2306.29141791652,5.56768662075265,61.7106137720644
0.55,58,-32.4026213923636,-0.715046008164707,2308.28196393813,5.57209511550352,61.7131590143877
0.55,58.05,-33.7107699657353,-0.680537820281542,2310.27251095816,5.57650341737931,61.7157035065822
0.55,58.1,-35.0074061385348,-0.653248729389811,2312.26305897541,5.58091152658772,61.7182472491319
0.55,58.15,-36.2744816073954,-0.631944880812614,2314.25360798866,5.58531944333606,61.7207902425303
0.55,58.2,-37.5053631191976,-0.61536311931292,2316.24415799671,5.58972716783122,61.7233324872806
0.55,58.25,-38.6991509300637,-0.60243473932944,2318.23470899837,5.59413470027975,61.725873983895
0.55,58.3,-39.8573925072039,-0.592319533007014,2320.22526099243,5.59854204088779,61.7284147328953
0.55,58.35,-40.9822018038845,-0.584376541996964,2322.21581397771,5.60294918986108,61.7309547348126
0.55,58.4,-42.0751145142371,-0.578121774573645,2324.20636795301,5.60735614740501,61.7334939901872
0.55,58.45,-43.1362850125097,-0.573189795684779,2326.19692291715,5.61176291372456,61.7360324995689
0.55,58.5,-44.1638104234149,-0.569303218813118,2328.18747886895,5.61616948902434,61.7385702635166
0.55,58.55,-45.1530883018431,-0.566249760123177,2330.17803580723,5.62057587350857,61.7411072825984
0.55,58.6,-46.0962194768683,-0.563865377062341,2332.16859373081,5.62498206738111,61.7436435573917
0.55,58.65,-46.9815879522109,-0.562021981092393,2334.15915263852,5.62938807084541,61.7461790884829
0.55,58.7,-47.793891316999,-0.560618488463626,2336.1497125292,5.63379388410457,61.7487138764677
0.55,58.75,-48.5150104570222,-0.559574277593306,2338.14027340168,5.6381995073613,61.7512479219509
0.55,58.8,-49.1260683682121,-0.55882437630996,2340.13083525479,5.64260494081793,61.7537812255462
0.55,58.85,-49.6106677420359,-0.558315895078183,2342.12139808739,5.64701018467643,61.7563137878765
0.55,58.9,-49.9586029313935,-0.558005362112643,2344.11196189832,5.65141523913837,61.7588456095737
0.55,58.95,-50.1686960700962,-0.557856715621983,2346.10252668643,5.65582010440498,61.7613766912787
0.55,59,-50.2494588429568,-0.557839778440636,2348.09309245058,5.66022478067709,61.7639070336413
0.55,59.05,-50.2172568218096,-0.557929089589299,2350.08365918961,5.66462926815517,61.7664366373202
0.55,59.1,-50.0928830323769,-0.558103002076014,2352.07422690239,5.66903356703933,61.7689655029832
0.55,59.15,-49.8979865434664,-0.558342980897042,2354.06479558779,5.67343767752928,61.7714936313068
0.55,59.2,-49.652428079208,-0.558633052773854,2356.05536524467,5.67784159982439,61.7740210229763
0.55,59.25,-49.3728886510359,-0.558959371782825,2358.04593587191,5.68224533412365,61.7765476786861
0.55,59.3,-49.0725101032219,-0.559309874162224,2360.03650746837,5.6866488806257,61.779073599139
0.55,59.35,-48.7611622569789,-0.559674002232112,2362.02708003294,5.69105223952878,61.781598785047
0.55,59.4,-48.4459850630185,-0.560042482245593,2364.0176535645,5.69545541103081,61.7841232371304
0.55,59.45,-48.1319825810417,-0.560407144601262,2366.00822806193,5.6998583953293,61.7866469561186
0.55,59.5,-47.8225580336457,-0.560760777537452,2367.99880352412,5.70426119262143,61.7891699427493
0.55,59.55,-47.5199510248064,-0.561097007447736,2369.98937994998,5.708663803104,61.7916921977691
0.55,59.6,-47.2255752460143,-0.561410200482628,2371.97995733838,5.71306622697347,61.7942137219333
0.55,59.65,-46.9402703894219,-0.561695381262825,2373.97053568823,5.71746846442592,61.7967345160056
0.55,59.7,-46.6644859052462,-0.56194816541765,2375.96111499844,5.72187051565707,61.7992545807583
0.55,59.75,-46.3984130689831,-0.562164703346746,2377.95169526791,5.7262723808623,61.8017739169722
0.55,59.8,-46.1420789240314,-0.562341633133496,2379.94227649555,5.73067406023661,61.8042925254368
0.55,59.85,-45.8954125804377,-0.562476040952105,2381.93285868028,5.73507555397466,61.80681040695
0.55,59.9,-45.6582916726527,-0.56256542763447,2383.923441821,5.73947686227076,61.8093275623181
0.55,59.95,-45.4305746552715,-0.562607680318262,2385.91402591665,5.74387798531884,61.8118439923558
0.55,60,-45.2121230102972,-0.562601048300144,2387.90461096615,5.7482789233125,61.8143596978864
0.55,60.05,-45.0028162590766,-0.562544122379007,2389.89519696842,5.75267967644497,61.8168746797414
0.55,60.1,-44.8025618182892,-0.562435817103027,2391.8857839224,5.75708024490915,61.8193889387606
0.55,60.15,-44.6113011278572,-0.562275355437833,2393.87637182701,5.76148062889755,61.8219024757923
0.55,60.2,-44.429013043321,-0.562062255456643,2395.86696068121,5.76588082860238,61.824415291693
0.55,60.25,-44.2557151768222,-0.561796318720905,2397.85755048392,5.77028084421546,61.8269273873275
0.55,60.3,-44.0914636536341,-0.561477620075196,2399.84814123411,5.77468067592827,61.8294387635688
0.55,60.35,-43.9363515998013,-0.561106498624969,2401.8387329307,5.77908032393197,61.8319494212983
0.55,60.4,-43.7905065730229,-0.560683549702874,2403.82932557266,5.78347978841733,61.8344593614052
0.55,60.45,-43.6540870809701,-0.560209617659533,2405.81991915895,5.78787906957481,61.8369685847872
0.55,60.5,-43.5272782900304,-0.559685789339967,2407.81051368852,5.7922781675945,61.83947709235
0.55,60.55,-43.4102870067742,-0.559113388127547,2409.80110916033,5.79667708266616,61.8419848850075
0.55,60.6,-43.3033360096325,-0.5584939684546,2411.79170557335,5.8010758149792,61.8444919636816
0.55,60.65,-43.2066578156717,-0.557829310693455,2413.78230292655,5.80547436472268,61.8469983293023
0.55,60.7,-43.120487983717,-0.557121416353525,2415.77290121891,5.80987273208534,61.8495039828076
0.55,60.75,-43.0450580773322,-0.556372503520389,2417.7635004494,5.81427091725555,61.8520089251434
0.55,60.8,-42.9805884361515,-0.5555850024813,2419.75410061699,5.81866892042138,61.8545131572638
0.55,60.85,-42.9272809285487,-0.554761551488833,2421.74470172069,5.8230667417705,61.8570166801308
0.55,60.9,-42.8853118793398,-0.553904992620475,2423.73530375946,5.8274643814903,61.8595194947141
0.55,60.95,-42.8548253800445,-0.553018367697306,2425.72590673231,5.8318618397678,61.8620216019916
0.55,61,-42.8359271934706,-0.552104914229274,2427.71651063822,5.83625911678969,61.8645230029489
