"W_line [mm]","Freq [GHz]","dB(S(1,1)) []","dB(S(2,1)) []","im(Gamma(1)) []","re(Gamma(1)) []","re(Zo(1)) []"
0.5,57,-19.190383675801,-0.634256346839059,2183.97234003912,4.96357891984255,130.32420546887
0.5,57.05,-19.1827920086249,-0.631288555678457,2185.9885965576,4.96772796288698,130.3611748039
0.5,57.1,-19.1714168404779,-0.628983632516255,2188.00487825375,4.97187648827326,130.398132805808
0.5,57.15,-19.1562268847571,-0.627322701631659,2190.02118497841,4.97602449728025,130.435079457713
0.5,57.2,-19.1371902948403,-0.626286565818886,2192.03751658309,4.98017199118447,130.472014742908
0.5,57.25,-19.1142745655123,-0.625855837216606,2194.05387291986,4.98431897126013,130.508938644855
0.5,57.3,-19.0874464269207,-0.626011078876383,2196.07025384143,4.98846543877906,130.545851147189
0.5,57.35,-19.0566717309004,-0.626732957066012,2198.0866592011,4.99261139501079,130.582752233711
0.5,57.4,-19.0219153295553,-0.628002404222797,2200.10308885279,4.99675684122246,130.61964188839
0.5,57.45,-18.983140946048,-0.629800792392542,2202.11954265099,5.0009017786789,130.656520095365
0.5,57.5,-18.9403110376117,-0.632110116917471,2204.13602045082,5.00504620864255,130.693386838937
0.5,57.55,-18.8933866508738,-0.634913190077417,2206.15252210798,5.00919013237353,130.730242103575
0.5,57.6,-18.8423272696664,-0.638193844351592,2208.16904747877,5.01333355112956,130.767085873912
0.5,57.65,-18.7870906556031,-0.64193714496266,2210.18559642007,5.01747646616601,130.803918134742
0.5,57.7,-18.7276326818175,-0.64612961140195,2212.20216878936,5.0216188787359,130.840738871023
0.5,57.75,-18.6639071604137,-0.650759447726723,2214.2187644447,5.02576079008986,130.877548067874
0.5,57.8,-18.5958656643512,-0.655816781580847,2216.23538324473,5.02990220147615,130.914345710573
0.5,57.85,-18.5234573447152,-0.661293912133669,2218.2520250487,5.03404311414064,130.951131784561
0.5,57.9,-18.4466287445942,-0.667185567473005,2220.2686897164,5.03818352932686,130.987906275433
0.5,57.95,-18.3653236111335,-0.673489172442281,2222.28537710822,5.0423234482759,131.024669168944
0.5,58,-18.279482707761,-0.6802051284944,2224.30208708513,5.04646287222653,131.061420451005
0.5,58.05,-18.1890436291222,-0.687337107860382,2226.31881950864,5.05060180241507,131.098160107684
0.5,58.1,-18.0939406219395,-0.694892365214392,2228.33557424087,5.0547402400755,131.134888125201
0.5,58.15,-17.9941044158624,-0.70288207107147,2230.35235114449,5.05887818643938,131.171604489932
0.5,58.2,-17.8894620694543,-0.711321672394143,2232.36915008273,5.06301564273588,131.208309188406
0.5,58.25,-17.7799368378148,-0.720231287320937,2234.38597091939,5.06715261019177,131.245002207303
0.5,58.3,-17.66544807005,-0.729636142575662,2236.40281351883,5.07128909003143,131.281683533454
0.5,58.35,-17.5459111469672,-0.739567063980971,2238.41967774599,5.07542508347683,131.318353153842
0.5,58.4,-17.4212374721011,-0.750061032590836,2240.43656346632,5.07956059174756,131.355011055598
0.5,58.45,-17.2913345326299,-0.761161821276065,2242.45347054586,5.08369561606076,131.391657226001
0.5,58.5,-17.1561060511063,-0.772920729137308,2244.4703988512,5.08783015763121,131.428291652479
0.5,58.55,-17.0154522544311,-0.78539743385403,2246.48734824947,5.09196421767125,131.464914322606
0.5,58.6,-16.8692702934524,-0.798660984946509,2248.50431860835,5.09609779739082,131.501525224101
0.5,58.65,-16.7174548553261,-0.812790963814619,2250.52130979607,5.10023089799746,131.538124344829
0.5,58.7,-16.5598990217664,-0.827878839112133,2252.5383216814,5.10436352069627,131.574711672799
0.5,58.75,-16.3964954400695,-0.844029548156641,2254.55535413365,5.10849566668995,131.611287196164
0.5,58.8,-16.2271378908848,-0.861363336059224,2256.57240702267,5.11262733717881,131.647850903217
0.5,58.85,-16.051723357752,-0.880017883105406,2258.58948021886,5.11675853336068,131.684402782395
0.5,58.9,-15.8701547289837,-0.90015074607344,2260.60657359313,5.12088925643104,131.720942822275
0.5,58.95,-15.6823442928689,-0.92194212821619,2262.62368701693,5.1250195075829,131.757471011572
0.5,59,-15.488218222157,-0.945597971866009,2264.64082036227,5.12914928800687,131.793987339142
0.5,59.05,-15.2877222818956,-0.971353331542499,2266.65797350165,5.13327859889114,131.830491793978
0.5,59.1,-15.0808290321661,-0.999475926069977,2268.67514630811,5.13740744142148,131.866984365213
0.5,59.15,-14.8675468260274,-1.03026967440806,2270.69233865521,5.14153581678121,131.903465042111
0.5,59.2,-14.6479309074179,-1.06407787699102,2272.70955041705,5.14566372615127,131.939933814078
0.5,59.25,-14.4220968651883,-1.10128549483095,2274.72678146824,5.14979117071013,131.976390670649
0.5,59.3,-14.1902365473005,-1.1423196854622,2276.74403168389,5.15391815163386,132.012835601497
0.5,59.35,-13.9526361977154,-1.18764737077145,2278.76130093966,5.15804467009611,132.049268596427
0.5,59.4,-13.7096959073278,-1.23776816015843,2280.77858911169,5.16217072726808,132.085689645375
0.5,59.45,-13.4619482511562,-1.29320052776055,2282.79589607665,5.16629632431855,132.122098738411
0.5,59.5,-13.2100719001938,-1.35445898043663,2284.81322171171,5.17042146241389,132.158495865734
0.5,59.55,-12.9548926411879,-1.42202053262414,2286.83056589457,5.17454614271803,132.194881017672
0.5,59.6,-12.6973592135198,-1.49628095012339,2288.84792850341,5.17867036639246,132.231254184685
0.5,59.65,-12.4384746104196,-1.57750610298401,2290.86530941693,5.18279413459625,132.267615357359
0.5,59.7,-12.179156013499,-1.66579251667799,2292.88270851432,5.18691744848606,132.303964526409
0.5,59.75,-11.9199919035164,-1.76106383235966,2294.90012567527,5.1910403092161,132.340301682675
0.5,59.8,-11.660871318019,-1.8631432106407,2296.91756077997,5.19516271793815,132.376626817124
0.5,59.85,-11.4004918940531,-1.97194735285262,2298.93501370912,5.19928467580158,132.412939920849
0.5,59.9,-11.135826743377,-2.08783318898414,2300.95248434389,5.20340618395332,132.449240985067
0.5,59.95,-10.8617480630997,-2.21208483128075,2302.96997256596,5.20752724353786,132.485530001116
0.5,60,-10.5711250972075,-2.34746586835957,2304.98747825749,5.21164785569731,132.521806960461
0.5,60.05,-10.2557239762913,-2.4987149386669,2307.00500130113,5.21576802157167,132.558071854686
0.5,60.1,-9.90800415691998,-2.67286924199305,2309.02254157997,5.2198877422987,132.594324675499
0.5,60.15,-9.52343748998025,-2.87936122006379,2311.04009897772,5.22400701900951,132.630565414726
0.5,60.2,-9.1025577217701,-3.12988748243282,2313.05767337842,5.22812585284056,132.666794064316
0.5,60.25,-8.65197890911468,-3.43800342851037,2315.07526466665,5.23224424492056,132.703010616258
0.5,60.3,-8.18415937371283,-3.81817132422975,2317.09287272749,5.23636219637694,132.739215062945
0.5,60.35,-7.71628978318992,-4.28351962042572,2319.11049744646,5.2404797083348,132.775407396485
0.5,60.4,-7.26885986100813,-4.84080321261464,2321.12813870957,5.2445967819168,132.811587609355
0.5,60.45,-6.86417130930722,-5.48014420941418,2323.1457964033,5.24871341824317,132.847755694091
0.5,60.5,-6.52467270157208,-6.15744711984497,2325.1634704146,5.25282961843175,132.883911643344
0.5,60.55,-6.27086349404018,-6.77401821650922,2327.18116063089,5.25694538359793,132.920055449877
0.5,60.6,-6.11878266710404,-7.17863679140367,2329.19886694005,5.26106071485469,132.95618710657
0.5,60.65,-6.07760535670039,-7.23306704200242,2331.21658923044,5.2651756133126,132.992306606415
0.5,60.7,-6.14822009179022,-6.91624175990698,2333.23432739086,5.26929008007979,133.028413942516
0.5,60.75,-6.3234674204628,-6.34154132597016,2335.25208131059,5.273404116262,133.064509108089
0.5,60.8,-6.5900161882812,-5.66261127165609,2337.26985087936,5.27751772296253,133.100592096461
0.5,60.85,-6.93114055381491,-4.99163987532598,2339.28763598736,5.28163090128227,133.13666290107
0.5,60.9,-7.329437822812,-4.3849275503221,2341.30543652523,5.2857436523197,133.172721515462
0.5,60.95,-7.76882450417793,-3.86068535051762,2343.32325238408,5.28985597717089,133.208767933294
0.5,61,-8.23562345871805,-3.41770827845061,2345.34108345544,5.2939678769295,133.24480214833
0.5,61.05,-8.71889541669874,-3.04693907786959,2347.35892963132,5.29807935268676,133.280824154442
0.5,61.1,-9.2102889634243,-2.73728145849084,2349.37679080417,5.30219040553152,133.316833945608
0.5,61.15,-9.70365574779241,-2.47812818948526,2351.39466686687,5.3063010365502,133.352831515912
0.5,61.2,-10.1945975575131,-2.26026277591306,2353.41255771277,5.31041124682682,133.388816859546
0.5,61.25,-10.6800364280944,-2.07602947689905,2355.43046323564,5.31452103744301,133.424789970804
0.5,61.3,-11.1578471725366,-1.91920965396077,2357.44838332971,5.31863040947797,133.460750844086
0.5,61.35,-11.6265625667282,-1.78480531585325,2359.46631788964,5.32273936400852,133.496699473893
0.5,61.4,-12.0851477700699,-1.66881551871197,2361.48426681051,5.32684790210907,133.532635854831
0.5,61.45,-12.5328356380476,-1.56803778198995,2363.50222998787,5.33095602485163,133.568559981607
0.5,61.5,-12.9690137271775,-1.47990302433962,2365.52020731768,5.33506373330584,133.604471849031
0.5,61.55,-13.393154294557,-1.40234284687921,2367.53819869633,5.33917102853891,133.640371452012
0.5,61.6,-13.8047791399434,-1.33368464501056,2369.55620402066,5.34327791161567,133.676258785559
0.5,61.65,-14.2034513101011,-1.27256940734689,2371.57422318792,5.34738438359856,133.712133844782
0.5,61.7,-14.5887855972786,-1.21788750072926,2373.5922560958,5.35149044554765,133.747996624889
0.5,61.75,-14.9604697803721,-1.16872850543841,2375.61030264239,5.35559609852058,133.783847121186
0.5,61.8,-15.318289056866,-1.12434194606337,2377.62836272624,5.35970134357264,133.819685329076
0.5,61.85,-15.6621473068018,-1.08410644808195,2379.6464362463,5.36380618175673,133.85551124406
0.5,61.9,-15.992080668527,-1.04750541034335,2381.66452310193,5.36791061412337,133.891324861736
0.5,61.95,-16.3082611038081,-1.01410772593813,2383.68262319294,5.37201464172068,133.927126177794
0.5,62,-16.6109897785561,-0.983552426440001,2385.70073641952,5.37611826559444,133.962915188023
0.5,62.05,-16.9006818049585,-0.955536386926282,2387.7188626823,5.38022148678801,133.998691888305
0.5,62.1,-17.1778449489328,-0.929804429193557,2389.73700188231,5.38432430634242,134.034456274614
0.5,62.15,-17.4430552636211,-0.906141312737951,2391.75515392101,5.38842672529631,134.070208343019
0.5,62.2,-17.6969323875304,-0.88436521885247,2393.77331870024,5.39252874468594,134.105948089682
0.5,62.25,-17.9401166554008,-0.864322421459228,2395.79149612227,5.39663036554524,134.141675510855
0.5,62.3,-18.1732494311072,-0.845882905770687,2397.80968608978,5.40073158890573,134.177390602882
0.5,62.35,-18.3969573595464,-0.828936747636878,2399.82788850583,5.40483241579661,134.213093362198
0.5,62.4,-18.6118406549333,-0.813391106300902,2401.84610327391,5.4089328472447,134.248783785329
0.5,62.45,-18.8184651379092,-0.799167714117267,2403.8643302979,5.41303288427446,134.284461868887
0.5,62.5,-19.0173574980416,-0.786200770738985,2405.88256948208,5.41713252790801,134.320127609576
0.5,62.55,-19.2090031602653,-0.774435167970077,2407.90082073112,5.4212317791651,134.355781004188
0.5,62.6,-19.3938461333464,-0.763824986131533,2409.91908395011,5.42533063906316,134.391422049602
0.5,62.65,-19.5722902775275,-0.754332214327319,2411.93735904451,5.42942910861725,134.427050742783
0.5,62.7,-19.7447015168699,-0.74592565612432,2413.95564592019,5.43352718884008,134.462667080785
0.5,62.75,-19.9114106181884,-0.738579989413137,2415.9739444834,5.43762488074205,134.498271060745
0.5,62.8,-20.0727162498036,-0.732274955005435,2417.99225464079,5.44172218533118,134.533862679887
0.5,62.85,-20.2288881127901,-0.726994653163275,2420.0105762994,5.4458191036132,134.56944193552
0.5,62.9,-20.3801700024663,-0.722726930991035,2422.02890936664,5.44991563659146,134.605008825036
0.5,62.95,-20.526782708679,-0.719462846638932,2424.04725375033,5.45401178526702,134.640563345911
0.5,63,-20.6689267015076,-0.717196198716481,2426.06560935866,5.45810755063858,134.676105495706
0.55,57,-21.6468401400626,-0.629572681402155,2192.15783662064,4.91988492683275,133.710125982043
0.55,57.05,-21.6445021431413,-0.632021860726655,2194.17642411907,4.92399009454784,133.748083416691
0.55,57.1,-21.6381952644153,-0.634952897689688,2196.19502459705,4.92809486090454,133.786021679555
0.55,57.15,-21.6278582558685,-0.638351630738736,2198.21363794122,4.93219922706376,133.823940770173
0.55,57.2,-21.6134256487274,-0.642204797964537,2200.23226403877,4.93630319418328,133.861840688222
0.55,57.25,-21.5948272912374,-0.646500139883015,2202.25090277738,4.94040676341768,133.899721433515
0.55,57.3,-21.5719878545634,-0.651226507954053,2204.26955404527,4.94450993591845,133.937583005999
0.55,57.35,-21.5448263075111,-0.656373979718058,2206.28821773114,4.9486127128339,133.975425405757
0.55,57.4,-21.5132553625092,-0.661933981548556,2208.30689372425,4.95271509530925,134.013248633003
0.55,57.45,-21.4771808977577,-0.667899420142026,2210.32558191433,4.95681708448657,134.051052688083
0.55,57.5,-21.4365013639091,-0.67426482399229,2212.34428219164,4.9609186815048,134.088837571476
0.55,57.55,-21.3911071884362,-0.681026496220388,2214.36299444692,4.96501988749978,134.126603283789
0.55,57.6,-21.3408801973778,-0.688182680243314,2216.38171857145,4.96912070360423,134.164349825759
0.55,57.65,-21.2856930830092,-0.695733739852634,2218.40045445697,4.97322113094778,134.20207719825
0.55,57.7,-21.2254089578314,-0.703682355315325,2220.41920199576,4.97732117065693,134.239785402255
0.55,57.75,-21.1598810509802,-0.712033737071711,2222.43796108056,4.98142082385513,134.277474438892
0.55,57.8,-21.0889526237191,-0.720795858440232,2224.45673160462,4.98552009166269,134.315144309403
0.55,57.85,-21.0124572072591,-0.729979708372786,2226.47551346168,4.98961897519688,134.352795015156
0.55,57.9,-20.9302192999587,-0.739599564628912,2228.49430654598,4.99371747557186,134.390426557642
0.55,57.95,-20.8420557031324,-0.749673286592118,2230.51311075222,4.99781559389874,134.428038938472
0.55,58,-20.747777725964,-0.760222625101709,2232.53192597561,5.00191333128556,134.465632159381
0.55,58.05,-20.647194550229,-0.771273543774297,2234.55075211184,5.00601068883727,134.503206222224
0.55,58.1,-20.5401181127416,-0.782856541840021,2236.56958905706,5.01010766765582,134.540761128973
0.55,58.15,-20.4263699326802,-0.79500696179543,2238.58843670793,5.01420426884005,134.578296881722
0.55,58.2,-20.3057903722998,-0.807765255140742,2240.60729496156,5.0183004934858,134.61581348268
0.55,58.25,-20.1782508556231,-0.821177164654692,2242.62616371554,5.02239634268586,134.653310934174
0.55,58.3,-20.0436695525962,-0.835293760023056,2244.64504286794,5.02649181752997,134.690789238647
0.55,58.35,-19.9020309243077,-0.850171232409496,2246.66393231731,5.03058691910488,134.728248398654
0.55,58.4,-19.753409260884,-0.8658703091476,2248.68283196263,5.03468164849428,134.765688416868
0.55,58.45,-19.5979958557644,-0.882455087805054,2250.70174170338,5.03877600677886,134.803109296073
0.55,58.5,-19.43612866972,-0.899991004903382,2252.7206614395,5.04286999503632,134.840511039165
0.55,58.55,-19.2683221787063,-0.918541545487468,2254.73959107137,5.04696361434133,134.877893649152
0.55,58.6,-19.0952935499836,-0.938163167687598,2256.75853049986,5.05105686576558,134.915257129151
0.55,58.65,-18.9179794211171,-0.958897776697391,2258.77747962627,5.05514975037777,134.952601482391
0.55,58.7,-18.7375355781572,-0.980761978522228,2260.79643835237,5.05924226924359,134.989926712207
0.55,58.75,-18.5553101245205,-1.00373237201827,2262.81540658038,5.06333442342579,135.027232822044
0.55,58.8,-18.3727798273825,-1.02772648455803,2264.83438421297,5.06742621398412,135.064519815453
0.55,58.85,-18.1914397954471,-1.05257993634727,2266.85337115325,5.07151764197537,135.10178769609
0.55,58.9,-18.012638970731,-1.07802247262414,2268.87236730481,5.07560870845337,135.139036467719
0.55,58.95,-17.8373585262663,-1.10365906286573,2270.89137257165,5.07969941446901,135.176266134206
0.55,59,-17.6659379098347,-1.12896730466874,2272.91038685822,5.0837897610702,135.213476699521
0.55,59.05,-17.4977659859516,-1.1533274968734,2274.92941006942,5.08787974930193,135.250668167738
0.55,59.1,-17.3309765967384,-1.17610310919958,2276.94844211059,5.09196938020625,135.287840543031
0.55,59.15,-17.162223476892,-1.19678072267055,2278.9674828875,5.09605865482229,135.324993829677
0.55,59.2,-16.9866561579755,-1.21515493172926,2280.98653230637,5.10014757418624,135.362128032051
0.55,59.25,-16.7982511000261,-1.23150988666314,2283.00559027382,5.10423613933137,135.39924315463
0.55,59.3,-16.5906125630701,-1.24672567420128,2285.02465669694,5.10832435128806,135.436339201988
0.55,59.35,-16.3581831361755,-1.26225148572516,2287.04373148322,5.11241221108377,135.473416178798
0.55,59.4,-16.0975198229414,-1.2799442051978,2289.0628145406,5.11649971974307,135.510474089828
0.55,59.45,-15.8080905981455,-1.30183771904665,2291.08190577743,5.12058687828762,135.547512939945
0.55,59.5,-15.4921751671933,-1.32993732922922,2293.10100510249,5.12467368773621,135.584532734109
0.55,59.55,-15.153913385791,-1.36610860659249,2295.12011242498,5.12876014910475,135.621533477377
0.55,59.6,-14.7979904512105,-1.41207771668728,2297.13922765452,5.13284626340628,135.658515174898
0.55,59.65,-14.4285332388303,-1.4695188881105,2299.15835070114,5.13693203165095,135.695477831915
0.55,59.7,-14.0485315578571,-1.54019122161897,2301.17748147531,5.14101745484608,135.732421453763
0.55,59.75,-13.6597731151494,-1.62609476746901,2303.1966198879,5.14510253399611,135.769346045869
0.55,59.8,-13.263106863282,-1.72963031147992,2305.21576585017,5.14918727010264,135.80625161375
0.55,59.85,-12.85884199902,-1.85375848541137,2307.23491927383,5.15327166416444,135.843138163016
0.55,59.9,-12.447161620022,-2.00215764855213,2309.25408007097,5.15735571717744,135.880005699361
0.55,59.95,-12.0285048893379,-2.17937516457576,2311.2732481541,5.16143943013472,135.916854228574
0.55,60,-11.603919276645,-2.39095074970085,2313.29242343613,5.16552280402659,135.953683756526
0.55,60.05,-11.1754045561848,-2.64345675482914,2315.31160583038,5.16960583984055,135.990494289179
0.55,60.1,-10.7462705990539,-2.94433446677292,2317.33079525056,5.1736885385619,136.027285832579
0.55,60.15,-10.3215167994777,-3.30128303842767,2319.34999161075,5.17777090117917,136.064058392859
0.55,60.2,-9.90821232500556,-3.72074372893321,2321.36919482555,5.18185292864707,136.100811976251
0.55,60.25,-9.51581052890833,-4.20469617536354,2323.38840480981,5.18593462196716,136.13754658904
0.55,60.3,-9.15626833329556,-4.7446549027453,2325.40762147884,5.19001598210478,136.174262237607
0.55,60.35,-8.84377701816823,-5.31204047924484,2327.42684474833,5.19409701003043,136.210958928428
0.55,60.4,-8.59388705944337,-5.84688188005888,2329.44607453438,5.19817770671201,136.247636668056
0.55,60.45,-8.42189677724188,-6.25487108873716,2331.46531075347,5.20225807311466,136.284295463121
0.55,60.5,-8.34062924244364,-6.43188304354432,2333.48455332244,5.20633811020079,136.320935320336
0.55,60.55,-8.35809502492097,-6.32003161943176,2335.50380215855,5.21041781893004,136.357556246494
0.55,60.6,-8.47581155927962,-5.94972207463651,2337.52305717943,5.21449720025931,136.394158248466
0.55,60.65,-8.68844930686205,-5.41753326865348,2339.5423183031,5.21857625514278,136.430741333203
0.55,60.7,-8.98495479025459,-4.82721056995911,2341.56158544795,5.22265498453188,136.467305507734
0.55,60.75,-9.35067813450663,-4.25203033693282,2343.58085853275,5.22673338937531,136.503850779164
0.55,60.8,-9.76972244469437,-3.73033982127887,2345.60013747665,5.23081147061907,136.540377154677
0.55,60.85,-10.2268615947938,-3.2758496618669,2347.61942219917,5.23488922920642,136.57688464153
0.55,60.9,-10.708736421714,-2.88859851053115,2349.63871262021,5.23896666607794,136.613373247058
0.55,60.95,-11.2043648231674,-2.56238098996647,2351.65800866005,5.24304378217151,136.649842978669
0.55,61,-11.7051626608176,-2.28890153009029,2353.67731023931,5.2471205784223,136.686293843846
0.55,61.05,-12.2046909209346,-2.05981527529064,2355.69661727902,5.25119705576279,136.722725850145
