"W_line [mm]","Freq [GHz]","dB(S(1,1)) []","dB(S(2,1)) []","im(Gamma(1)) []","re(Gamma(1)) []","re(Zo(1)) []"
0.5,37,-20.3404958382814,-0.74504646530119,1467.1676713602,4.27083990706749,38.7592510108163
0.5,37.05,-20.288576924665,-0.746642750800062,1469.14980982699,4.27568671707214,38.7594872036218
0.5,37.1,-20.2360439636157,-0.748520280479544,1471.13194938974,4.28053280198842,38.7597241956494
0.5,37.15,-20.182867570539,-0.750684116134299,1473.11409005265,4.28537816290945,38.7599619887267
0.5,37.2,-20.1290167031473,-0.753139992063775,1475.09623181991,4.29022280092382,38.7602005846866
0.5,37.25,-20.0744586996295,-0.755894362002363,1477.0783746957,4.29506671711568,38.7604399853672
0.5,37.3,-20.0191593168591,-0.758954449192793,1479.06051868421,4.29990991256469,38.7606801926122
0.5,37.35,-19.9630827691,-0.762328299861264,1481.04266378963,4.30475238834611,38.7609212082702
0.5,37.4,-19.9061917677451,-0.766024840368778,1483.02481001615,4.30959414553074,38.7611630341953
0.5,37.45,-19.8484475627107,-0.770053938328709,1485.00695736794,4.31443518518501,38.7614056722469
0.5,37.5,-19.7898099861903,-0.774426467995027,1486.98910584919,4.31927550837094,38.7616491242895
0.5,37.55,-19.7302374995607,-0.779154380237893,1488.97125546408,4.3241151161462,38.7618933921932
0.5,37.6,-19.66968724432,-0.78425077743305,1490.95340621677,4.32895400956411,38.7621384778331
0.5,37.65,-19.6081150980208,-0.789729993596518,1492.93555811146,4.33379218967366,38.7623843830899
0.5,37.7,-19.5454757362503,-0.795607680095768,1494.91771115232,4.33862965751952,38.7626311098496
0.5,37.75,-19.4817227017833,-0.801900897259864,1496.89986534351,4.34346641414207,38.7628786600032
0.5,37.8,-19.4168084821071,-0.808628212191853,1498.8820206892,4.34830246057744,38.7631270354476
0.5,37.85,-19.3506845965744,-0.815809803053212,1500.86417719358,4.35313779785746,38.7633762380844
0.5,37.9,-19.2833016944849,-0.823467570038122,1502.84633486081,4.35797242700974,38.7636262698212
0.5,37.95,-19.2146096654202,-0.831625253178983,1504.82849369504,4.36280634905768,38.7638771325704
0.5,38,-19.1445577631707,-0.840308557017241,1506.81065370046,4.36763956502044,38.7641288282501
0.5,38.05,-19.0730947445909,-0.849545282025965,1508.79281488122,4.37247207591303,38.7643813587837
0.5,38.1,-19.0001690247434,-0.859365462471889,1510.77497724149,4.37730388274625,38.7646347260999
0.5,38.15,-18.9257288497669,-0.869801510141029,1512.75714078542,4.38213498652679,38.7648889321328
0.5,38.2,-18.8497224891335,-0.88088836300579,1514.73930551719,4.38696538825716,38.765143978822
0.5,38.25,-18.7720984494932,-0.892663637461807,1516.72147144094,4.39179508893578,38.7653998681124
0.5,38.3,-18.6928057133956,-0.905167782182511,1518.70363856083,4.39662408955695,38.7656566019543
0.5,38.35,-18.611794008263,-0.918444230896349,1520.68580688103,4.4014523911109,38.7659141823034
0.5,38.4,-18.5290141147004,-0.932539550445273,1522.66797640568,4.40627999458377,38.7661726111209
0.5,38.45,-18.4444182295474,-0.947503579284932,1524.65014713894,4.41110690095767,38.7664318903733
0.5,38.5,-18.3579604093346,-0.963389550078046,1526.63231908496,4.41593311121065,38.7666920220327
0.5,38.55,-18.2695971357254,-0.980254188141874,1528.6144922479,4.42075862631676,38.7669530080765
0.5,38.6,-18.1792880679825,-0.998157775155223,1530.59666663189,4.42558344724603,38.7672148504875
0.5,38.65,-18.0869970799587,-1.01716416461251,1532.5788422411,4.43040757496451,38.767477551254
0.5,38.7,-17.9926937202685,-1.03734073192067,1534.56101907967,4.43523101043429,38.76774111237
0.5,38.75,-17.8963552797612,-1.05875823764557,1536.54319715175,4.44005375461349,38.7680055358345
0.5,38.8,-17.7979696882453,-1.08149057709587,1538.52537646148,4.44487580845628,38.7682708236524
0.5,38.85,-17.6975394694593,-1.10561438305057,1540.50755701301,4.44969717291294,38.7685369778338
0.5,38.9,-17.5950869241355,-1.13120844087307,1542.48973881048,4.45451784892981,38.7688040003944
0.5,38.95,-17.4906605449073,-1.15835286642563,1544.47192185803,4.45933783744936,38.7690718933553
0.5,39,-17.3843423692685,-1.18712798709171,1546.45410615981,4.46415713941016,38.7693406587433
0.5,39.05,-17.2762555769816,-1.21761285494515,1548.43629171995,4.46897575574694,38.7696102985905
0.5,39.1,-17.166571256751,-1.24988330898928,1550.4184785426,4.47379368739058,38.7698808149346
0.5,39.15,-17.0555131138393,-1.28400949105732,1552.4006666319,4.47861093526813,38.7701522098188
0.5,39.2,-16.9433591802166,-1.32005270850356,1554.38285599197,4.4834275003028,38.7704244852919
0.5,39.25,-16.8304403784081,-1.35806152796212,1556.36504662697,4.48824338341404,38.7706976434081
0.5,39.3,-16.717136844136,-1.39806698082469,1558.34723854102,4.49305858551748,38.7709716862273
0.5,39.35,-16.6038737533978,-1.44007676645491,1560.32943173826,4.497873107525,38.7712466158148
0.5,39.4,-16.4911185781036,-1.48406835867412,1562.31162622282,4.50268695034472,38.7715224342416
0.5,39.45,-16.3793810996973,-1.52998096145466,1564.29382199885,4.50750011488101,38.7717991435841
0.5,39.5,-16.2692164462752,-1.57770632931107,1566.27601907046,4.51231260203451,38.7720767459244
0.5,39.55,-16.161230382169,-1.6270785759427,1568.2582174418,4.51712441270217,38.7723552433503
0.5,39.6,-16.0560854414752,-1.6778632505523,1570.24041711699,4.52193554777723,38.7726346379548
0.5,39.65,-15.9545063449173,-1.72974617197831,1572.22261810016,4.52674600814923,38.7729149318369
0.5,39.7,-15.8572833328633,-1.78232277749951,1574.20482039545,4.53155579470405,38.7731961271011
0.5,39.75,-15.7652723798681,-1.83508905601535,1576.18702400699,4.53636490832393,38.7734782258573
0.5,39.8,-15.6793915778028,-1.88743546689507,1578.16922893889,4.54117334988745,38.7737612302212
0.5,39.85,-15.6006132289354,-1.93864554477556,1580.1514351953,4.54598112026957,38.7740451423142
0.5,39.9,-15.5299513912332,-1.98790107772931,1582.13364278033,4.55078822034162,38.7743299642632
0.5,39.95,-15.4684448102041,-2.03429571714723,1584.11585169811,4.55559465097136,38.7746156982008
0.5,40,-15.4171353983026,-2.07685851735745,1586.09806195277,4.56040041302292,38.7749023462652
0.5,40.05,-15.3770427094151,-2.11458811584369,1588.08027354844,4.5652055073569,38.7751899106004
0.5,40.1,-15.3491352021794,-2.14649701972449,1590.06248648923,4.5700099348303,38.7754783933559
0.5,40.15,-15.3342994661231,-2.17166384409094,1592.04470077927,4.5748136962966,38.7757677966869
0.5,40.2,-15.3333089510105,-2.18928958494509,1594.0269164227,4.57961679260573,38.7760581227545
0.5,40.25,-15.3467940300418,-2.19875247637582,1596.00913342362,4.58441922460411,38.7763493737252
0.5,40.3,-15.3752153764948,-2.19965511889288,1597.99135178616,4.58922099313464,38.7766415517715
0.5,40.35,-15.4188425876151,-2.19185774926232,1599.97357151445,4.59402209903673,38.7769346590713
0.5,40.4,-15.4777397221704,-2.17549290897454,1601.9557926126,4.5988225431463,38.7772286978084
0.5,40.45,-15.5517589395594,-2.15095919142117,1603.93801508473,4.6036223262958,38.7775236701723
0.5,40.5,-15.6405427892944,-2.11889472107712,1605.92023893497,4.60842144931422,38.7778195783584
0.5,40.55,-15.7435349835052,-2.08013387234162,1607.90246416744,4.61321991302713,38.7781164245674
0.5,40.6,-15.8599987917421,-2.03565283526288,1609.88469078626,4.61801771825661,38.7784142110063
0.5,40.65,-15.989041622086,-1.98651058082841,1611.86691879554,4.62281486582138,38.7787129398875
0.5,40.7,-16.1296439664549,-1.93379151008177,1613.84914819941,4.62761135653671,38.7790126134293
0.5,40.75,-16.2806907250763,-1.87855483881378,1615.83137900198,4.63240719121447,38.7793132338558
0.5,40.8,-16.4410029796944,-1.82179400253186,1617.81361120737,4.63720237066318,38.7796148033968
0.5,40.85,-16.6093685184395,-1.76440751520533,1619.79584481971,4.64199689568794,38.7799173242879
0.5,40.9,-16.7845697684952,-1.70718112814172,1621.7780798431,4.64679076709052,38.7802207987708
0.5,40.95,-16.965408201224,-1.6507800028767,1623.76031628167,4.65158398566931,38.7805252290925
0.5,41,-17.150724680491,-1.59574897443557,1625.74255413952,4.6563765522194,38.7808306175063
0.55,37,-19.1431470914237,-0.775008945340417,1467.01919941127,4.23770842347665,36.4580070080807
0.55,37.05,-19.0893934751218,-0.77748989690181,1469.0012362727,4.2425218405505,36.4582834348974
0.55,37.1,-19.0350056565448,-0.78029038527828,1470.98327458758,4.24733452688561,36.4585608770175
0.55,37.15,-18.9799509499337,-0.783417791892619,1472.96531436076,4.25214648348347,36.4588393371326
0.55,37.2,-18.9241949982198,-0.786880337851181,1474.94735559715,4.25695771134103,36.4591188179423
0.55,37.25,-18.8677017874027,-0.79068714820945,1476.92939830161,4.26176821145068,36.4593993221539
0.55,37.3,-18.8104336590948,-0.79484832118549,1478.91144247902,4.26657798480032,36.4596808524825
0.55,37.35,-18.7523513215366,-0.799375002765923,1480.89348813425,4.27138703237333,36.4599634116512
0.55,37.4,-18.6934138594922,-0.804279467182622,1482.8755352722,4.27619535514864,36.4602470023908
0.55,37.45,-18.633578743564,-0.809575203772578,1484.85758389772,4.28100295410068,36.4605316274403
0.55,37.5,-18.5728018396126,-0.815277010766728,1486.83963401571,4.28580983019947,36.4608172895463
0.55,37.55,-18.5110374191567,-0.821401096585388,1488.82168563103,4.29061598441057,36.4611039914635
0.55,37.6,-18.4482381718537,-0.827965189246509,1490.80373874856,4.29542141769515,36.4613917359545
0.55,37.65,-18.3843552214381,-0.83498865451592,1492.78579337318,4.30022613100999,36.4616805257898
0.55,37.7,-18.319338146842,-0.842492623443673,1494.76784950976,4.30503012530748,36.4619703637479
0.55,37.75,-18.253135010641,-0.85050012993319,1496.74990716318,4.30983340153567,36.4622612526153
0.55,37.8,-18.185692397496,-0.859036258975841,1498.73196633831,4.31463596063824,36.4625531951865
0.55,37.85,-18.1169554658975,-0.868128306145615,1500.71402704003,4.31943780355458,36.4628461942639
0.55,37.9,-18.0468680173129,-0.877805948878942,1502.69608927321,4.32423893121976,36.4631402526581
0.55,37.95,-17.9753725877938,-0.888101429952022,1504.67815304273,4.32903934456453,36.4634353731875
0.55,38,-17.9024105682747,-0.899049753398362,1506.66021835346,4.33383904451542,36.4637315586787
0.55,38.05,-17.8279223612115,-0.910688892864294,1508.64228521028,4.33863803199465,36.4640288119664
0.55,38.1,-17.7518475829068,-0.923060012056813,1510.62435361805,4.34343630792024,36.4643271358933
0.55,38.15,-17.674125322904,-0.93620769646619,1512.60642358166,4.34823387320596,36.4646265333101
0.55,38.2,-17.5946944742328,-0.950180194907722,1514.58849510598,4.35303072876136,36.4649270070758
0.55,38.25,-17.5134941510955,-0.965029668574359,1516.57056819589,4.35782687549184,36.4652285600574
0.55,38.3,-17.4304642138369,-0.980812444163895,1518.55264285625,4.36262231429858,36.4655311951299
0.55,38.35,-17.345545924735,-0.997589266164879,1520.53471909195,4.36741704607863,36.4658349151769
0.55,38.4,-17.2586827622957,-1.01542554145798,1522.51679690786,4.37221107172486,36.4661397230896
0.55,38.45,-17.169821426266,-1.03439156689658,1524.49887630885,4.37700439212605,36.4664456217677
0.55,38.5,-17.0789130704087,-1.05456272732469,1526.4809572998,4.38179700816683,36.466752614119
0.55,38.55,-16.985914805035,-1.07601964739496,1528.46303988558,4.38658892072776,36.4670607030596
0.55,38.6,-16.8907915161105,-1.09884827535009,1530.44512407108,4.3913801306853,36.4673698915137
0.55,38.65,-16.7935180520651,-1.12313987037527,1532.42720986116,4.39617063891184,36.4676801824138
0.55,38.7,-16.6940818327481,-1.14899085692748,1534.4092972607,4.40096044627573,36.4679915787006
0.55,38.75,-16.5924859366202,-1.17650249927524,1536.39138627458,4.40574955364128,36.4683040833231
0.55,38.8,-16.4887527214398,-1.20578033700001,1538.37347690767,4.41053796186876,36.4686176992386
0.55,38.85,-16.3829280294016,-1.23693330708895,1540.35556916486,4.41532567181446,36.4689324294127
0.55,38.9,-16.2750860187582,-1.27007246022422,1542.33766305101,4.42011268433066,36.4692482768192
0.55,38.95,-16.1653346491253,-1.30530915783988,1544.31975857101,4.42489900026565,36.4695652444403
0.55,39,-16.0538218255681,-1.34275261265878,1546.30185572974,4.42968462046379,36.4698833352666
0.55,39.05,-15.9407421758112,-1.38250660943691,1548.28395453207,4.43446954576546,36.470202552297
0.55,39.1,-15.8263443942323,-1.42466521604662,1550.26605498288,4.43925377700713,36.4705228985387
0.55,39.15,-15.7109390346236,-1.46930727059716,1552.24815708705,4.44403731502133,36.4708443770075
0.55,39.2,-15.594906570395,-1.51648941262572,1554.23026084947,4.4488201606367,36.4711669907273
0.55,39.25,-15.4787054659004,-1.56623742265223,1556.212366275,4.45360231467797,36.4714907427306
0.55,39.3,-15.3628799167938,-1.61853565508762,1558.19447336854,4.45838377796602,36.4718156360584
0.55,39.35,-15.2480668229395,-1.67331440922299,1560.17658213496,4.46316455131785,36.47214167376
0.55,39.4,-15.1350014584258,-1.73043520087557,1562.15869257915,4.46794463554662,36.4724688588933
0.55,39.45,-15.0245212061109,-1.7896740961962,1564.14080470598,4.47272403146163,36.4727971945245
0.55,39.5,-14.9175666385023,-1.8507035736708,1566.12291852035,4.4775027398684,36.4731266837284
0.55,39.55,-14.8151791660798,-1.91307381119389,1568.10503402713,4.48228076156862,36.4734573295884
0.55,39.6,-14.7184944560336,-1.97619485952739,1570.08715123121,4.48705809736018,36.4737891351963
0.55,39.65,-14.6287308700686,-2.0393218404392,1572.06927013748,4.49183474803721,36.4741221036525
0.55,39.7,-14.5471723026107,-2.1015460285932,1574.05139075082,4.49661071439006,36.474456238066
0.55,39.75,-14.4751450417872,-2.16179530444249,1576.03351307612,4.50138599720534,36.4747915415543
0.55,39.8,-14.4139886387086,-2.21884778576406,1578.01563711826,4.5061605972659,36.4751280172434
0.55,39.85,-14.3650212544537,-2.27136217699107,1579.99776288213,4.51093451535089,36.4754656682682
0.55,39.9,-14.3295005343521,-2.31792722640763,1581.97989037262,4.51570775223574,36.4758044977721
0.55,39.95,-14.3085816826664,-2.35713045790997,1583.96201959463,4.52048030869217,36.4761445089069
0.55,40,-14.303274995921,-2.38764310058229,1585.94415055304,4.52525218548822,36.4764857048335
0.55,40.05,-14.3144055580205,-2.40831431612839,1587.92628325274,4.53002338338827,36.4768280887211
0.55,40.1,-14.3425780008795,-2.41826428362678,1589.90841769863,4.53479390315304,36.4771716637478
0.55,40.15,-14.3881491093851,-2.41696356908281,1591.8905538956,4.53956374553958,36.4775164331004
0.55,40.2,-14.4512105667719,-2.40428650033765,1593.87269184853,4.54433291130133,36.4778623999742
0.55,40.25,-14.5315833299748,-2.38052942157238,1595.85483156234,4.54910140118811,36.4782095675737
0.55,40.3,-14.6288240962799,-2.34639023837883,1597.83697304191,4.55386921594612,36.4785579391117
0.55,40.35,-14.7422432246507,-2.30291223291337,1599.81911629214,4.55863635631796,36.47890751781
0.55,40.4,-14.8709324759714,-2.25140096600955,1601.80126131793,4.56340282304269,36.4792583068993
0.55,40.45,-15.0138001822083,-2.19332669307248,1603.78340812418,4.56816861685574,36.4796103096188
0.55,40.5,-15.1696110369297,-2.13022541891208,1605.76555671579,4.57293373848904,36.4799635292168
0.55,40.55,-15.3370276410867,-2.06360977933337,1607.74770709765,4.57769818867093,36.4803179689504
0.55,40.6,-15.5146511955249,-1.9948973347071,1609.72985927467,4.58246196812626,36.4806736320856
0.55,40.65,-15.7010592168684,-1.92535978191262,1611.71201325176,4.58722507757632,36.4810305218971
0.55,40.7,-15.894838758706,-1.85609301631123,1613.69416903382,4.59198751773893,36.4813886416686
0.55,40.75,-16.0946142437072,-1.78800545627598,1615.67632662575,4.59674928932841,36.4817479946929
0.55,40.8,-16.299069575559,-1.7218207001743,1617.65848603246,4.60151039305557,36.4821085842715
0.55,40.85,-16.5069646537895,-1.65809024180023,1619.64064725886,4.60627082962778,36.4824704137149
0.55,40.9,-16.7171467401363,-1.59721231279975,1621.62281030986,4.61103059974893,36.4828334863427
0.55,40.95,-16.9285573254963,-1.53945363203531,1623.60497519037,4.6157897041195,36.4831978054833
0.55,41,-17.1402352396475,-1.48497167079062,1625.58714190529,4.6205481434365,36.4835633744744
0.6,37,-18.3136718404637,-0.815623143010272,1466.86945811959,4.20117389939702,34.5673892787922
0.6,37.05,-18.247325978594,-0.819479106066753,1468.85139321472,4.20595184515997,34.5677193445114
0.6,37.1,-18.1803438108697,-0.823708739267778,1470.83333014595,4.21072903856249,34.5680507088874
0.6,37.15,-18.1126927775566,-0.828323269781394,1472.815268919,4.21550548048453,34.5683833757863
0.6,37.2,-18.0443382676088,-0.833335080840093,1474.79720953956,4.22028117180136,34.5687173490858
0.6,37.25,-17.9752436619664,-0.838757804353528,1476.77915201335,4.22505611338357,34.5690526326751
0.6,37.3,-17.9053703789514,-0.844606421124626,1478.76109634608,4.22983030609709,34.5693892304553
0.6,37.35,-17.8346779227527,-0.850897369344873,1480.74304254347,4.23460375080325,34.5697271463391
0.6,37.4,-17.7631239362273,-0.857648662088911,1482.72499061122,4.23937644835872,34.5700663842508
0.6,37.45,-17.6906642595235,-0.864880014570481,1484.70694055506,4.2441483996156,34.5704069481266
0.6,37.5,-17.6172529963539,-0.872612981958306,1486.6888923807,4.24891960542139,34.5707488419145
0.6,37.55,-17.5428425901209,-0.880871108578957,1488.67084609386,4.25369006661904,34.5710920695742
0.6,37.6,-17.4673839125443,-0.889680089349378,1490.65280170026,4.25845978404695,34.5714366350772
0.6,37.65,-17.3908263679571,-0.899067944279145,1492.63475920562,4.26322875853897,34.5717825424071
0.6,37.7,-17.3131180170545,-0.909065206853795,1494.61671861566,4.26799699092447,34.572129795559
0.6,37.75,-17.2342057246051,-0.919705127046036,1496.59867993611,4.27276448202828,34.5724783985403
0.6,37.8,-17.1540353364888,-0.931023889587907,1498.5806431727,4.27753123267078,34.57282835537
0.6,37.85,-17.0725518924416,-0.943060847957455,1500.56260833115,4.28229724366788,34.5731796700792
0.6,37.9,-16.989699882075,-0.955858774265779,1502.5445754172,4.28706251583104,34.573532346711
0.6,37.95,-16.9054235531467,-0.969464124846158,1504.52654443657,4.29182704996727,34.5738863893206
0.6,38,-16.8196672827034,-0.983927320809727,1506.50851539499,4.29659084687918,34.574241801975
0.6,38.05,-16.7323760236514,-0.9993030420946,1508.49048829821,4.30135390736498,34.5745985887535
0.6,38.1,-16.6434958415554,-1.01565053253768,1510.47246315195,4.30611623221848,34.5749567537473
0.6,38.15,-16.5529745590825,-1.03303391216374,1512.45443996196,4.31087782222912,34.5753163010599
0.6,38.2,-16.4607625285106,-1.05152249111817,1514.43641873397,4.31563867818201,34.5756772348067
0.6,38.25,-16.3668135561633,-1.07119107734634,1516.41839947374,4.3203988008579,34.5760395591156
0.6,38.3,-16.2710860065253,-1.09212026709039,1518.40038218699,4.3251581910332,34.5764032781265
0.6,38.35,-16.1735441181371,-1.11439670334591,1520.38236687949,4.32991684948003,34.5767683959915
0.6,38.4,-16.0741595681466,-1.13811328236285,1522.36435355696,4.33467477696622,34.577134916875
0.6,38.45,-15.9729133275171,-1.1633692818077,1524.34634222517,4.3394319742553,34.5775028449537
0.6,38.5,-15.8697978542262,-1.19027037599224,1526.32833288987,4.34418844210654,34.5778721844167
0.6,38.55,-15.7648196770795,-1.21892849323134,1528.31032555681,4.34894418127497,34.5782429394652
0.6,38.6,-15.6580024276327,-1.24946145748268,1530.29232023174,4.35369919251136,34.578615114313
0.6,38.65,-15.5493903815864,-1.28199234048188,1532.27431692042,4.35845347656229,34.5789887131861
0.6,38.7,-15.4390525730751,-1.316648431165,1534.25631562862,4.36320703417009,34.5793637403232
0.6,38.75,-15.3270875443712,-1.35355970589964,1536.23831636208,4.36795986607293,34.579740199975
0.6,38.8,-15.2136287881284,-1.39285665576316,1538.22031912659,4.37271197300478,34.5801180964052
0.6,38.85,-15.0988509273825,-1.43466729605403,1540.2023239279,4.37746335569545,34.5804974338896
0.6,38.9,-14.9829766575589,-1.47911314934566,1542.18433077178,4.38221401487059,34.5808782167168
0.6,38.95,-14.8662844415823,-1.5263039587837,1544.16633966401,4.38696395125171,34.5812604491877
0.6,39,-14.7491169002259,-1.57633085685078,1546.14835061035,4.39171316555622,34.5816441356161
