"W_line [mm]","Freq [GHz]","dB(S(1,1)) []","dB(S(2,1)) []","im(Gamma(1)) []","re(Gamma(1)) []","re(Zo(1)) []"
0.5,57,-18.0056433070559,-1.90217756760475,2232.54846228123,5.1889972315633,92.3054312714635
0.5,57.05,-18.1901241890448,-1.84695189284619,2234.55214911662,5.19331382424418,92.3128302462101
0.5,57.1,-18.4602651065213,-1.7630608730495,2236.55584541138,5.19763014042138,92.3202211949578
0.5,57.15,-18.8023063508927,-1.66250050312025,2238.55955111451,5.20194618060285,92.327604130181
0.5,57.2,-19.2008877779514,-1.55657735562797,2240.56326617526,5.20626194529548,92.3349790643652
0.5,57.25,-19.6410265157029,-1.45351015218857,2242.56699054306,5.21057743500505,92.3423460100066
0.5,57.3,-20.1094163023338,-1.35806627120654,2244.57072416759,5.21489265023623,92.3497049796116
0.5,57.35,-20.5950363101487,-1.2723051734031,2246.57446699872,5.21920759149262,92.357055985697
0.5,57.4,-21.0892429516777,-1.19655962452598,2248.57821898653,5.2235222592767,92.3643990407896
0.5,57.45,-21.5855566836268,-1.13023380203557,2250.58198008134,5.22783665408987,92.3717341574256
0.5,57.5,-22.0793141645661,-1.07232806415694,2252.58575023365,5.23215077643243,92.3790613481511
0.5,57.55,-22.5672940855653,-1.02173934839883,2254.58952939419,5.23646462680358,92.3863806255214
0.5,57.6,-23.0473729324133,-0.977413033466644,2256.59331751388,5.24077820570145,92.3936920021007
0.5,57.65,-23.5182327159872,-0.93840779947509,2258.59711454386,5.24509151362305,92.4009954904622
0.5,57.7,-23.9791238009954,-0.903914009640522,2260.60092043547,5.24940455106433,92.4082911031877
0.5,57.75,-24.4296772961347,-0.873249518916056,2262.60473514028,5.25371731852014,92.4155788528675
0.5,57.8,-24.8697586768561,-0.845845999690127,2264.60855861003,5.25802981648423,92.4228587521
0.5,57.85,-25.299354475295,-0.821232497097296,2266.61239079669,5.26234204544929,92.4301308134915
0.5,57.9,-25.7184852868602,-0.799019394032381,2268.61623165242,5.2666540059069,92.4373950496564
0.5,57.95,-26.1271401050821,-0.778884104083062,2270.62008112958,5.27096569834758,92.4446514732164
0.5,58,-26.5252286576545,-0.760558878490829,2272.62393918076,5.27527712326075,92.4519000968006
0.5,58.05,-26.9125497639697,-0.743820678611867,2274.62780575871,5.27958828113477,92.4591409330453
0.5,58.1,-27.2887746661892,-0.728482887294541,2276.63168081641,5.28389917245688,92.4663739945938
0.5,58.15,-27.6534447553906,-0.714388581150036,2278.63556430702,5.2882097977133,92.473599294096
0.5,58.2,-28.0059831140724,-0.701405092648971,2280.63945618392,5.29252015738912,92.4808168442085
0.5,58.25,-28.3457188637504,-0.689419621578831,2282.64335640066,5.29683025196838,92.488026657594
0.5,58.3,-28.6719225362438,-0.678335692652303,2284.64726491102,5.30114008193406,92.4952287469217
0.5,58.35,-28.9838497374116,-0.66807029219418,2286.65118166894,5.30544964776802,92.5024231248665
0.5,58.4,-29.280789452888,-0.658551548746339,2288.65510662857,5.30975894995111,92.5096098041088
0.5,58.45,-29.5621126873384,-0.649716849275824,2290.65903974428,5.31406798896305,92.5167887973352
0.5,58.5,-29.827316932826,-0.641511304636484,2292.66298097058,5.31837676528254,92.523960117237
0.5,58.55,-30.0760623447007,-0.633886495614006,2294.66693026222,5.32268527938718,92.531123776511
0.5,58.6,-30.3081964574752,-0.626799444973705,2296.67088757412,5.32699353175353,92.5382797878589
0.5,58.65,-30.5237656589447,-0.620211772096608,2298.67485286139,5.33130152285706,92.5454281639872
0.5,58.7,-30.7230132184695,-0.614088995613251,2300.67882607933,5.3356092531722,92.5525689176068
0.5,58.75,-30.906365157339,-0.608399956411136,2302.68280718344,5.33991672317229,92.5597020614333
0.5,58.8,-31.0744064125645,-0.603116338894112,2304.6867961294,5.34422393332965,92.5668276081863
0.5,58.85,-31.227850429201,-0.598212272723295,2306.69079287308,5.34853088411551,92.5739455705894
0.5,58.9,-31.3675054853084,-0.593664000717602,2308.69479737053,5.35283757600004,92.5810559613702
0.5,58.95,-31.4942407774537,-0.589449601331169,2310.69880957799,5.35714400945239,92.5881587932597
0.5,59,-31.6089547101893,-0.585548756307423,2312.70282945189,5.36145018494062,92.5952540789928
0.5,59.05,-31.7125470990283,-0.581942555853297,2314.70685694884,5.36575610293175,92.6023418313073
0.5,59.1,-31.8058962549742,-0.578613335075229,2316.71089202563,5.37006176389176,92.6094220629442
0.5,59.15,-31.8898412715014,-0.575544536543152,2318.71493463924,5.37436716828556,92.6164947866476
0.5,59.2,-31.9651693372546,-0.572720594756239,2320.71898474682,5.37867231657703,92.6235600151642
0.5,59.25,-32.0326075641071,-0.570126839019405,2322.72304230572,5.38297720922899,92.6306177612433
0.5,59.3,-32.0928186363571,-0.56774941183695,2324.72710727346,5.38728184670322,92.6376680376368
0.5,59.35,-32.1463995229315,-0.565575200417016,2326.73117960773,5.39158622946047,92.6447108570986
0.5,59.4,-32.1938825158371,-0.563591779279287,2328.73525926641,5.39589035796043,92.6517462323848
0.5,59.45,-32.2357379324299,-0.561787362285809,2330.73934620755,5.40019423266176,92.6587741762534
0.5,59.5,-32.2723779200837,-0.560150762684579,2332.7434403894,5.40449785402208,92.6657947014641
0.5,59.55,-32.3041609104347,-0.558671359978662,2334.74754177035,5.40880122249798,92.6728078207781
0.5,59.6,-32.3313963741546,-0.557339072618568,2336.75165030899,5.41310433854499,92.6798135469582
0.5,59.65,-32.3543496191722,-0.556144335669514,2338.75576596409,5.41740720261765,92.6868118927682
0.5,59.7,-32.3732464523811,-0.555078082733803,2340.75988869458,5.42170981516942,92.6938028709732
0.5,59.75,-32.3882775867336,-0.554131731516066,2342.76401845955,5.42601217665277,92.700786494339
0.5,59.8,-32.3996027233366,-0.553297172509449,2344.7681552183,5.43031428751911,92.7077627756322
0.5,59.85,-32.4073542736365,-0.552566760357081,2346.77229893028,5.43461614821886,92.7147317276201
0.5,59.9,-32.4116407121441,-0.551933307507225,2348.7764495551,5.43891775920137,92.7216933630704
0.5,59.95,-32.4125495674977,-0.55139007983512,2350.78060705256,5.44321912091501,92.7286476947508
0.5,60,-32.4101500708535,-0.550930793950645,2352.78477138263,5.44752023380709,92.7355947354296
0.5,60.05,-32.4044954872067,-0.550549615950268,2354.78894250543,5.45182109832393,92.7425344978746
0.5,60.1,-32.3956251585517,-0.550241161405262,2356.79312038127,5.45612171491083,92.7494669948538
0.5,60.15,-32.3835662887926,-0.550000496406823,2358.79730497062,5.46042208401205,92.7563922391345
0.5,60.2,-32.3683354997736,-0.549823139513257,2360.8014962341,5.46472220607085,92.7633102434837
0.5,60.25,-32.3499401862736,-0.549705064465288,2362.80569413252,5.46902208152948,92.7702210206677
0.5,60.3,-32.3283796957182,-0.549642703553678,2364.80989862685,5.47332171082918,92.777124583452
0.5,60.35,-32.3036463559856,-0.549632951538697,2366.81410967821,5.47762109441018,92.7840209446012
0.5,60.4,-32.2757263722197,-0.549673170034233,2368.8183272479,5.48192023271168,92.7909101168787
0.5,60.45,-32.2446006111432,-0.549761192280714,2370.82255129738,5.4862191261719,92.7977921130468
0.5,60.5,-32.2102452890697,-0.549895328240702,2372.82678178827,5.49051777522806,92.8046669458662
0.5,60.55,-32.1726325776845,-0.550074369959266,2374.83101868235,5.49481618031635,92.8115346280964
0.5,60.6,-32.1317311397285,-0.550297597138365,2376.83526194156,5.49911434187198,92.8183951724949
0.5,60.65,-32.0875066049837,-0.550564782880376,2378.839511528,5.50341226032916,92.8252485918175
0.5,60.7,-32.0399219954112,-0.550876199560882,2380.84376740395,5.50770993612109,92.8320948988182
0.5,60.75,-31.9889381069367,-0.551232624795059,2382.84802953183,5.51200736967999,92.8389341062487
0.5,60.8,-31.9345138541829,-0.551635347465378,2384.8522978742,5.51630456143707,92.8457662268585
0.5,60.85,-31.8766065834199,-0.552086173781025,2386.85657239382,5.52060151182256,92.8525912733948
0.5,60.9,-31.8151723581033,-0.552587433341718,2388.86085305357,5.5248982212657,92.8594092586023
0.5,60.95,-31.7501662206084,-0.553141985180053,2390.86513981652,5.52919469019475,92.866220195223
0.5,61,-31.6815424331082,-0.553753223757803,2392.86943264586,5.53349091903694,92.8730240959962
0.5,61.05,-31.6092546999902,-0.554425084892113,2394.87373150497,5.53778690821857,92.8798209736582
0.5,61.1,-31.5332563737439,-0.555162051587996,2396.87803635735,5.54208265816494,92.8866108409423
0.5,61.15,-31.4535006458649,-0.555969159753353,2398.88234716667,5.54637816930035,92.8933937105787
0.5,61.2,-31.3699407240126,-0.556852003772387,2400.88666389677,5.55067344204813,92.9001695952942
0.5,61.25,-31.2825299964145,-0.557816741912615,2402.89098651162,5.55496847683064,92.9069385078122
0.5,61.3,-31.1912221843264,-0.558870101539667,2404.89531497534,5.55926327406927,92.9137004608525
0.5,61.35,-31.0959714832309,-0.560019384112903,2406.89964925221,5.56355783418441,92.9204554671314
0.5,61.4,-30.9967326933828,-0.561272469933356,2408.90398930667,5.5678521575955,92.9272035393612
0.5,61.45,-30.8934613402834,-0.562637822614005,2410.90833510328,5.57214624472101,92.9339446902504
0.5,61.5,-30.7861137856877,-0.564124493240389,2412.91268660679,5.57644009597842,92.9406789325032
0.5,61.55,-30.6746473298164,-0.565742124187725,2414.91704378206,5.58073371178427,92.94740627882
0.5,61.6,-30.5590203055549,-0.567500952558494,2416.92140659413,5.58502709255411,92.9541267418966
0.5,61.65,-30.4391921655763,-0.569411813202248,2418.92577500815,5.58932023870256,92.9608403344245
0.5,61.7,-30.3151235635243,-0.57148614127701,2420.93014898945,5.59361315064324,92.9675470690906
0.5,61.75,-30.1867764306345,-0.57373597430927,2422.9345285035,5.59790582878883,92.9742469585772
0.5,61.8,-30.0541140494625,-0.576173953707095,2424.9389135159,5.60219827355106,92.9809400155618
0.5,61.85,-29.9171011267233,-0.578813325678341,2426.94330399241,5.60649048534068,92.9876262527171
0.5,61.9,-29.7757038676344,-0.581667941503582,2428.94769989892,5.61078246456751,92.9943056827105
0.5,61.95,-29.6298900546014,-0.58475225711072,2430.95210120149,5.61507421164042,93.0009783182046
0.5,62,-29.4796291335872,-0.5880813318961,2432.95650786628,5.6193657269673,93.0076441718566
0.5,62.05,-29.3248923120789,-0.591670826734383,2434.96091985963,5.62365701095511,93.0143032563185
0.5,62.1,-29.1656526732165,-0.595537001117479,2436.965337148,5.62794806400987,93.0209555842365
0.5,62.15,-29.0018853113808,-0.599696709360681,2438.96975969802,5.63223888653664,93.0276011682516
0.5,62.2,-28.8335674953695,-0.604167395812409,2440.97418747641,5.63652947893955,93.0342400209989
0.5,62.25,-28.6606788662366,-0.608967089002413,2442.97862045009,5.64081984162178,93.0408721551078
0.5,62.3,-28.4832016779402,-0.614114394661889,2444.98305858606,5.64510997498557,93.0474975832018
0.5,62.35,-28.3011210901646,-0.619628487548246,2446.98750185151,5.64939987943224,93.0541163178983
0.5,62.4,-28.1144255240639,-0.625529102006397,2448.99195021374,5.65368955536213,93.0607283718086
0.5,62.45,-27.923107093253,-0.631836521198517,2450.99640364018,5.6579790031747,93.067333757538
0.5,62.5,-27.7271621241541,-0.638571564934421,2453.00086209843,5.66226822326845,93.0739324876851
0.5,62.55,-27.5265917818343,-0.645755576035591,2455.00532555618,5.66655721604094,93.0805245748424
0.5,62.6,-27.3214028197523,-0.653410405167246,2457.00979398131,5.67084598188881,93.0871100315957
0.5,62.65,-27.1116084744016,-0.661558394074879,2459.01426734179,5.6751345212078,93.0936888705241
0.5,62.7,-26.8972295286967,-0.670222357164382,2461.01874560575,5.67942283439268,93.1002611042002
0.5,62.75,-26.6782955711174,-0.679425561368232,2463.02322874143,5.68371092183732,93.1068267451897
0.5,62.8,-26.4548464810756,-0.689191704244348,2465.02771671724,5.68799878393468,93.1133858060511
0.5,62.85,-26.2269341746745,-0.699544890259178,2467.03220950169,5.69228642107677,93.1199382993362
0.5,62.9,-25.994624648911,-0.710509605212213,2469.03670706343,5.69657383365471,93.1264842375895
0.5,62.95,-25.7580003662931,-0.722110688765881,2471.04120937125,5.70086102205869,93.1330236333483
0.5,63,-25.517163025613,-0.73437330505199,2473.04571639407,5.70514798667798,93.1395564991426
0.55,57,-25.4242381460105,-0.837241044712714,2235.16034720721,5.14372526407983,90.6837759621342
0.55,57.05,-25.8609910119588,-0.809579281370619,2237.16409697429,5.14801300009336,90.6897082657728
0.55,57.1,-26.2768832758743,-0.783030848906923,2239.16785364547,5.15230050133894,90.6956330910969
0.55,57.15,-26.6709805502282,-0.757883873787754,2241.17161718105,5.15658776825492,90.7015504549098
0.55,57.2,-27.0432137233173,-0.734396706829395,2243.17538754149,5.16087480127865,90.707460374
0.55,57.25,-27.3940499235238,-0.712771987080066,2245.17916468744,5.16516160084645,90.7133628651408
0.55,57.3,-27.7242737532429,-0.693137466042598,2247.1829485797,5.16944816739363,90.7192579450905
0.55,57.35,-28.0348439813323,-0.675537170296833,2249.18673917925,5.1737345013545,90.7251456305922
0.55,57.4,-28.3268009990527,-0.659933896393209,2251.19053644725,5.17802060316232,90.7310259383736
0.55,57.45,-28.601208064545,-0.646221337605793,2253.19434034501,5.18230647324936,90.736898885147
0.55,57.5,-28.8591148711448,-0.634242297345655,2255.19815083403,5.18659211204683,90.7427644876088
0.55,57.55,-29.1015357715597,-0.623808908916382,2257.20196787597,5.19087751998492,90.74862276244
0.55,57.6,-29.3294375563282,-0.614721407235788,2259.20579143264,5.1951626974928,90.7544737263056
0.55,57.65,-29.5437334021782,-0.606783258747593,2261.20962146604,5.19944764499858,90.7603173958546
0.55,57.7,-29.7452807492966,-0.599811786398257,2263.21345793832,5.20373236292936,90.7661537877197
0.55,57.75,-29.9348816264806,-0.593644454578924,2265.21730081181,5.20801685171117,90.7719829185178
0.55,57.8,-30.1132844482095,-0.588141576171696,2267.22115004899,5.21230111176902,90.7778048048491
0.55,57.85,-30.2811866436097,-0.583186418718275,2269.2250056125,5.21658514352686,90.7836194632973
0.55,57.9,-30.4392377009027,-0.578683644462323,2271.22886746517,5.2208689474076,90.7894269104299
0.55,57.95,-30.5880423598667,-0.574556846683065,2273.23273556996,5.2251525238331,90.7952271627974
0.55,58,-30.7281637839952,-0.570745735743208,2275.23660989,5.22943587322418,90.8010202369335
0.55,58.05,-30.8601266099327,-0.567203336447098,2277.2404903886,5.23371899600058,90.806806149355
0.55,58.1,-30.9844198153905,-0.563893406418657,2279.24437702921,5.23800189258102,90.8125849165618
0.55,58.15,-31.1014993754438,-0.560788176832256,2281.24826977544,5.24228456338314,90.8183565550365
0.55,58.2,-31.2117906957825,-0.557866446115648,2283.25216859107,5.24656700882353,90.8241210812445
0.55,58.25,-31.3156908234383,-0.555112015248609,2285.25607344002,5.25084922931775,90.8298785116339
0.55,58.3,-31.4135704429643,-0.55251243130902,2287.25998428639,5.25513122528027,90.8356288626353
0.55,58.35,-31.5057756704884,-0.550057996888072,2289.26390109442,5.25941299712452,90.8413721506616
0.55,58.4,-31.5926296605163,-0.54774100170941,2291.26782382851,5.26369454526286,90.8471083921083
0.55,58.45,-31.6744340415033,-0.545555135704509,2293.27175245322,5.26797587010659,90.8528376033527
0.55,58.5,-31.7514701965064,-0.543495047658443,2295.27568693325,5.27225697206598,90.8585598007548
0.55,58.55,-31.8240004049715,-0.541556018992765,2297.27962723347,5.2765378515502,90.8642750006561
0.55,58.6,-31.8922688611225,-0.539733727546387,2299.2835733189,5.2808185089674,90.8699832193803
0.55,58.65,-31.9565025836143,-0.538024080982674,2301.28752515469,5.28509894472464,90.8756844732328
0.55,58.7,-32.0169122302016,-0.536423103550925,2303.29148270619,5.28937915922793,90.8813787785007
0.55,58.75,-32.0736928301974,-0.534926863350224,2305.29544593885,5.29365915288224,90.8870661514529
0.55,58.8,-32.1270244464931,-0.533531430035227,2307.2994148183,5.29793892609147,90.8927466083398
0.55,58.85,-32.1770727779075,-0.532232855146735,2309.3033893103,5.30221847925845,90.8984201653929
0.55,58.9,-32.2239897116362,-0.531027169031678,2311.30736938079,5.30649781278498,90.9040868388255
0.55,58.95,-32.2679138345916,-0.529910389719082,2313.31135499583,5.31077692707178,90.909746644832
0.55,59,-32.3089709114672,-0.528878540214577,2315.31534612162,5.31505582251854,90.9153995995878
0.55,59.05,-32.3472743364276,-0.527927671527206,2317.31934272455,5.31933449952388,90.9210457192495
0.55,59.1,-32.3829255644183,-0.527053889400801,2319.32334477111,5.32361295848537,90.9266850199547
0.55,59.15,-32.4160145272185,-0.526253383229305,2321.32735222797,5.32789119979953,90.932317517822
0.55,59.2,-32.4466200385202,-0.525522456024462,2323.33136506192,5.33216922386186,90.9379432289505
0.55,59.25,-32.4748101915183,-0.524857554601876,2325.3353832399,5.33644703106676,90.9435621694202
0.55,59.3,-32.5006427517372,-0.524255299378116,2327.33940672902,5.34072462180763,90.9491743552919
0.55,59.35,-32.5241655471148,-0.523712513343651,2329.34343549648,5.34500199647682,90.9547798026067
0.55,59.4,-32.5454168567039,-0.523226249906299,2331.34746950968,5.34927915546561,90.9603785273862
0.55,59.45,-32.5644257987555,-0.522793819397741,2333.35150873612,5.35355609916427,90.9659705456326
0.55,59.5,-32.5812127184046,-0.522412814108553,2335.35555314347,5.35783282796204,90.9715558733281
0.55,59.55,-32.5957895747065,-0.522081131771429,2337.35960269951,5.36210934224708,90.9771345264355
0.55,59.6,-32.608160326359,-0.521796997451808,2339.36365737219,5.36638564240658,90.9827065208974
0.55,59.65,-32.6183213151014,-0.521558983833967,2341.36771712958,5.37066172882665,90.9882718726367
0.55,59.7,-32.626261645503,-0.521366029910904,2343.37178193989,5.37493760189241,90.9938305975561
0.55,59.75,-32.6319635596425,-0.521217458100446,2345.37585177148,5.37921326198793,90.9993827115385
0.55,59.8,-32.6354028050283,-0.52111298981938,2347.37992659284,5.38348870949627,91.0049282304463
0.55,59.85,-32.6365489940204,-0.521052759553133,2349.3840063726,5.38776394479949,91.010467170122
0.55,59.9,-32.6353659529799,-0.52103732746169,2351.3880910795,5.3920389682786,91.0159995463875
0.55,59.95,-32.6318120593894,-0.521067690563634,2353.39218068246,5.39631378031362,91.0215253750447
0.55,60,-32.6258405652506,-0.521145292540017,2355.39627515051,5.40058838128357,91.0270446718746
0.55,60.05,-32.6173999051661,-0.521272032198473,2357.40037445281,5.40486277156645,91.032557452638
0.55,60.1,-32.6064339876521,-0.521450270636185,2359.40447855866,5.40913695153928,91.0380637330751
0.55,60.15,-32.5928824683937,-0.521682837137866,2361.40858743749,5.41341092157805,91.0435635289053
0.55,60.2,-32.5766810043459,-0.521973033842293,2363.41270105887,5.41768468205779,91.0490568558274
0.55,60.25,-32.5577614877923,-0.522324639208147,2365.4168193925,5.42195823335252,91.0545437295194
0.55,60.3,-32.5360522597005,-0.522741910307081,2367.4209424082,5.42623157583529,91.0600241656384
0.55,60.35,-32.5114783019482,-0.523229583969088,2369.42507007593,5.43050470987817,91.0654981798205
0.55,60.4,-32.4839614082442,-0.523792876802599,2371.42920236578,5.43477763585223,91.0709657876811
0.55,60.45,-32.4534203338246,-0.524437484109119,2373.43333924797,5.4390503541276,91.0764270048142
0.55,60.5,-32.4197709242695,-0.525169577709841,2375.43748069284,5.44332286507342,91.081881846793
0.55,60.55,-32.3829262240627,-0.525995802699472,2377.44162667087,5.44759516905788,91.0873303291694
0.55,60.6,-32.3427965658102,-0.526923273140554,2379.44577715266,5.4518672664482,91.092772467474
0.55,60.65,-32.2992896413378,-0.527959566709749,2381.44993210893,5.45613915761065,91.0982082772163
0.55,60.7,-32.2523105562267,-0.529112718306189,2383.45409151054,5.46041084291057,91.1036377738842
0.55,60.75,-32.2017618697105,-0.530391212630653,2385.45825532847,5.46468232271233,91.1090609729444
0.55,60.8,-32.1475436222713,-0.531803975743434,2387.46242353382,5.46895359737937,91.1144778898422
0.55,60.85,-32.0895533537418,-0.533360365608022,2389.46659609783,5.4732246672742,91.1198885400011
0.55,60.9,-32.0276861152663,-0.535070161627426,2391.47077299185,5.4774955327584,91.1252929388233
0.55,60.95,-31.9618344791147,-0.536943553179649,2393.47495418735,5.48176619419264,91.1306911016893
0.55,61,-31.8918885511076,-0.538991127159229,2395.47913965593,5.48603665193664,91.1360830439577
