"W_line [mm]","Freq [GHz]","dB(S(1,1)) []","dB(S(2,1)) []","im(Gamma(1:1)) []","re(Gamma(1:1)) []","re(Zo(1:1)) []"
0.5,37,-8.67761181921638,-2.51844721823791,1297.70646889044,3.06284344826459,130.344779774527
0.5,37.05,-8.66233540750506,-2.52905094494807,1299.70572098418,3.06762039628791,130.451639476222
0.5,37.1,-8.64456289466199,-2.54069344972695,1301.70546639216,3.07239592164926,130.558870683833
0.5,37.15,-8.62424972859118,-2.55341794143359,1303.70570316731,3.07717001393721,130.66647280492
0.5,37.2,-8.60135626535795,-2.56727070021735,1305.70642936204,3.08194266285047,130.774445235739
0.5,37.25,-8.57584726921865,-2.58230132382136,1307.70764302829,3.08671385819785,130.882787361264
0.5,37.3,-8.54769143239597,-2.59856299662533,1309.70934221762,3.09148358989824,130.991498555215
0.5,37.35,-8.51686092001903,-2.61611278388998,1311.71152498121,3.09625184798052,131.100578180083
0.5,37.4,-8.48333094472474,-2.63501195395015,1313.71418936998,3.10101862258351,131.210025587159
0.5,37.45,-8.44707937462182,-2.65532633142351,1315.71733343465,3.10578390395589,131.319840116559
0.5,37.5,-8.4080863776547,-2.67712668486098,1317.72095522576,3.11054768245616,131.430021097256
0.5,37.55,-8.3663341048709,-2.70048915266831,1319.72505279375,3.1153099485525,131.540567847111
0.5,37.6,-8.32180641469002,-2.72549571158103,1321.72962418905,3.12007069282271,131.651479672903
0.5,37.65,-8.2744886399908,-2.75223469248314,1323.73466746209,3.1248299059541,131.762755870359
0.5,37.7,-8.22436739966899,-2.7808013489298,1325.7401806634,3.12958757874338,131.874395724192
0.5,37.75,-8.17143045626814,-2.81129848437251,1327.74616184366,3.13434370209658,131.98639850813
0.5,37.8,-8.1156666213413,-2.84383714479963,1329.75260905373,3.13909826702885,132.098763484957
0.5,37.85,-8.05706571035921,-2.8785373843024,1331.75952034475,3.14385126466441,132.211489906543
0.5,37.9,-7.99561854923533,-2.91552911196547,1333.76689376821,3.14860268623637,132.324577013886
0.5,37.95,-7.93131703488524,-2.95495302946713,1335.77472737592,3.1533525230866,132.438024037146
0.5,38,-7.86415425267521,-2.99696166986613,1337.7830192202,3.15810076666556,132.551830195687
0.5,38.05,-7.79412465413886,-3.04172054925196,1339.79176735382,3.16284740853217,132.665994698116
0.5,38.1,-7.72122429894947,-3.08940944424716,1341.80096983012,3.16759244035362,132.780516742324
0.5,38.15,-7.6454511658275,-3.14022380976895,1343.81062470306,3.17233585390522,132.895395515527
0.5,38.2,-7.56680553783421,-3.19437635297447,1345.82073002727,3.17707764107017,133.010630194309
0.5,38.25,-7.48529046835128,-3.25209878090653,1347.83128385811,3.18181779383945,133.126219944666
0.5,38.3,-7.40091233496606,-3.31364374098853,1349.84228425173,3.18655630431154,133.242163922051
0.5,38.35,-7.31368148946568,-3.37928697512574,1351.85372926511,3.19129316469229,133.358461271419
0.5,38.4,-7.22361301317689,-3.44932970966071,1353.86561695613,3.19602836729466,133.475111127274
0.5,38.45,-7.13072758795434,-3.52410130465585,1355.87794538364,3.20076190453853,133.592112613714
0.5,38.5,-7.03505249418944,-3.6039621867198,1357.89071260749,3.20549376895047,133.709464844485
0.5,38.55,-6.93662274824731,-3.68930708953244,1359.9039166886,3.21022395316351,133.827166923023
0.5,38.6,-6.83548239268439,-3.78056862488547,1361.91755568899,3.21495244991688,133.945217942508
0.5,38.65,-6.73168595338209,-3.87822120375286,1363.9316276719,3.21967925205582,134.063616985916
0.5,38.7,-6.6253000782507,-3.98278532063523,1365.94613070175,3.22440435253126,134.18236312607
0.5,38.75,-6.51640537228389,-4.09483220372833,1367.96106284428,3.22912774439963,134.301455425689
0.5,38.8,-6.40509844330505,-4.2149888162258,1369.97642216656,3.23384942082251,134.420892937448
0.5,38.85,-6.29149417152642,-4.34394316718637,1371.99220673704,3.23856937506647,134.540674704029
0.5,38.9,-6.1757282137663,-4.48244984935021,1374.00841462562,3.24328760050267,134.660799758174
0.5,38.95,-6.05795974950101,-4.6313356594375,1376.0250439037,3.24800409060666,134.781267122749
0.5,39,-5.93837447045903,-4.79150506402047,1378.04209264424,3.25271883895805,134.902075810792
0.5,39.05,-5.81718780771264,-4.96394513656327,1380.05955892179,3.25743183924023,135.023224825577
0.5,39.1,-5.69464837963806,-5.14972938720066,1382.07744081255,3.26214308524003,135.144713160672
0.5,39.15,-5.57104163009224,-5.35001960432518,1384.09573639445,3.26685257084745,135.266539799995
0.5,39.2,-5.44669360806545,-5.56606437844873,1386.11444374716,3.2715602900553,135.388703717881
0.5,39.25,-5.32197481731996,-5.79919231317642,1388.13356095215,3.2762662369589,135.511203879135
0.5,39.3,-5.19730403663795,-6.05079694035928,1390.15308609276,3.28097040575574,135.634039239104
0.5,39.35,-5.07315197805308,-6.32230889242936,1392.17301725426,3.28567279074515,135.75720874373
0.5,39.4,-4.95004461202512,-6.61514872325216,1394.19335252385,3.2903733863279,135.88071132962
0.5,39.45,-4.82856594578939,-6.9306506042058,1396.21408999075,3.29507218700594,136.004545924111
0.5,39.5,-4.70935999584944,-7.26994256504926,1398.23522774624,3.29976918738196,136.128711445331
0.5,39.55,-4.59313165078756,-7.633762584262,1400.25676388372,3.30446438215906,136.253206802267
0.5,39.6,-4.48064608074782,-8.02218144013942,1402.27869649872,3.30915776614038,136.378030894835
0.5,39.65,-4.37272632129355,-8.43419339651656,1404.301023689,3.31384933422871,136.503182613944
0.5,39.7,-4.27024864971434,-8.86712736498998,1406.32374355456,3.3185390814261,136.628660841563
0.5,39.75,-4.17413539042609,-9.31583233514231,1408.34685419771,3.3232270028335,136.754464450796
0.5,39.8,-4.08534484251192,-9.77162046889513,1410.3703537231,3.32791309365032,136.880592305948
0.5,39.85,-4.00485812536901,-10.221045253473,1412.39424023779,3.33259734917405,137.007043262594
0.5,39.9,-3.93366289353883,-10.6448014233366,1414.41851185128,3.33727976479988,137.133816167656
0.5,39.95,-3.87273407930269,-11.0173849032134,1416.44316667553,3.3419603360202,137.260909859468
0.5,40,-3.82301207372844,-11.3085278558364,1418.46820282508,3.34663905842428,137.388323167856
0.5,40.05,-3.7853790358751,-11.4873940223398,1420.49361841702,3.35131592769777,137.516054914206
0.5,40.1,-3.76063429782398,-11.5294299759754,1422.51941157108,3.35599093962229,137.64410391154
0.5,40.15,-3.74947007369889,-11.4236110996572,1424.54558040965,3.360664090075,137.772468964593
0.5,40.2,-3.75244884362095,-11.1762967765445,1426.57212305786,3.36533537502815,137.901148869885
0.5,40.25,-3.769983831581,-10.809270185334,1428.59903764357,3.37000479054862,138.0301424158
0.5,40.3,-3.80232390398001,-10.3532082700058,1430.62632229746,3.37467233279745,138.159448382661
0.5,40.35,-3.84954397659022,-9.84028015674303,1432.65397515307,3.37933799802944,138.289065542809
0.5,40.4,-3.9115416488734,-9.29888096820629,1434.68199434682,3.38400178259258,138.41899266068
0.5,40.45,-3.98804032578564,-8.75129057068582,1436.71037801806,3.3886636829277,138.549228492884
0.5,40.5,-4.07859859504783,-8.21350735374205,1438.73912430912,3.39332369556786,138.679771788285
0.5,40.55,-4.1826251654198,-7.69617260451376,1440.76823136536,3.39798181713798,138.810621288082
0.5,40.6,-4.29939829612522,-7.20580262381712,1442.79769733519,3.40263804435428,138.941775725886
0.5,40.65,-4.42808840026674,-6.74593193759006,1444.82752037015,3.4072923740238,139.073233827805
0.5,40.7,-4.56778240420409,-6.31803077614546,1446.85769862488,3.41194480304391,139.204994312524
0.5,40.75,-4.71750848524075,-5.92218844091202,1448.88823025724,3.41659532840179,139.337055891387
0.5,40.8,-4.87625996698066,-5.55760141035384,1450.91911342831,3.42124394717393,139.469417268481
0.5,40.85,-5.04301738878315,-5.22291349571505,1452.95034630244,3.42589065652561,139.60207714072
0.5,40.9,-5.21676804259146,-4.91644923720312,1454.98192704727,3.43053545371038,139.735034197925
0.5,40.95,-5.39652255025386,-4.63637218873566,1457.01385383381,3.43517833606952,139.868287122916
0.5,41,-5.58132830874324,-4.38079099997579,1459.04612483644,3.43981930103151,140.001834591587
0.55,37,-10.7087132406949,-1.72731376849616,1316.87384234394,3.09934279777237,137.350997284524
0.55,37.05,-10.6650745366364,-1.74452404131657,1318.89708865789,3.10394844538067,137.475011833906
0.55,37.1,-10.6190019328136,-1.76274338248204,1320.92069402917,3.10855219552212,137.599283494281
0.55,37.15,-10.570465801301,-1.7820113768134,1322.94465647149,3.1131540465654,137.723810819988
0.55,37.2,-10.5194364040632,-1.80237114105057,1324.96897400341,3.11775399697071,137.84859236045
0.55,37.25,-10.4658838434468,-1.82386965782866,1326.99364464836,3.12235204528897,137.973626660265
0.55,37.3,-10.4097780100348,-1.84655814304022,1329.01866643469,3.12694819016111,138.098912259291
0.55,37.35,-10.3510885272206,-1.87049245055448,1331.04403739566,3.13154243031725,138.224447692744
0.55,37.4,-10.2897846918651,-1.89573351877441,1333.06975556955,3.13613476457596,138.350231491281
0.55,37.45,-10.2258354104779,-1.92234786409033,1335.09581899961,3.14072519184352,138.476262181097
0.55,37.5,-10.1592091305451,-1.95040812694249,1337.12222573416,3.14531371111314,138.602538284011
0.55,37.55,-10.0898737669491,-1.97999367694575,1339.14897382659,3.14990032146421,138.72905831756
0.55,37.6,-10.0177966239259,-2.01119128436537,1341.17606133538,3.15448502206154,138.855820795085
0.55,37.65,-9.94294431374488,-2.04409586617741,1343.20348632417,3.15906781215458,138.982824225827
0.55,37.7,-9.86528267432366,-2.07881131600984,1345.23124686176,3.16364869107671,139.110067115014
0.55,37.75,-9.78477668936544,-2.11545142845427,1347.25934102214,3.16822765824445,139.23754796395
0.55,37.8,-9.70139041639963,-2.15414092957259,1349.28776688455,3.1728047131567,139.365265270111
0.55,37.85,-9.61508693036266,-2.19501662690809,1351.31652253345,3.17737985539402,139.493217527228
0.55,37.9,-9.52582829313041,-2.23822869395132,1353.34560605864,3.18195308461785,139.621403225384
0.55,37.95,-9.4335755627271,-2.2839421058068,1355.37501555517,3.18652440056974,139.7498208511
0.55,38,-9.33828885978827,-2.33233824474845,1357.40474912349,3.19109380307068,139.878468887424
0.55,38.05,-9.23992751320212,-2.38361669641297,1359.43480486938,3.19566129202024,140.007345814026
0.55,38.1,-9.13845031160292,-2.43799725951475,1361.46518090402,3.20022686739591,140.136450107284
0.55,38.15,-9.03381589239206,-2.4957221940907,1363.49587534402,3.2047905292523,140.265780240374
0.55,38.2,-8.9259833050063,-2.55705873526676,1365.52688631143,3.20935227772044,140.395334683359
0.55,38.25,-8.81491278997282,-2.62230190117252,1367.55821193378,3.21391211300699,140.52511190328
0.55,38.3,-8.70056681957699,-2.691777624603,1369.58985034407,3.21847003539353,140.655110364247
0.55,38.35,-8.58291144938887,-2.76584623786214,1371.62179968084,3.22302604523579,140.785328527523
0.55,38.4,-8.46191803212633,-2.8449063382213,1373.65405808817,3.22758014296295,140.915764851616
0.55,38.45,-8.33756534609856,-2.92939905655001,1375.68662371569,3.23213232907686,141.046417792368
0.55,38.5,-8.20984218957393,-3.01981274240658,1377.71949471863,3.23668260415135,141.177285803042
0.55,38.55,-8.07875048975823,-3.11668806298791,1379.75266925782,3.24123096883144,141.308367334413
0.55,38.6,-7.94430897066276,-3.22062348758197,1381.78614549974,3.24577742383263,141.439660834853
0.55,38.65,-7.80655741808116,-3.33228108879742,1383.81992161648,3.25032196994022,141.571164750421
0.55,38.7,-7.66556157228058,-3.45239252993796,1385.85399578585,3.25486460800848,141.702877524949
0.55,38.75,-7.52141866985427,-3.58176501432489,1387.88836619131,3.25940533896,141.834797600133
0.55,38.8,-7.37426364524392,-3.72128683236615,1389.92303102205,3.26394416378494,141.966923415613
0.55,38.85,-7.22427598907465,-3.8719319341104,1391.95798847299,3.26848108354031,142.09925340907
0.55,38.9,-7.07168724343581,-4.0347626473454,1393.99323674479,3.27301609934923,142.231786016305
0.55,38.95,-6.91678909165609,-4.21092920800342,1396.02877404388,3.27754921240023,142.364519671327
0.55,39,-6.75994196926399,-4.40166410405481,1398.06459858248,3.28208042394653,142.497452806442
0.55,39.05,-6.6015840802719,-4.60826826054556,1400.1007085786,3.28660973530531,142.630583852335
0.55,39.1,-6.44224064474665,-4.83208467719334,1402.13710225607,3.29113714785701,142.76391123816
0.55,39.15,-6.28253312582946,-5.07445308726067,1404.17377784455,3.29566266304462,142.89743339162
0.55,39.2,-6.1231880835925,-5.33663630167163,1406.21073357956,3.30018628237294,143.031148739057
0.55,39.25,-5.96504517774983,-5.61970486997424,1408.24796770248,3.30470800740791,143.165055705534
0.55,39.3,-5.80906369287391,-5.9243613234691,1410.28547846057,3.30922783977589,143.299152714921
0.55,39.35,-5.65632679512778,-6.25067866876793,1412.32326410697,3.31374578116296,143.433438189976
0.55,39.4,-5.50804256261015,-6.59772098494098,1414.36132290075,3.3182618333142,143.567910552431
0.55,39.45,-5.36554068560939,-6.96301014992657,1416.39965310688,3.32277599803303,143.702568223077
0.55,39.5,-5.23026364244195,-7.3418096884024,1418.4382529963,3.32728827718045,143.837409621844
0.55,39.55,-5.10375116533956,-7.7262305288967,1420.47712084584,3.33179867267443,143.972433167884
0.55,39.6,-4.98761696966072,-8.10425122226492,1422.51625493836,3.33630718648915,144.107637279655
0.55,39.65,-4.88351707717858,-8.45891901495966,1424.55565356262,3.34081382065434,144.243020375003
0.55,39.7,-4.79310965342076,-8.76826034603931,1426.59531501343,3.34531857725459,144.37858087124
0.55,39.75,-4.71800709981783,-9.00666751273213,1428.63523759155,3.34982145842865,144.51431718523
0.55,39.8,-4.65972214225564,-9.14842294756398,1430.67541960376,3.35432246636879,144.650227733468
0.55,39.85,-4.6196107241353,-9.17316365527791,1432.71585936285,3.35882160332007,144.786310932156
0.55,39.9,-4.59881547031636,-9.07155901254816,1434.75655518766,3.36331887157969,144.922565197292
0.55,39.95,-4.59821412996601,-8.84844546912497,1436.79750540302,3.36781427349631,145.058988944741
0.55,40,-4.61837753559544,-8.52158610510337,1438.83870833985,3.3723078114694,145.19558059032
0.55,40.05,-4.6595411085756,-8.11676796696016,1440.8801623351,3.37679948794853,145.332338549872
0.55,40.1,-4.72159279820465,-7.66184709601255,1442.92186573178,3.38128930543272,145.469261239349
0.55,40.15,-4.80407870784015,-7.18213315673423,1444.96381687897,3.38577726646981,145.606347074886
0.55,40.2,-4.9062258067265,-6.69800456906954,1447.00601413185,3.39026337365575,145.743594472881
0.55,40.25,-5.02697937708042,-6.22439148921248,1449.04845585166,3.39474762963396,145.881001850071
0.55,40.3,-5.16505150201673,-5.77133688260179,1451.09114040573,3.39923003709469,146.018567623608
0.55,40.35,-5.31897615655928,-5.34497143443827,1453.1340661675,3.40371059877435,146.156290211135
0.55,40.4,-5.48716637372988,-4.94851329267369,1455.17723151652,3.40818931745487,146.294168030866
0.55,40.45,-5.66796943662449,-4.58312379474069,1457.22063483844,3.41266619596303,146.432199501653
0.55,40.5,-5.85971691875253,-4.24857637940868,1459.26427452502,3.41714123716986,146.570383043069
0.55,40.55,-6.06076744846662,-3.94375253753689,1461.30814897415,3.42161444398995,146.708717075475
0.55,40.6,-6.26954111843197,-3.6669970489131,1463.35225658985,3.42608581938084,146.8472000201
0.55,40.65,-6.48454536026855,-3.41636588235806,1465.39659578225,3.4305553663424,146.98583029911
0.55,40.7,-6.70439278399423,-3.18979510389242,1467.44116496765,3.43502308791613,147.124606335684
0.55,40.75,-6.92781192455555,-2.98521290965458,1469.48596256845,3.43948898718462,147.263526554082
0.55,40.8,-7.15365206640528,-2.80061132681655,1471.53098701321,3.44395306727087,147.402589379721
0.55,40.85,-7.38088337621671,-2.63408968164254,1473.57623673664,3.44841533133765,147.541793239246
0.55,40.9,-7.60859351415672,-2.48387857117292,1475.62171017958,3.45287578258693,147.681136560597
0.55,40.95,-7.8359817625353,-2.34835059444659,1477.66740578904,3.45733442425923,147.820617773082
0.55,41,-8.06235154483706,-2.22602229189159,1479.71332201817,3.461791259633,147.960235307448
0.6,37,-12.3253539063848,-1.49360723506827,1332.9568704581,3.1233103926337,142.360697808048
0.6,37.05,-12.2678476634435,-1.51452837733415,1334.99227932679,3.12775018712146,142.486232375061
0.6,37.1,-12.2077506229201,-1.53639072426223,1337.0279395049,3.13218822664015,142.611885151707
0.6,37.15,-12.1449998480769,-1.55923655674519,1339.06384927505,3.13662451472142,142.737654621288
0.6,37.2,-12.0795308086517,-1.5831133818718,1341.10000692708,3.14105905493559,142.863539269567
0.6,37.25,-12.0112773249912,-1.60807441472362,1343.13641075804,3.14549185089093,142.98953758482
0.6,37.3,-11.9401715212403,-1.63417911249439,1345.17305907214,3.14992290623298,143.1156480579
0.6,37.35,-11.8661437903449,-1.66149376760835,1347.20995018081,3.15435222464383,143.241869182297
0.6,37.4,-11.7891227742023,-1.6900921673744,1349.24708240267,3.15877980984142,143.368199454193
0.6,37.45,-11.7090353629919,-1.72005632867773,1351.28445406351,3.16320566557889,143.494637372524
0.6,37.5,-11.6258067185679,-1.75147731728856,1353.32206349631,3.16762979564383,143.621181439032
0.6,37.55,-11.539360327824,-1.78445616256464,1355.35990904124,3.17205220385768,143.747830158327
0.6,37.6,-11.4496180931824,-1.81910487964324,1357.39798904564,3.176472894075,143.87458203794
0.6,37.65,-11.3565004688631,-1.85554761265601,1359.43630186401,3.18089187018288,144.001435588379
0.6,37.7,-11.2599266534025,-1.89392191404522,1361.47484585801,3.1853091361002,144.128389323183
0.6,37.75,-11.159814851069,-1.93438017668564,1363.51361939648,3.18972469577705,144.255441758978
0.6,37.8,-11.0560826174439,-1.97709123717642,1365.55262085541,3.19413855319407,144.382591415529
0.6,37.85,-10.9486473075656,-2.02224217028332,1367.59184861791,3.19855071236179,144.509836815794
0.6,37.9,-10.8374266487655,-2.07004029595926,1369.63130107426,3.20296117732005,144.637176485974
0.6,37.95,-10.7223394647516,-2.12071542145971,1371.67097662186,3.20736995213734,144.764608955567
0.6,38,-10.6033065827096,-2.1745223415099,1373.71087366523,3.21177704091017,144.892132757419
0.6,38.05,-10.4802519613014,-2.23174361884439,1375.75099061602,3.21618244776253,145.019746427773
0.6,38.1,-10.3531040845262,-2.29269266509428,1377.79132589299,3.2205861768452,145.147448506319
0.6,38.15,-10.2217976745492,-2.35771713701959,1379.83187792199,3.22498823233524,145.275237536245
0.6,38.2,-10.0862757858156,-2.42720265413195,1381.87264513598,3.22938861843532,145.403112064282
0.6,38.25,-9.94649235301906,-2.50157682888366,1383.91362597498,3.23378733937318,145.531070640757
0.6,38.3,-9.80241527663344,-2.58131357700914,1385.95481888611,3.23818439940105,145.659111819634
0.6,38.35,-9.65403014143135,-2.66693763926433,1387.99622232354,3.24257980279505,145.787234158566
0.6,38.4,-9.50134467515647,-2.75902919092849,1390.03783474851,3.24697355385467,145.915436218939
0.6,38.45,-9.34439406540101,-2.85822833372942,1392.07965462929,3.25136565690215,146.043716565917
0.6,38.5,-9.1832472614225,-2.96523914450614,1394.1216804412,3.25575611628198,146.172073768488
0.6,38.55,-9.01801439215031,-3.08083277913846,1396.16391066657,3.26014493636031,146.300506399506
0.6,38.6,-8.84885542921281,-3.20584887534084,1398.20634379475,3.26453212152444,146.429013035738
0.6,38.65,-8.67599021068091,-3.34119413066686,1400.24897832211,3.26891767618225,146.557592257904
0.6,38.7,-8.49970991236339,-3.48783640674939,1402.29181275198,3.2733016047617,146.68624265072
0.6,38.75,-8.32039000250297,-3.64679196569454,1404.33484559469,3.27768391171027,146.814962802941
0.6,38.8,-8.13850463475448,-3.81910239937776,1406.37807536754,3.28206460149446,146.943751307402
0.6,38.85,-7.95464231425607,-4.00579636922518,1408.42150059477,3.28644367859928,147.072606761057
0.6,38.9,-7.76952250265929,-4.20782932788509,1410.46511980757,3.29082114752774,147.201527765019
0.6,38.95,-7.58401260105467,-4.42599186635578,1412.50893154408,3.2951970128003,147.330512924601
0.6,39,-7.39914445873484,-4.66077425108008,1414.55293434932,3.29957127895446,147.459560849354
0.6,39.05,-7.21612920138118,-4.91217140603867,1416.59712677524,3.30394395054417,147.588670153105
