"W_line [mm]","Freq [GHz]","dB(S(1,1)) []","dB(S(2,1)) []","im(Gamma(1:1)) []","re(Gamma(1:1)) []","re(Zo(1:1)) []"
0.5,37,-9.86305203999821,-2.10753912001585,1298.97759109973,3.07145726022014,129.287572989735
0.5,37.05,-9.8973144302029,-2.09635332501439,1300.97090279571,3.07616861009225,129.381371835429
0.5,37.1,-9.92908017660256,-2.08619394631478,1302.96466864877,3.0808785413058,129.475439806776
0.5,37.15,-9.95832737724651,-2.07704611559851,1304.95888683351,3.08558704649586,129.569776210349
0.5,37.2,-9.98503704600088,-2.06889605220032,1306.95355552558,3.0902941183989,129.664380346586
0.5,37.25,-10.0091927112248,-2.06173119631625,1308.94867290178,3.0949997498523,129.75925150983
0.5,37.3,-10.0307800495447,-2.05554034129046,1310.94423714007,3.09970393379395,129.854388988364
0.5,37.35,-10.0497865519811,-2.05031376506193,1312.94024641962,3.10440666326185,129.949792064449
0.5,37.4,-10.0662012198555,-2.04604336091169,1314.93669892087,3.10910793139368,130.045460014358
0.5,37.45,-10.0800142880821,-2.04272276771115,1316.93359282554,3.1138077314264,130.141392108416
0.5,37.5,-10.0912169736318,-2.04034749993241,1318.93092631673,3.11850605669577,130.237587611039
0.5,37.55,-10.0998012471385,-2.03891507774257,1320.92869757892,3.12320290063598,130.334045780767
0.5,37.6,-10.1057596257948,-2.03842515756576,1322.92690479804,3.1278982567792,130.430765870307
0.5,37.65,-10.109084985863,-2.03887966356036,1324.92554616151,3.13259211875514,130.52774712657
0.5,37.7,-10.1097703932932,-2.04028292052399,1326.92461985827,3.13728448029067,130.624988790711
0.5,37.75,-10.1078089511099,-2.04264178880721,1328.92412407884,3.1419753352093,130.722490098166
0.5,37.8,-10.1031936623856,-2.04596580188802,1330.92405701536,3.14666467743083,130.820250278696
0.5,37.85,-10.0959173077755,-2.05026730733566,1332.92441686164,3.15135250097088,130.918268556421
0.5,37.9,-10.0859723367403,-2.05556161197329,1334.92520181317,3.15603879994043,131.016544149866
0.5,37.95,-10.073350771728,-2.06186713213768,1336.92641006722,3.16072356854544,131.115076272
0.5,38,-10.0580441247343,-2.06920555002992,1338.92803982283,3.16540680108635,131.213864130275
0.5,38.05,-10.0400433258033,-2.077601977258,1340.93008928089,3.17008849195767,131.31290692667
0.5,38.1,-10.0193386631743,-2.08708512678902,1342.93255664415,3.17476863564754,131.412203857729
0.5,38.15,-9.99591973492741,-2.09768749466081,1344.93544011729,3.17944722673726,131.51175411461
0.5,38.2,-9.96977541213013,-2.10944555294937,1346.93873790695,3.18412425990089,131.611556883116
0.5,38.25,-9.94089381363909,-2.1223999556546,1348.94244822177,3.18879972990477,131.71161134375
0.5,38.3,-9.9092622928766,-2.13659575935371,1350.94656927241,3.19347363160705,131.811916671749
0.5,38.35,-9.87486743706929,-2.15208266068319,1352.95109927164,3.19814595995731,131.912472037128
0.5,38.4,-9.83769507962096,-2.16891525295052,1354.95603643435,3.20281670999606,132.013276604728
0.5,38.45,-9.79773032648763,-2.18715330444848,1356.96137897758,3.2074858768543,132.114329534255
0.5,38.5,-9.75495759763782,-2.20686206135447,1358.96712512057,3.21215345575305,132.215629980326
0.5,38.55,-9.70936068491566,-2.22811257844783,1360.97327308482,3.21681944200295,132.317177092513
0.5,38.6,-9.66092282788276,-2.25098208127664,1362.97982109411,3.22148383100377,132.418970015386
0.5,38.65,-9.60962680950151,-2.2755543638572,1364.98676737451,3.22614661824393,132.52100788856
0.5,38.7,-9.55545507384069,-2.30192022650166,1366.99411015448,3.23080779930011,132.623289846737
0.5,38.75,-9.49838986833878,-2.33017795894813,1369.00184766488,3.23546736983674,132.725815019753
0.5,38.8,-9.43841341355701,-2.36043387462205,1371.00997813897,3.24012532560557,132.828582532624
0.5,38.85,-9.37550810379688,-2.39280290259343,1373.01849981252,3.24478166244521,132.93159150559
0.5,38.9,-9.30965674245256,-2.42740924462152,1375.02741092378,3.24943637628065,133.034841054161
0.5,38.95,-9.24084281652258,-2.46438710560115,1377.03670971358,3.25408946312285,133.138330289164
0.5,39,-9.16905081532336,-2.50388150675094,1379.0463944253,3.25874091906822,133.242058316789
0.5,39.05,-9.09426659913637,-2.54604919201435,1381.05646330496,3.26339074029821,133.346024238635
0.5,39.1,-9.01647782428537,-2.59105963938015,1383.06691460123,3.26803892307883,133.450227151757
0.5,39.15,-8.93567443198683,-2.63909619016003,1385.07774656548,3.27268546376018,133.554666148715
0.5,39.2,-8.85184920924652,-2.69035731067123,1387.08895745179,3.27733035877601,133.659340317615
0.5,39.25,-8.76499843109267,-2.74505800222582,1389.10054551702,3.28197360464324,133.764248742164
0.5,39.3,-8.67512259453605,-2.80343137677025,1391.11250902083,3.28661519796153,133.869390501713
0.5,39.35,-8.58222725582542,-2.86573041685674,1393.12484622569,3.29125513541275,133.974764671306
0.5,39.4,-8.48632398380825,-2.93222993972329,1395.13755539697,3.29589341376062,134.080370321728
0.5,39.45,-8.38743144348946,-3.00322878589643,1397.15063480292,3.30053002985013,134.186206519552
0.5,39.5,-8.28557662516843,-3.0790522525952,1399.16408271471,3.3051649806072,134.292272327188
0.5,39.55,-8.18079623577632,-3.16005479083401,1401.17789740652,3.3097982630381,134.398566802932
0.5,39.6,-8.07313827015458,-3.24662298180889,1403.1920771555,3.31442987422908,134.505089001015
0.5,39.65,-7.96266378090951,-3.33917880189621,1405.20662024184,3.31905981134584,134.61183797165
0.5,39.7,-7.84944886600532,-3.43818317492779,1407.2215249488,3.32368807163312,134.718812761082
0.5,39.75,-7.73358689323143,-3.54413979319382,1409.23678956275,3.32831465241421,134.826012411637
0.5,39.8,-7.61519097985399,-3.65759916175675,1411.25241237316,3.33293955109046,134.933435961773
0.5,39.85,-7.49439674382083,-3.77916277962026,1413.2683916727,3.33756276514089,135.041082446124
0.5,39.9,-7.3713653394359,-3.90948730951759,1415.28472575721,3.34218429212164,135.148950895557
0.5,39.95,-7.24628678496156,-4.04928849601642,1417.30141292577,3.34680412966559,135.257040337215
0.5,40,-7.11938358154955,-4.19934445539992,1419.31845148069,3.35142227548183,135.365349794573
0.5,40.05,-6.99091461154807,-4.36049776021593,1421.3358397276,3.35603872735524,135.473878287481
0.5,40.1,-6.86117928878784,-4.53365544728657,1423.35357597543,3.36065348314599,135.582624832221
0.5,40.15,-6.73052191306332,-4.71978564823829,1425.37165853645,3.36526654078914,135.691588441551
0.5,40.2,-6.59933615483526,-4.91990891609265,1427.39008572631,3.36987789829409,135.800768124759
0.5,40.25,-6.46806956342637,-5.13508141547877,1429.40885586408,3.3744875537442,135.910162887715
0.5,40.3,-6.33722795215648,-5.36636584145616,1431.42796727225,3.37909550529628,136.019771732916
0.5,40.35,-6.20737946693076,-5.61478408060235,1433.44741827677,3.38370175118015,136.129593659541
0.5,40.4,-6.07915809150508,-5.88124304519073,1435.46720720709,3.38830628969818,136.2396276635
0.5,40.45,-5.95326628490015,-6.16642161766762,1437.48733239617,3.3929091192248,136.349872737485
0.5,40.5,-5.83047638770568,-6.47060216557214,1439.50779218053,3.39751023820608,136.460327871022
0.5,40.55,-5.71163037979813,-6.79342491643041,1441.52858490025,3.40210964515925,136.570992050519
0.5,40.6,-5.59763753012248,-7.13353883427015,1443.54970889903,3.40670733867225,136.681864259322
0.5,40.65,-5.48946945991241,-7.48812177224337,1445.57116252416,3.41130331740325,136.792943477759
0.5,40.7,-5.38815215633464,-7.85225280067427,1447.59294412664,3.41589758008022,136.904228683199
0.5,40.75,-5.29475453732902,-8.21815437517397,1449.61505206111,3.42049012550046,137.015718850097
0.5,40.8,-5.21037329272261,-8.57440242301667,1451.63748468593,3.42508095253015,137.127412950048
0.5,40.85,-5.13611392008928,-8.90534923288716,1453.66024036319,3.42967006010388,137.23930995184
0.5,40.9,-5.07306813750735,-9.19120759934372,1455.68331745875,3.43425744722419,137.3514088215
0.5,40.95,-5.02228817945794,-9.40940262120555,1457.70671434223,3.43884311296116,137.463708522352
0.5,41,-4.98475884278515,-9.53766258210077,1459.73042938709,3.44342705645189,137.576208015063
0.55,37,-12.1689572857354,-1.35100462324549,1316.29217942503,3.09594805519774,134.041566124996
0.55,37.05,-12.1735187936072,-1.35266821637034,1318.30624210378,3.10051527753365,134.145089506718
0.55,37.1,-12.1755145446173,-1.35505612872502,1320.32064594433,3.10508081607027,134.248780190431
0.55,37.15,-12.1749436832698,-1.35816405619216,1322.33538915379,3.10964467014096,134.352637058378
0.55,37.2,-12.1718061860613,-1.36198923886404,1324.35046994415,3.11420683915055,134.456658991903
0.55,37.25,-12.166102574402,-1.36653052590112,1326.36588653229,3.11876732257459,134.5608448715
0.55,37.3,-12.1578336399964,-1.3717884439601,1328.38163714002,3.12332611995873,134.665193576865
0.55,37.35,-12.1470001827713,-1.37776526976073,1330.3977199941,3.12788323091803,134.76970398695
0.55,37.4,-12.1336027614449,-1.38446510740939,1332.41413332623,3.13243865513628,134.874374980009
0.55,37.45,-12.1176414568443,-1.39189397115078,1334.43087537313,3.13699239236531,134.979205433656
0.55,37.5,-12.0991156480914,-1.40005987427922,1336.44794437649,3.14154444242437,135.084194224907
0.55,37.55,-12.0780238017977,-1.40897292500835,1338.46533858304,3.14609480519938,135.189340230237
0.55,37.6,-12.0543632744286,-1.4186454301736,1340.48305624456,3.15064348064231,135.294642325628
0.55,37.65,-12.028130128026,-1.42909200772607,1342.50109561786,3.15519046877051,135.400099386617
0.55,37.7,-11.9993189595068,-1.44032970907208,1344.51945496486,3.15973576966601,135.505710288347
0.55,37.75,-11.9679227437936,-1.45237815241891,1346.53813255256,3.16427938347487,135.61147390562
0.55,37.8,-11.9339326910784,-1.46525966840767,1348.55712665309,3.1688213104065,135.717389112938
0.55,37.85,-11.8973381185711,-1.47899945944867,1350.57643554368,3.17336155073302,135.82345478456
0.55,37.9,-11.8581263371539,-1.49362577432635,1352.59605750673,3.17790010478855,135.929669794544
0.55,37.95,-11.8162825534342,-1.50917009981044,1354.6159908298,3.18243697296861,136.036033016803
0.55,38,-11.7717897877863,-1.52566737120089,1356.63623380563,3.1869721557294,136.142543325144
0.55,38.05,-11.7246288090824,-1.54315620394757,1358.65678473213,3.19150565358716,136.249199593323
0.55,38.1,-11.6747780869449,-1.56167914872529,1360.67764191245,3.19603746711754,136.356000695089
0.55,38.15,-11.6222137625147,-1.58128297261189,1362.69880365494,3.20056759695489,136.462945504234
0.55,38.2,-11.5669096389148,-1.60201896931613,1364.7202682732,3.20509604379167,136.570032894636
0.55,38.25,-11.5088371928149,-1.6239433017346,1366.74203408606,3.20962280837775,136.677261740309
0.55,38.3,-11.4479656087645,-1.64711738048657,1368.76409941763,3.21414789151979,136.784630915449
0.55,38.35,-11.3842618382692,-1.67160828248481,1370.78646259728,3.21867129408057,136.892139294481
0.55,38.4,-11.3176906859524,-1.69748921405171,1372.80912195969,3.22319301697838,136.999785752102
0.55,38.45,-11.2482149255621,-1.72484002358442,1374.83207584481,3.22771306118634,137.107569163329
0.55,38.5,-11.17579544908,-1.75374776931155,1376.85532259793,3.23223142773179,137.215488403544
0.55,38.55,-11.1003914527628,-1.78430734826513,1378.87886056964,3.23674811769565,137.323542348539
0.55,38.6,-11.0219606646106,-1.81662219321115,1380.90268811587,3.24126313221178,137.43172987456
0.55,38.65,-10.9404596185287,-1.85080504493213,1382.92680359789,3.24577647246635,137.540049858354
0.55,38.7,-10.8558439813376,-1.88697880792184,1384.95120538233,3.25028813969723,137.648501177209
0.55,38.75,-10.7680689398112,-1.92527749821319,1386.97589184118,3.25479813519333,137.757082709004
0.55,38.8,-10.677089656099,-1.96584729268232,1389.0008613518,3.25930646029402,137.865793332245
0.55,38.85,-10.5828618012343,-2.00884768970417,1391.02611229693,3.26381311638849,137.974631926116
0.55,38.9,-10.48534217797,-2.05445279140522,1393.0516430647,3.26831810491514,138.083597370516
0.55,38.95,-10.3844894459246,-2.10285271786259,1395.07745204864,3.27282142736098,138.192688546106
0.55,39,-10.2802649639971,-2.15425516328629,1397.10353764769,3.27732308526099,138.301904334348
0.55,39.05,-10.1726337672237,-2.20888710328397,1399.1298982662,3.28182308019755,138.41124361755
0.55,39.1,-10.0615656977168,-2.2669966604494,1401.15653231393,3.28632141379982,138.520705278906
0.55,39.15,-9.94703671204816,-2.32885513232634,1403.18343820609,3.29081808774316,138.630288202538
0.55,39.2,-9.82903039040518,-2.39475918070542,1405.2106143633,3.2953131037485,138.73999127354
0.55,39.25,-9.70753967601688,-2.46503317341584,1407.23805921164,3.29980646358179,138.849813378011
0.55,39.3,-9.58256887666879,-2.54003165817509,1409.26577118263,3.3042981690534,138.959753403106
0.55,39.35,-9.45413596347839,-2.62014193112921,1411.29374871323,3.30878822201752,139.069810237069
0.55,39.4,-9.32227520533192,-2.70578663834757,1413.32199024588,3.31327662437159,139.179982769275
0.55,39.45,-9.1870401802333,-2.79742631382019,1415.35049422846,3.31776337805574,139.29026989027
0.55,39.5,-9.04850720692975,-2.89556170844819,1417.37925911434,3.32224848505219,139.400670491811
0.55,39.55,-8.90677924105332,-3.00073569563524,1419.40828336234,3.3267319473847,139.511183466902
0.55,39.6,-8.76199027896044,-3.11353444290235,1421.43756543677,3.331213767118,139.621807709838
0.55,39.65,-8.61431030853859,-3.23458740531538,1423.46710380741,3.33569394635723,139.732542116238
0.55,39.7,-8.46395083826731,-3.36456551180572,1425.49689694952,3.34017248724737,139.843385583085
0.55,39.75,-8.31117102221905,-3.50417666162797,1427.52694334387,3.34464939197272,139.954337008765
0.55,39.8,-8.15628437754066,-3.6541573018275,1429.55724147668,3.34912466275629,140.065395293105
0.55,39.85,-7.99966605995846,-3.81525838835849,1431.5877898397,3.35359830185934,140.176559337405
0.55,39.9,-7.84176061935847,-3.98822340872589,1433.61858693015,3.35807031158077,140.287828044482
0.55,39.95,-7.68309009867598,-4.17375532604657,1435.64963125075,3.36254069425658,140.399200318699
0.55,40,-7.52426226246185,-4.37246826386724,1437.68092130972,3.36700945225939,140.510675066009
0.55,40.05,-7.36597864447501,-4.58481848715071,1439.71245562078,3.37147658799787,140.622251193983
0.55,40.1,-7.20904198579617,-4.81100781921051,1441.74423270314,3.37594210391623,140.733927611852
0.55,40.15,-7.05436249815696,-5.05085129500976,1443.77625108153,3.38040600249368,140.845703230537
0.55,40.2,-6.90296223738565,-5.30360012139817,1445.80850928616,3.38486828624393,140.957576962688
0.55,40.25,-6.75597672087256,-5.56771197370473,1447.84100585276,3.38932895771467,141.069547722715
0.55,40.3,-6.61465279011769,-5.8405652638629,1449.87373932256,3.39378801948707,141.181614426825
0.55,40.35,-6.48034163285625,-6.11812542733845,1451.90670824227,3.39824547417526,141.293775993053
0.55,40.4,-6.35448587562929,-6.39459378619897,1453.93991116414,3.40270132442582,141.406031341298
0.55,40.45,-6.23859977944644,-6.66210719403497,1455.97334664588,3.40715557291733,141.518379393356
0.55,40.5,-6.13424186030823,-6.91060895921258,1458.00701325074,3.41160822235983,141.63081907295
0.55,40.55,-6.04297974358263,-7.1280649304597,1460.04090954742,3.41605927549432,141.743349305766
0.55,40.6,-5.96634775193116,-7.30121632034823,1462.07503411018,3.42050873509235,141.855969019484
0.55,40.65,-5.90579858542933,-7.41698363653334,1464.10938551872,3.42495660395545,141.968677143807
0.55,40.7,-5.86265139283992,-7.46441714997957,1466.14396235826,3.42940288491472,142.081472610498
0.55,40.75,-5.83803941591137,-7.43676889195755,1468.17876321952,3.43384758083031,142.194354353406
0.55,40.8,-5.83286104003687,-7.33301868609155,1470.21378669869,3.43829069459098,142.3073213085
0.55,40.85,-5.84773833045958,-7.15825306550847,1472.24903139746,3.44273222911365,142.420372413897
0.55,40.9,-5.88298684699986,-6.92272511819975,1474.28449592299,3.44717218734289,142.533506609897
0.55,40.95,-5.93859967973323,-6.63996786426168,1476.32017888795,3.45161057225051,142.646722839005
0.55,41,-6.0142473217776,-6.324639520878,1478.35607891045,3.45604738683508,142.760020045968
0.6,37,-13.8094023423063,-1.1107199514627,1331.28178065015,3.11073988451891,137.052680385771
0.6,37.05,-13.7923363011509,-1.11948994362133,1333.30687682834,3.11517509506787,137.154007021935
0.6,37.1,-13.7726505096886,-1.12882159386797,1335.33222160065,3.11960877121191,137.255398361495
0.6,37.15,-13.7503148331129,-1.13872520128443,1337.35781342219,3.12404091595544,137.35685337898
0.6,37.2,-13.7253020543894,-1.14921255528221,1339.38365075453,3.12847153233241,137.458371052136
0.6,37.25,-13.6975876528359,-1.16029703623067,1341.40973206563,3.13290062340572,137.559950361952
0.6,37.3,-13.6671495370663,-1.17199372413006,1343.43605582989,3.13732819226663,137.661590292679
0.6,37.35,-13.633967736017,-1.18431951620759,1345.46262052809,3.14175424203421,137.76328983185
0.6,37.4,-13.5980240531355,-1.19729325440884,1347.48942464744,3.14617877585479,137.865047970303
0.6,37.45,-13.5593016900525,-1.21093586386004,1349.51646668152,3.15060179690137,137.966863702196
0.6,37.5,-13.5177848471108,-1.22527050349254,1351.5437451303,3.1550233083731,138.068736025033
0.6,37.55,-13.4734583089482,-1.24032273014886,1353.57125850013,3.15944331349473,138.170663939677
0.6,37.6,-13.4263070238942,-1.25612067763247,1355.59900530372,3.16386181551606,138.272646450372
0.6,37.65,-13.3763156862239,-1.27269525232172,1357.62698406015,3.16827881771143,138.374682564762
0.6,37.7,-13.3234683303226,-1.2900803471433,1359.65519329483,3.17269432337918,138.476771293907
0.6,37.75,-13.2677479455681,-1.30831307589485,1361.68363153954,3.17710833584116,138.578911652301
0.6,37.8,-13.209136120263,-1.32743403011967,1363.71229733235,3.18152085844215,138.681102657892
0.6,37.85,-13.1476127223083,-1.34748756097152,1365.7411892177,3.18593189454944,138.783343332094
0.6,37.9,-13.0831556235332,-1.36852208876453,1367.77030574631,3.19034144755226,138.88563269981
0.6,37.95,-13.0157404737773,-1.39059044318274,1369.7996454752,3.19474952086132,138.987969789441
0.6,38,-12.9453405299899,-1.41375023742637,1371.82920696769,3.19915611790831,139.090353632909
0.6,38.05,-12.8719265448555,-1.43806427989521,1373.85898879338,3.20356124214541,139.192783265667
0.6,38.1,-12.795466718817,-1.46360102735207,1375.88898952814,3.20796489704483,139.295257726717
0.6,38.15,-12.7159267189008,-1.49043508386571,1377.9192077541,3.2123670860983,139.397776058624
0.6,38.2,-12.6332697674955,-1.51864775019468,1379.94964205962,3.21676781281665,139.500337307533
0.6,38.25,-12.547456804232,-1.54832762863031,1381.98029103931,3.22116708072931,139.602940523178
0.6,38.3,-12.4584467243815,-1.57957128864955,1384.01115329402,3.22556489338387,139.7055847589
0.6,38.35,-12.3661966977452,-1.61248399901081,1386.04222743077,3.22996125434561,139.80826907166
0.6,38.4,-12.2706625728798,-1.64718053212164,1388.07351206282,3.23435616719707,139.91099252205
0.6,38.45,-12.1717993726773,-1.68378604656307,1390.1050058096,3.23874963553762,140.013754174309
0.6,38.5,-12.0695618888204,-1.72243705349886,1392.13670729671,3.243141662983,140.116553096333
0.6,38.55,-11.9639053844545,-1.76328247222716,1394.16861515592,3.24753225316488,140.219388359687
0.6,38.6,-11.8547864165717,-1.80648477920826,1396.20072802516,3.25192140973046,140.32225903962
0.6,38.65,-11.742163792081,-1.85222125333211,1398.23304454847,3.25630913634204,140.425164215072
0.6,38.7,-11.6259996743531,-1.90068531771287,1400.26556337604,3.2606954366766,140.528102968688
0.6,38.75,-11.5062608601695,-1.95208797455635,1402.29828316415,3.26508031442538,140.631074386831
0.6,38.8,-11.3829202504659,-2.00665932415609,1404.3312025752,3.26946377329347,140.734077559586
0.6,38.85,-11.2559585420131,-2.06465015117672,1406.36432027765,3.27384581699946,140.837111580778
0.6,38.9,-11.125366171182,-2.12633355019172,1408.39763494604,3.27822644927495,140.940175547974
0.6,38.95,-10.9911455451149,-2.19200654675844,1410.43114526097,3.28260567386424,141.043268562501
0.6,39,-10.8533135998385,-2.26199164853024,1412.46484990907,3.28698349452389,141.146389729448
0.6,39.05,-10.7119047289184,-2.3366382308723,1414.49874758301,3.29135991502237,141.249538157679
