"W_line [mm]","Freq [GHz]","dB(S(1,1)) []","dB(S(2,1)) []","im(Gamma(1)) []","re(Gamma(1)) []","re(Zo(1)) []"
0.5,37,-11.954562169268,-1.80863227532281,1419.42879280302,3.36034141081559,106.550649488758
0.5,37.05,-11.854836178079,-1.84046212022563,1421.42193256881,3.36482113146401,106.573199692823
0.5,37.1,-11.7500412350723,-1.87472518377123,1423.41516463373,3.36930020029807,106.595748479922
0.5,37.15,-11.6401676733101,-1.91163961932927,1425.40848860215,3.37377861716275,106.618295755271
0.5,37.2,-11.5252156562609,-1.95144395007171,1427.40190407978,3.37825638191564,106.6408414247
0.5,37.25,-11.4051961284835,-1.99439914369518,1429.39541067366,3.38273349442689,106.663385394648
0.5,37.3,-11.2801321585194,-2.0407908490302,1431.38900799215,3.38720995457901,106.685927572169
0.5,37.35,-11.1500607026489,-2.09093178061064,1433.38269564497,3.39168576226685,106.708467864925
0.5,37.4,-11.0150348259178,-2.14516422273048,1435.37647324313,3.39616091739741,106.731006181194
0.5,37.45,-10.8751264244355,-2.20386260340539,1437.37034039899,3.40063541988975,106.753542429877
0.5,37.5,-10.7304295001272,-2.26743605844431,1439.36429672624,3.40510926967492,106.776076520501
0.5,37.55,-10.5810640454473,-2.33633086306887,1441.35834183987,3.40958246669579,106.798608363237
0.5,37.6,-10.4271806003868,-2.41103254853106,1443.35247535619,3.41405501090698,106.821137868911
0.5,37.65,-10.2689655464614,-2.49206743771829,1445.34669689285,3.41852690227476,106.843664949024
0.5,37.7,-10.1066472009077,-2.5800032185099,1447.34100606879,3.42299814077691,106.866189515771
0.5,37.75,-9.94050276717773,-2.67544801583324,1449.33540250428,3.42746872640265,106.888711482062
0.5,37.8,-9.77086618253526,-2.77904720912275,1451.32988582089,3.43193865915252,106.911230761531
0.5,37.85,-9.59813687691181,-2.8914769540964,1453.3244556415,3.43640793903829,106.933747268543
0.5,37.9,-9.42278941518763,-3.01343298633024,1455.3191115903,3.44087656608286,106.956260918164
0.5,37.95,-9.24538393293673,-3.1456127875475,1457.31385329278,3.44534454032014,106.978771626107
0.5,38,-9.0665771880638,-3.28868856518052,1459.30868037574,3.44981186179499,107.00127930862
0.5,38.05,-8.88713393218687,-3.4432677250125,1461.30359246726,3.45427853056309,107.023783882334
0.5,38.1,-8.70793815141164,-3.60983662931309,1463.29858919674,3.45874454669086,107.046285264053
0.5,38.15,-8.53000353395599,-3.78868251677158,1465.29367019485,3.46320991025537,107.06878337054
0.5,38.2,-8.35448229420772,-3.97978772639787,1467.28883509357,3.46767462134422,107.09127811833
0.5,38.25,-8.1826712293174,-4.18269024310787,1469.28408352616,3.4721386800555,107.11376942364
0.5,38.3,-8.01601362704288,-4.39630584851417,1471.27941512718,3.47660208649763,107.136257202413
0.5,38.35,-7.85609541947131,-4.61871110970862,1473.27482953246,3.48106484078933,107.158741370518
0.5,38.4,-7.70463384177649,-4.84689497601296,1475.27032637911,3.4855269430595,107.181221844049
0.5,38.45,-7.56345688104048,-5.07650220064092,1477.26590530554,3.48998839344712,107.203698539665
0.5,38.5,-7.43447207058514,-5.30161594307289,1479.26156595142,3.49444919210121,107.226171374876
0.5,38.55,-7.3196237781567,-5.51465857970723,1481.2573079577,3.49890933918068,107.248640268222
0.5,38.6,-7.22083909863821,-5.70652064552177,1483.25313096659,3.50336883485429,107.271105139339
0.5,38.65,-7.13996377686722,-5.8670379859573,1485.2490346216,3.50782767930054,107.29356590891
0.5,38.7,-7.07869114163582,-5.98589591439033,1487.24501856747,3.5122858727076,107.316022498571
0.5,38.75,-7.03848860591675,-6.05392082393597,1489.24108245024,3.5167434152732,107.338474830775
0.5,38.8,-7.0205275663965,-6.06453752213918,1491.23722591718,3.52120030720457,107.360922828668
0.5,38.85,-7.02562317196556,-6.0150054058237,1493.23344861684,3.52565654871836,107.383366415984
0.5,38.9,-7.05419014710419,-5.90702172968321,1495.22975019901,3.53011214004053,107.405805516963
0.5,38.95,-7.10621954607779,-5.74646400181253,1497.22613031476,3.53456708140629,107.428240056298
0.5,39,-7.1812791145176,-5.5423600448444,1499.22258861638,3.53902137305999,107.450669959091
0.5,39.05,-7.27853722130605,-5.30543982040221,1501.21912475743,3.54347501525507,107.47309515084
0.5,39.1,-7.39680761728838,-5.04669603026857,1503.21573839272,3.54792800825397,107.495515557423
0.5,39.15,-7.53461009766012,-4.77626563070156,1505.21242917828,3.55238035232803,107.517931105097
0.5,39.2,-7.6902408614428,-4.50275386280741,1507.2091967714,3.55683204775741,107.540341720493
0.5,39.25,-7.86184610447891,-4.23296607723244,1509.20604083059,3.56128309483104,107.562747330626
0.5,39.3,-8.04749304007202,-3.97193504215913,1511.20296101562,3.56573349384651,107.58514786289
0.5,39.35,-8.24523383176069,-3.72312077471322,1513.19995698748,3.57018324510998,107.607543245068
0.5,39.4,-8.45315949988845,-3.48868457865456,1515.19702840838,3.57463234893612,107.62993340533
0.5,39.45,-8.66944241507475,-3.26977272148519,1517.19417494177,3.57908080564804,107.652318272237
0.5,39.5,-8.89236729814195,-3.06677430768337,1519.19139625231,3.58352861557716,107.674697774743
0.5,39.55,-9.12035159836343,-2.87953824083536,1521.18869200591,3.58797577906318,107.697071842197
0.5,39.6,-9.35195670533581,-2.7075463965775,1523.18606186966,3.59242229645397,107.719440404341
0.5,39.65,-9.58589171252258,-2.55004647163831,1525.18350551189,3.5968681681055,107.741803391314
0.5,39.7,-9.82101147093178,-2.40615060727943,1527.18102260214,3.60131339438175,107.764160733649
0.5,39.75,-10.0563105325611,-2.27490643011198,1529.17861281115,3.60575797565462,107.786512362271
0.5,39.8,-10.2909143574794,-2.15534666098101,1531.17627581088,3.61020191230387,107.808858208501
0.5,39.85,-10.5240689005461,-2.04652253140457,1533.17401127448,3.61464520471701,107.831198204049
0.5,39.9,-10.7551294405434,-1.94752524921417,1535.17181887632,3.61908785328925,107.853532281017
0.5,39.95,-10.9835492872412,-1.85749883047064,1537.16969829195,3.62352985842339,107.875860371894
0.5,40,-11.2088688104681,-1.77564682649923,1539.16764919812,3.62797122052972,107.898182409558
0.5,40.05,-11.4307050817311,-1.7012348355694,1541.16567127278,3.63241194002598,107.920498327271
0.5,40.1,-11.6487423008947,-1.63359018712742,1543.16376419506,3.63685201733725,107.942808058677
0.5,40.15,-11.8627230931603,-1.57209980218353,1545.16192764528,3.64129145289584,107.965111537804
0.5,40.2,-12.0724406996029,-1.51620694433749,1547.16016130495,3.64573024714126,107.987408699056
0.5,40.25,-12.2777320424603,-1.46540736161335,1549.15846485675,3.65016840052006,108.009699477215
0.5,40.3,-12.4784716194681,-1.41924516242884,1551.15683798455,3.65460591348581,108.031983807438
0.5,40.35,-12.6745661657947,-1.3773086555816,1553.15528037337,3.65904278649896,108.054261625255
0.5,40.4,-12.8659500143638,-1.33922630303716,1555.15379170944,3.66347902002677,108.076532866566
0.5,40.45,-13.0525810830803,-1.30466287704352,1557.15237168011,3.66791461454323,108.098797467639
0.5,40.5,-13.2344374188339,-1.27331587323564,1559.15101997395,3.67234957052893,108.121055365109
0.5,40.55,-13.4115142317876,-1.24491220411562,1561.14973628065,3.67678388847102,108.143306495975
0.5,40.6,-13.5838213583811,-1.21920517903762,1563.14852029109,3.68121756886305,108.165550797596
0.5,40.65,-13.75138109703,-1.19597176497642,1565.14737169727,3.68565061220493,108.187788207694
0.5,40.7,-13.9142263662102,-1.17501011500997,1567.14629019237,3.6900830190028,108.210018664346
0.5,40.75,-14.0723991402051,-1.15613734722258,1569.14527547073,3.69451478976894,108.232242105985
0.5,40.8,-14.2259491230702,-1.13918755464586,1571.14432722781,3.69894592502169,108.254458471398
0.5,40.85,-14.3749326262422,-1.12401002619523,1573.14344516023,3.70337642528529,108.276667699724
0.5,40.9,-14.5194116196445,-1.11046765882981,1575.14262896574,3.70780629108986,108.298869730449
0.5,40.95,-14.6594529301047,-1.09843554201415,1577.14187834325,3.71223552297121,108.321064503407
0.5,41,-14.7951275644234,-1.08779969674876,1579.14119299278,3.71666412147081,108.34325195878
0.55,37,-13.1784505818777,-1.37516072447732,1421.90274234724,3.3337759899831,107.635532463032
0.55,37.05,-13.0108311806733,-1.41639092710204,1423.90149374698,3.3381982085859,107.659999222717
0.55,37.1,-12.8387246465663,-1.46114621394808,1425.90032143423,3.34261972373665,107.684456390075
0.55,37.15,-12.6621052816067,-1.50974974420992,1427.89922502501,3.34704053612417,107.70890387916
0.55,37.2,-12.4809647756738,-1.56256132155004,1429.89820413698,3.35146064644581,107.733341604655
0.55,37.25,-12.2953164577855,-1.61998139516324,1431.89725838939,3.35588005540728,107.757769481868
0.55,37.3,-12.1052003777594,-1.6824552556121,1433.89638740308,3.36029876372262,107.782187426736
0.55,37.35,-11.9106893585753,-1.75047729848106,1435.8955908005,3.36471677211403,107.806595355813
0.55,37.4,-11.7118961755,-1.82459514524738,1437.89486820567,3.36913408131181,107.830993186276
0.55,37.45,-11.5089820313101,-1.90541328816991,1439.89421924421,3.37355069205422,107.855380835919
0.55,37.5,-11.3021665049602,-1.99359574838434,1441.89364354332,3.3779666050874,107.87975822315
0.55,37.55,-11.0917391495846,-2.08986698186431,1443.89314073177,3.38238182116526,107.904125266992
0.55,37.6,-10.8780728986733,-2.19500990724565,1445.89271043989,3.38679634104938,107.928481887079
0.55,37.65,-10.6616393981225,-2.3098594249731,1447.89235229959,3.39121016550891,107.952828003651
0.55,37.7,-10.4430263051236,-2.43528910247885,1449.89206594434,3.39562329532048,107.977163537556
0.55,37.75,-10.2229564677231,-2.57218776320941,1451.89185100915,3.40003573126807,108.001488410248
0.55,37.8,-10.0023087033482,-2.72142149053674,1453.89170713059,3.40444747414295,108.025802543778
0.55,37.85,-9.78213961050387,-2.8837750210435,1455.89163394678,3.40885852474356,108.050105860801
0.55,37.9,-9.56370545576475,-3.05986471341951,1457.89163109737,3.41326888387543,108.074398284567
0.55,37.95,-9.34848266488323,-3.25001347223429,1459.89169822354,3.41767855235107,108.098679738921
0.55,38,-9.13818481466558,-3.45407676129128,1461.89183496803,3.42208753098989,108.1229501483
0.55,38.05,-8.93477330298935,-3.67120936864454,1463.89204097507,3.42649582061809,108.147209437733
0.55,38.1,-8.74045814687128,-3.89956710949106,1465.89231589044,3.43090342206858,108.171457532835
0.55,38.15,-8.55768476709367,-4.13594978346054,1467.8926593614,3.43531033618089,108.195694359807
0.55,38.2,-8.38910238274328,-4.3754163348242,1469.89307103677,3.43971656380106,108.219919845436
0.55,38.25,-8.23751004567096,-4.61094483014159,1471.89355056682,3.4441221057816,108.244133917086
0.55,38.3,-8.10577769543009,-4.83326771237517,1473.89409760337,3.44852696298133,108.268336502702
0.55,38.35,-7.99674212818122,-5.03107078098177,1475.8947117997,3.45293113626534,108.292527530805
0.55,38.4,-7.91308143754815,-5.1917601373017,1477.8953928106,3.4573346265049,108.316706930491
0.55,38.45,-7.85717591143526,-5.30290917313294,1479.89614029234,3.46173743457735,108.340874631425
0.55,38.5,-7.83096771508236,-5.35425118848756,1481.89695390268,3.46613956136602,108.365030563844
0.55,38.55,-7.83583476829581,-5.33973999373823,1483.89783330084,3.47054100776017,108.389174658552
0.55,38.6,-7.87249482696405,-5.25896954766476,1485.89877814752,3.47494177465489,108.413306846915
0.55,38.65,-7.9409531654354,-5.11736510812598,1487.89978810489,3.47934186295099,108.437427060866
0.55,38.7,-8.0405015834595,-4.92505024264164,1489.90086283657,3.48374127355495,108.461535232894
0.55,38.75,-8.16976889836557,-4.6948534732473,1491.90200200764,3.48814000737883,108.485631296049
0.55,38.8,-8.32681547942492,-4.44017798521381,1493.90320528465,3.4925380653402,108.509715183933
0.55,38.85,-8.50925860135534,-4.17332029363905,1495.90447233556,3.49693544836201,108.533786830703
0.55,38.9,-8.71441264426551,-3.90448380808601,1497.90580282981,3.50133215737257,108.557846171069
0.55,38.95,-8.93942864642529,-3.64143570574756,1499.90719643824,3.50572819330544,108.581893140285
0.55,39,-9.18142071343272,-3.38961097894284,1501.90865283315,3.51012355709934,108.605927674155
0.55,39.05,-9.43757110480785,-3.15245461689449,1503.91017168825,3.51451824969811,108.629949709024
0.55,39.1,-9.70521025918893,-2.93184433996968,1505.91175267869,3.51891227205058,108.653959181781
0.55,39.15,-9.98187172306655,-2.72849921313208,1507.91339548101,3.52330562511053,108.677956029852
0.55,39.2,-10.2653245073651,-2.54232921969638,1509.91509977319,3.52769830983663,108.701940191202
0.55,39.25,-10.5535867875842,-2.372712437975,1511.91686523458,3.5320903271923,108.725911604327
0.55,39.3,-10.8449252989025,-2.2187032346493,1513.91869154597,3.53648167814568,108.749870208259
0.55,39.35,-11.1378445587766,-2.07918201778516,1515.92057838954,3.54087236366956,108.773815942558
0.55,39.4,-11.4310694639445,-1.95295881405695,1517.92252544883,3.54526238474129,108.797748747311
0.55,39.45,-11.7235240800975,-1.83884204577713,1519.9245324088,3.54965174234269,108.821668563131
0.55,39.5,-12.0143087187811,-1.73568199873858,1521.92659895579,3.55404043746001,108.845575331155
0.55,39.55,-12.3026767595848,-1.64239642267645,1523.9287247775,3.55842847108384,108.869468993038
0.55,39.6,-12.5880121611246,-1.55798386305586,1525.93090956302,3.56281584420903,108.893349490955
0.55,39.65,-12.8698082167437,-1.48152881082233,1527.93315300278,3.56720255783465,108.917216767596
0.55,39.7,-13.1476478396398,-1.41220158199706,1529.93545478861,3.57158861296385,108.941070766165
0.55,39.75,-13.4211854903327,-1.34925495870752,1531.93781461367,3.5759740106039,108.964911430378
0.55,39.8,-13.6901307690964,-1.29201898057112,1533.94023217249,3.58035875176599,108.988738704458
0.55,39.85,-13.9542336705908,-1.23989481554961,1535.94270716092,3.58474283746526,109.012552533135
0.55,39.9,-14.2132715223658,-1.19234831595085,1537.94523927619,3.5891262687207,109.036352861646
0.55,39.95,-14.467037688546,-1.14890364121071,1539.94782821684,3.59350904655504,109.060139635727
0.55,40,-14.7153321989189,-1.1091371762556,1541.95047368275,3.59789117199476,109.083912801614
0.55,40.05,-14.9579545429482,-1.07267187172048,1543.95317537514,3.60227264606995,109.107672306042
0.55,40.1,-15.1946989251855,-1.03917206487395,1545.95593299653,3.60665346981428,109.131418096239
0.55,40.15,-15.4253522874583,-1.00833879689385,1547.95874625078,3.61103364426493,109.155150119928
0.55,40.2,-15.6496953388724,-0.979905615433972,1549.96161484306,3.61541317046251,109.17886832532
0.55,40.25,-15.8675066787593,-0.953634835823563,1551.96453847983,3.619792049451,109.202572661116
0.55,40.3,-16.0785698471967,-0.929314225996945,1553.96751686887,3.62417028227769,109.226263076502
0.55,40.35,-16.2826828130979,-0.90675407677754,1555.97054971927,3.6285478699931,109.249939521148
0.55,40.4,-16.4796690590044,-0.885784618680605,1557.97363674138,3.63292481365093,109.273601945205
0.55,40.45,-16.6693891158047,-0.86625374776276,1559.97677764688,3.63730111430799,109.297250299303
0.55,40.5,-16.8517512194575,-0.848025025444302,1561.97997214869,3.64167677302412,109.320884534549
0.55,40.55,-17.0267197711169,-0.830975920142396,1563.98321996105,3.64605179086217,109.344504602523
0.55,40.6,-17.1943205094307,-0.814996261648081,1565.98652079946,3.65042616888787,109.36811045528
0.55,40.65,-17.3546417236064,-0.799986882250542,1567.98987438067,3.65479990816983,109.391702045342
0.55,40.7,-17.5078313711005,-0.785858421535715,1569.99328042272,3.65917300977943,109.415279325701
0.55,40.75,-17.6540905063391,-0.772530274497263,1571.99673864491,3.66354547479079,109.438842249811
0.55,40.8,-17.7936638690346,-0.759929665065066,1574.00024876777,3.66791730428068,109.462390771593
0.55,40.85,-17.9268287459087,-0.747990829372438,1576.00381051312,3.67228849932848,109.485924845426
0.55,40.9,-18.0538832806342,-0.736654295055211,1578.00742360398,3.67665906101611,109.509444426148
0.55,40.95,-18.1751352856807,-0.725866244617256,1580.01108776466,3.68102899042796,109.532949469055
0.55,41,-18.2908923632229,-0.715577952427577,1582.01480272066,3.68539828865085,109.556439929895
0.6,37,-13.9900729715665,-1.23849134552105,1424.29879527494,3.3258770975461,109.388305250329
0.6,37.05,-13.8036809119438,-1.28607093515476,1426.30189105714,3.33025174864405,109.413444494848
0.6,37.1,-13.6121437499342,-1.33780551568498,1428.30504789407,3.33462568851693,109.438565055758
0.6,37.15,-13.4154524788042,-1.39413771302136,1430.30826543117,3.3389989185357,109.463666872398
0.6,37.2,-13.2136381405286,-1.45556090438649,1432.31154331558,3.34337144007485,109.488749884804
0.6,37.25,-13.006782442614,-1.5226231329424,1434.31488119621,3.3477432545122,109.513814033711
0.6,37.3,-12.7950306384426,-1.5959300970092,1436.31827872368,3.3521143632289,109.538859260543
0.6,37.35,-12.5786070625563,-1.67614639973609,1438.32173555033,3.35648476760931,109.563885507414
0.6,37.4,-12.3578337341203,-1.76399383276229,1440.32525133024,3.36085446904092,109.588892717121
0.6,37.45,-12.1331524350584,-1.86024488104353,1442.32882571915,3.36522346891424,109.61388083314
0.6,37.5,-11.9051506129304,-1.9657088181366,1444.33245837455,3.36959176862276,109.638849799627
0.6,37.55,-11.6745913219408,-2.08120664963956,1446.33614895559,3.37395936956284,109.663799561408
0.6,37.6,-11.4424471563614,-2.20752970703253,1448.3398971231,3.37832627313362,109.688730063979
0.6,37.65,-11.2099376944341,-2.34537489597126,1450.34370253962,3.38269248073697,109.713641253501
0.6,37.7,-10.9785692926525,-2.49524759551708,1452.34756486934,3.38705799377738,109.738533076795
0.6,37.75,-10.7501750840501,-2.65732140551922,1454.3514837781,3.3914228136619,109.763405481343
0.6,37.8,-10.5269516926668,-2.83124330892726,1456.35545893342,3.39578694180005,109.788258415276
0.6,37.85,-10.3114874891254,-3.01587523983656,1458.35949000446,3.40015037960375,109.813091827381
0.6,37.9,-10.1067753034613,-3.20897176714342,1460.36357666202,3.40451312848724,109.837905667085
0.6,37.95,-9.91620069518113,-3.40681334613914,1462.36771857854,3.40887518986701,109.862699884462
0.6,38,-9.74349573081247,-3.60385049841472,1464.37191542808,3.41323656516172,109.887474430224
0.6,38.05,-9.59264858311303,-3.79246793435364,1466.37616688633,3.41759725579213,109.912229255717
0.6,38.1,-9.4677621411257,-3.9630384040679,1468.38047263059,3.42195726318103,109.936964312919
0.6,38.15,-9.37286101314922,-4.1044694048166,1470.38483233976,3.42631658875315,109.961679554436
0.6,38.2,-9.31165586567804,-4.20539044975543,1472.38924569435,3.43067523393511,109.986374933499
0.6,38.25,-9.28728564864978,-4.25592691989208,1474.39371237645,3.43503320015535,110.011050403957
0.6,38.3,-9.30206895673668,-4.24968197463274,1476.39823206975,3.43939048884405,110.035705920278
0.6,38.35,-9.35730155836326,-4.18527231778786,1478.40280445952,3.44374710143306,110.060341437541
0.6,38.4,-9.45313449352704,-4.06678639648618,1480.40742923257,3.44810303935584,110.084956911437
0.6,38.45,-9.58855510025586,-3.90294447556216,1482.41210607733,3.45245830404739,110.109552298261
0.6,38.5,-9.76147454324621,-3.70530544242113,1484.41683468373,3.45681289694418,110.13412755491
0.6,38.55,-9.96890551403065,-3.48620496470608,1486.42161474329,3.4611668194841,110.158682638881
0.6,38.6,-10.2071988890833,-3.25705019975416,1488.42644594906,3.46552007310638,110.183217508264
0.6,38.65,-10.4723021555517,-3.02728041428496,1490.43132799563,3.46987265925151,110.207732121743
0.6,38.7,-10.7600055720786,-2.80398438533952,1492.43626057911,3.47422457936124,110.232226438587
0.6,38.75,-11.0661514874914,-2.59198996381301,1494.44124339715,3.47857583487843,110.256700418651
0.6,38.8,-11.3867939428532,-2.39420946224136,1496.44627614891,3.48292642724707,110.28115402237
0.6,38.85,-11.7183061913378,-2.21207153201784,1498.45135853506,3.48727635791215,110.305587210757
0.6,38.9,-12.057441190547,-2.04593638943504,1500.45649025778,3.49162562831966,110.329999945397
0.6,38.95,-12.4013540873447,-1.89544589381298,1502.46167102072,3.49597423991648,110.354392188446
0.6,39,-12.7475968418086,-1.75979511530161,1504.46690052905,3.50032219415036,110.378763902626
0.6,39.05,-13.0940944068897,-1.63793053392851,1506.47217848941,3.50466949246983,110.403115051223
